# GHz S MA R 50
! S-Parameters data
! Freq  magS11  angS11  magS12  angS12  magS13  angS13  magS14  angS14
!       magS21  angS21  magS22  angS22  magS23  angS23  magS24  angS24
!       magS31  angS31  magS32  angS32  magS33  angS33  magS34  angS34
!       magS41  angS41  magS42  angS42  magS43  angS43  magS44  angS44
!     
0.0000000000           1.26287010e-02  -3.66745729e+00 7.26271642e-08  8.16950750e+01  1.35592749e-03  3.63517631e+01  9.43186329e-08  8.07399289e+01 
                       7.26282275e-08  8.16949317e+01  1.26335831e-02  -3.50002205e+00 6.42433760e-08  8.22802099e+01  1.37810493e-03  3.71316099e+01 
                       1.36042282e-03  3.61949136e+01  6.42450187e-08  8.22802307e+01  1.26427812e-02  -3.70995668e+00 9.10395946e-08  8.11993241e+01 
                       9.43189211e-08  8.07401357e+01  1.38261720e-03  3.69786375e+01  9.10351479e-08  8.11992998e+01  1.26483755e-02  -3.54569310e+00
0.0100000000           2.07575344e-02  4.00709081e+01  7.54698178e-07  7.87571898e+01  2.04021758e-02  7.66550428e+01  8.17664669e-07  7.80134155e+01 
                       7.54698336e-07  7.87571778e+01  2.08160963e-02  4.01720137e+01  7.85253836e-07  7.94515012e+01  2.04466574e-02  7.66347809e+01 
                       2.04017914e-02  7.66389089e+01  7.85244560e-07  7.94516664e+01  2.07736631e-02  4.00678265e+01  8.64265172e-07  7.86296476e+01 
                       8.17655331e-07  7.80135576e+01  2.04462746e-02  7.66186815e+01  8.64265329e-07  7.86296374e+01  2.08093238e-02  4.01094010e+01 
0.0200000000           3.41557996e-02  4.46331302e+01  1.43132335e-06  7.41875938e+01  3.99942595e-02  6.81628317e+01  1.54682869e-06  7.36468394e+01 
                       1.43131741e-06  7.41876955e+01  3.42923771e-02  4.47066514e+01  1.49247830e-06  7.49860943e+01  4.00787463e-02  6.81333996e+01 
                       3.99928181e-02  6.81557475e+01  1.49246291e-06  7.49863883e+01  3.41883037e-02  4.46408689e+01  1.63867302e-06  7.44253192e+01 
                       1.54680827e-06  7.36468800e+01  4.00775767e-02  6.81256251e+01  1.63866733e-06  7.44253037e+01  3.42643988e-02  4.46628022e+01 
0.0300000000           4.71173904e-02  3.99011705e+01  2.01909500e-06  6.97013551e+01  5.83656950e-02  5.88798603e+01  2.18085019e-06  6.92433918e+01 
                       2.01909438e-06  6.97013598e+01  4.72920007e-02  3.99549178e+01  2.10890131e-06  7.06734847e+01  5.84786161e-02  5.88505756e+01 
                       5.83639530e-02  5.88750673e+01  2.10888243e-06  7.06738945e+01  4.71423572e-02  3.99412675e+01  2.31521574e-06  7.02250222e+01 
                       2.18082980e-06  6.92437755e+01  5.84769205e-02  5.88457055e+01  2.31521518e-06  7.02250242e+01  4.72492705e-02  3.99214645e+01 
0.0400000000           5.84452806e-02  3.26326076e+01  2.51586178e-06  6.59285592e+01  7.51549293e-02  4.95641317e+01  2.71911202e-06  6.54987113e+01 
                       2.51586250e-06  6.59285194e+01  5.86567023e-02  3.26815209e+01  2.63153109e-06  6.70920896e+01  7.52900507e-02  4.95312089e+01 
                       7.51529438e-02  4.95606402e+01  2.63151321e-06  6.70925932e+01  5.84737306e-02  3.26950989e+01  2.89327126e-06  6.66884982e+01 
                       2.71909474e-06  6.54991684e+01  7.52879905e-02  4.95278329e+01  2.89327167e-06  6.66884648e+01  5.86044899e-02  3.26531431e+01 
0.0500000000           6.79023218e-02  2.46310926e+01  2.92654154e-06  6.30279392e+01  9.01249271e-02  4.03407598e+01  3.16731257e-06  6.25769169e+01 
                       2.92654141e-06  6.30279137e+01  6.81388070e-02  2.46745320e+01  3.06550337e-06  6.43943707e+01  9.02736540e-02  4.03040424e+01 
                       9.01227144e-02  4.03382339e+01  3.06548947e-06  6.43949136e+01  6.79323850e-02  2.47120953e+01  3.37912793e-06  6.39669698e+01 
                       3.16729795e-06  6.25774200e+01  9.02713865e-02  4.03015730e+01  3.37912765e-06  6.39669478e+01  6.80820216e-02  2.46487356e+01 
0.0600000000           7.55403423e-02  1.64843943e+01  3.26412739e-06  6.10856103e+01  1.03107978e-01  3.12275433e+01  3.53900203e-06  6.05626591e+01 
                       3.26412646e-06  6.10856150e+01  7.57869861e-02  1.65235670e+01  3.42469711e-06  6.26616917e+01  1.03261203e-01  3.11874448e+01 
                       1.03105518e-01  3.12257502e+01  3.42468849e-06  6.26622291e+01  7.55701181e-02  1.65843403e+01  3.78737056e-06  6.21339910e+01 
                       3.53899160e-06  6.05631991e+01  1.03258836e-01  3.11855779e+01  3.78737046e-06  6.21339960e+01  7.57304900e-02  1.64991285e+01 
0.0700000000           8.15081131e-02  8.39249490e+00  3.54826818e-06  6.01369017e+01  1.13974728e-01  2.22135771e+01  3.85440820e-06  5.94902703e+01 
                       3.54826665e-06  6.01369268e+01  8.17504421e-02  8.42835769e+00  3.73010452e-06  6.19236644e+01  1.14123156e-01  2.21703723e+01 
                       1.13972019e-01  2.22123179e+01  3.73010127e-06  6.19241780e+01  8.15368723e-02  8.51192706e+00  4.13950839e-06  6.12114146e+01 
                       3.85440395e-06  5.94908154e+01  1.14120782e-01  2.21689262e+01  4.13950976e-06  6.12114271e+01  8.16991459e-02  8.40459454e+00 
0.0800000000           8.59671989e-02  4.05883454e-01  3.80351282e-06  6.01625691e+01  1.22619146e-01  1.32817571e+01  4.13879647e-06  5.93422770e+01 
                       3.80351044e-06  6.01625981e+01  8.61905359e-02  4.38623814e-01  4.00798142e-06  6.21531747e+01  1.22753340e-01  1.32355471e+01 
                       1.22616237e-01  1.32808649e+01  4.00798374e-06  6.21536206e+01  8.59943575e-02  5.44946777e-01  4.46213932e-06  6.11686062e+01 
                       4.13879859e-06  5.93427851e+01  1.22751040e-01  1.32344017e+01  4.46214181e-06  6.11686368e+01  8.61494176e-02  4.15057999e-01 
0.0900000000           8.90536425e-02  -7.48637611e+00 4.05782823e-06  6.10751847e+01  1.28954566e-01  4.41632184e+00  4.42105060e-06  6.00374663e+01 
                       4.05782413e-06  6.10752038e+01  8.92423336e-02  -7.45687514e+00 4.28826522e-06  6.32514493e+01  1.29065022e-01  4.36709481e+00 
                       1.28951503e-01  4.41567635e+00  4.28827314e-06  6.32518642e+01  8.90781035e-02  -7.32767836e+00 4.78537716e-06  6.19130071e+01 
                       4.42105808e-06  6.00379045e+01  1.29062823e-01  4.36617504e+00  4.78538074e-06  6.19130054e+01  8.92163354e-02  -7.48065371e+00
0.1000000000           9.08650787e-02  -1.53193752e+01 4.34122340e-06  6.27049441e+01  1.32915008e-01  -4.39494062e+00 4.73231127e-06  6.14175581e+01 
                       4.34121623e-06  6.27049443e+01  9.10023724e-02  -1.52930618e+01 4.60300380e-06  6.50342655e+01  1.32992246e-01  -4.44726049e+00
                       1.32911913e-01  -4.39543383e+00 4.60301747e-06  6.50346170e+01  9.08851382e-02  -1.51409923e+01 5.14137346e-06  6.32806024e+01 
                       4.73232095e-06  6.14179096e+01  1.32990212e-01  -4.44801699e+00 5.14137735e-06  6.32806002e+01  9.09963928e-02  -1.53174817e+01
0.1100000000           9.15139023e-02  -2.31377623e+01 4.68900329e-06  6.48244187e+01  1.34459243e-01  -1.31601798e+01 5.10102273e-06  6.33371429e+01 
                       4.68899546e-06  6.48244238e+01  9.15842440e-02  -2.31137513e+01 4.98818991e-06  6.72395311e+01  1.34494030e-01  -1.32156070e+01
                       1.34456413e-01  -1.31605624e+01 4.98820816e-06  6.72398034e+01  9.15277972e-02  -2.29397831e+01 5.56943073e-06  6.50664627e+01 
                       5.10103853e-06  6.33374148e+01  1.34492134e-01  -1.32162353e+01 5.56943504e-06  6.50664616e+01  9.16034919e-02  -2.31393501e+01
0.1200000000           9.09531635e-02  -3.09818957e+01 5.12571614e-06  6.70657262e+01  1.33569454e-01  -2.18827810e+01 5.56243907e-06  6.53694068e+01 
                       5.12570760e-06  6.70657378e+01  9.09413882e-02  -3.09592904e+01 5.47021647e-06  6.95172031e+01  1.33552384e-01  -2.19413144e+01
                       1.33566897e-01  -2.18830915e+01 5.47023763e-06  6.95174011e+01  9.09598170e-02  -3.07642669e+01 6.09340847e-06  6.69322645e+01 
                       5.56245910e-06  6.53696027e+01  1.33550657e-01  -2.19418527e+01 6.09341405e-06  6.69322636e+01  9.09902718e-02  -3.09866449e+01
0.1300000000           8.91892252e-02  -3.88899428e+01 5.67720794e-06  6.90843426e+01  1.30258120e-01  -3.05612479e+01 6.14328861e-06  6.71889818e+01 
                       5.67719897e-06  6.90843608e+01  8.90808158e-02  -3.88675149e+01 6.07526063e-06  7.15244002e+01  1.30180084e-01  -3.06227652e+01
                       1.30255805e-01  -3.05615035e+01 6.07528325e-06  7.15245307e+01  8.91872856e-02  -3.86525772e+01 6.74031057e-06  6.85783396e+01 
                       6.14331152e-06  6.71891078e+01  1.30178512e-01  -3.06232303e+01 6.74031611e-06  6.85783380e+01  8.91634439e-02  -3.88973006e+01
0.1400000000           8.62124368e-02  -4.68958331e+01 6.36368187e-06  7.05596474e+01  1.24568686e-01  -3.91867084e+01 6.86430909e-06  6.84893526e+01 
                       6.36367213e-06  7.05596711e+01  8.59938896e-02  -4.68719782e+01 6.82289500e-06  7.29532280e+01  1.24421072e-01  -3.92508278e+01
                       1.24566587e-01  -3.91869174e+01 6.82291866e-06  7.29532998e+01  8.62001966e-02  -4.66385242e+01 7.53100748e-06  6.97265637e+01 
                       6.86433404e-06  6.84894175e+01  1.24419639e-01  -3.92512311e+01 7.53101346e-06  6.97265613e+01  8.61138942e-02  -4.69049399e+01
0.1500000000           8.20073039e-02  -5.50286347e+01 7.19710764e-06  7.12393509e+01  1.16578333e-01  -4.77388612e+01 7.73762016e-06  6.90268132e+01 
                       7.19709771e-06  7.12393778e+01  8.16665756e-02  -5.50012978e+01 7.72361704e-06  7.35717091e+01  1.16353348e-01  -4.78046530e+01
                       1.16576444e-01  -4.77390393e+01 7.72364031e-06  7.35717381e+01  8.19827522e-02  -5.47510144e+01 8.47756955e-06  7.01560085e+01 
                       7.73764559e-06  6.90268329e+01  1.16352061e-01  -4.78050120e+01 8.47757584e-06  7.01560043e+01  8.18270214e-02  -5.50382739e+01
0.1600000000           7.65634093e-02  -6.33131754e+01 8.17867617e-06  7.09646008e+01  1.06402160e-01  -5.61783236e+01 8.76423680e-06  6.86456266e+01 
                       8.17866605e-06  7.09646300e+01  7.60904512e-02  -6.32796954e+01 8.77654223e-06  7.32425375e+01  1.06093253e-01  -5.62438294e+01
                       1.06400471e-01  -5.61784781e+01 8.77656427e-06  7.32425352e+01  7.65243109e-02  -6.30146327e+01 9.58063687e-06  6.97236947e+01 
                       8.76426098e-06  6.86456141e+01  1.06092103e-01  -5.62441537e+01 9.58064468e-06  6.97236884e+01  7.62937366e-02  -6.33216709e+01
0.1700000000           6.98858273e-02  -7.17719825e+01 9.29663010e-06  6.96728530e+01  9.41976892e-02  -6.44308023e+01 9.93196951e-06  6.72815983e+01 
                       9.29661977e-06  6.96728831e+01  6.92731667e-02  -7.17288624e+01 9.96747951e-06  7.19204603e+01  9.38001337e-02  -6.44919633e+01
                       9.41961944e-02  -6.44309461e+01 9.96749944e-06  7.19204405e+01  6.98297435e-02  -7.14514819e+01 1.08271730e-05  6.83683246e+01 
                       9.93199247e-06  6.72815669e+01  9.37991226e-02  -6.44922703e+01 1.08271812e-05  6.83683172e+01  6.95208512e-02  -7.17769812e+01
0.1800000000           6.20048787e-02  -8.04296777e+01 1.05250025e-05  6.73844782e+01  8.01713061e-02  -7.23512218e+01 1.12141940e-05  6.49500363e+01 
                       1.05249920e-05  6.73845067e+01  6.12482484e-02  -8.03722169e+01 1.12678335e-05  6.96365496e+01  7.96829628e-02  -7.23993819e+01
                       8.01699803e-02  -7.23513474e+01 1.12678506e-05  6.96365182e+01  6.19292956e-02  -8.00855425e+01 1.21891158e-05  6.61011974e+01 
                       1.12142143e-05  6.49499936e+01  7.96820712e-02  -7.23996698e+01 1.21891244e-05  6.61011901e+01  6.15409703e-02  -8.04279019e+01
0.1900000000           5.29844365e-02  -8.93232738e+01 1.18237157e-05  6.41825383e+01  6.45889727e-02  -7.96293007e+01 1.25699155e-05  6.17270848e+01 
                       1.18237050e-05  6.41825660e+01  5.20833494e-02  -8.92450906e+01 1.26348356e-05  6.64784196e+01  6.40115137e-02  -7.96440937e+01
                       6.45878067e-02  -7.96294005e+01 1.26348494e-05  6.64783823e+01  5.28868386e-02  -8.89526824e+01 1.36234545e-05  6.29909987e+01 
                       1.25699327e-05  6.17270374e+01  6.40107337e-02  -7.96443654e+01 1.36234645e-05  6.29909901e+01  5.24207048e-02  -8.93101142e+01
0.2000000000           4.29276823e-02  -9.85290390e+01 1.31404544e-05  6.01927855e+01  4.78043502e-02  -8.54838497e+01 1.39455925e-05  5.77310681e+01 
                       1.31404436e-05  6.01928105e+01  4.18859142e-02  -9.84217756e+01 1.40135448e-05  6.25721037e+01  4.71462369e-02  -8.54073937e+01
                       4.78033314e-02  -8.54838548e+01 1.40135551e-05  6.25720626e+01  4.28056546e-02  -9.81270121e+01 1.50741922e-05  5.91478048e+01 
                       1.39456068e-05  5.77310159e+01  4.71455545e-02  -8.54076016e+01 1.50742016e-05  5.91477961e+01  4.22663693e-02  -9.84982365e+01
0.2100000000           3.19805684e-02  -1.08248569e+02 1.44144562e-05  5.55675762e+01  3.03849178e-02  -8.72934247e+01 1.52788967e-05  5.31072833e+01 
                       1.44144462e-05  5.55675993e+01  3.08062759e-02  -1.08105072e+02 1.53408294e-05  5.80679685e+01  2.96752546e-02  -8.68925266e+01
                       3.03840488e-02  -8.72932678e+01 1.53408367e-05  5.80679318e+01  3.18318120e-02  -1.07805644e+02 1.64763652e-05  5.47094230e+01 
                       1.52789093e-05  5.31072371e+01  2.96746684e-02  -8.68926831e+01 1.64763761e-05  5.47094141e+01  3.12271898e-02  -1.08193849e+02
0.2200000000           2.03365435e-02  -1.19202260e+02 1.55820340e-05  5.04742838e+01  1.42192224e-02  -7.01129229e+01 1.65042620e-05  4.80168357e+01 
                       1.55820238e-05  5.04743043e+01  1.90421024e-02  -1.19059524e+02 1.65511259e-05  5.31306758e+01  1.36671658e-02  -6.76691334e+01
                       1.42186065e-02  -7.01112952e+01 1.65511290e-05  5.31306429e+01  2.01585907e-02  -1.18699496e+02 1.77619521e-05  4.98308260e+01 
                       1.65042707e-05  4.80167932e+01  1.36667273e-02  -6.76683283e+01 1.77619621e-05  4.98308170e+01  1.94996924e-02  -1.19142968e+02
0.2300000000           8.29928458e-03  -1.36499565e+02 1.65832011e-05  4.50874708e+01  1.36986103e-02  6.45941044e+00  1.75596025e-05  4.26288633e+01 
                       1.65831918e-05  4.50874884e+01  6.91262374e-03  -1.37675781e+02 1.75833373e-05  4.79322778e+01  1.43260759e-02  8.93470248e+00 
                       1.36989019e-02  6.46166974e+00  1.75833383e-05  4.79322508e+01  8.08790375e-03  -1.35977594e+02 1.88669702e-05  4.46764421e+01 
                       1.75596086e-05  4.26288267e+01  1.43262041e-02  8.93615670e+00  1.88669804e-05  4.46764337e+01  7.39693118e-03  -1.37213198e+02
0.2400000000           4.84069606e-03  7.31015462e+01  1.73683996e-05  3.95838243e+01  2.97785746e-02  2.55355261e+01  1.83931950e-05  3.71153634e+01 
                       1.73683902e-05  3.95838390e+01  6.12682518e-03  6.55502517e+01  1.83878036e-05  4.26476111e+01  3.06710177e-02  2.59489415e+01 
                       2.97789963e-02  2.55360404e+01  1.83878025e-05  4.26475903e+01  5.01959245e-03  7.16307158e+01  1.97387051e-05  3.94147152e+01 
                       1.83931993e-05  3.71153335e+01  3.06712380e-02  2.59493120e+01  1.97387154e-05  3.94147071e+01  5.66546080e-03  6.76720581e+01 
0.2500000000           1.70001770e-02  4.63340797e+01  1.79042651e-05  3.41387442e+01  4.74000992e-02  2.40596692e+01  1.89696346e-05  3.16475930e+01 
                       1.79042565e-05  3.41387562e+01  1.84713227e-02  4.50529376e+01  1.89322454e-05  3.74509595e+01  4.83486575e-02  2.41242597e+01 
                       4.74004613e-02  2.40598538e+01  1.89322409e-05  3.74509455e+01  1.72447312e-02  4.63796364e+01  2.03419050e-05  3.42140767e+01 
                       1.89696365e-05  3.16475700e+01  4.83488406e-02  2.41243912e+01  2.03419142e-05  3.42140691e+01  1.79575839e-02  4.53966937e+01 
0.2600000000           2.92060583e-02  3.44799457e+01  1.81774882e-05  2.89241777e+01  6.44992103e-02  1.83395258e+01  1.92738885e-05  2.63937498e+01 
                       1.81774804e-05  2.89241874e+01  3.07132846e-02  3.38239888e+01  1.92056949e-05  3.25136941e+01  6.54623726e-02  1.82943250e+01 
                       6.44994966e-02  1.83395997e+01  1.92056895e-05  3.25136869e+01  2.94808871e-02  3.47035815e+01  2.06629431e-05  2.92401047e+01 
                       1.92738884e-05  2.63937335e+01  6.54625051e-02  1.82943710e+01  2.06629521e-05  2.92400983e+01  3.01878555e-02  3.39751736e+01 
0.2700000000           4.09860561e-02  2.43481370e+01  1.81962409e-05  2.41068777e+01  8.04705076e-02  1.11644568e+01  1.93128972e-05  2.15171664e+01 
                       1.81962339e-05  2.41068855e+01  4.24903113e-02  2.39109332e+01  1.92198886e-05  2.80020418e+01  8.14226763e-02  1.10707812e+01 
                       8.04707189e-02  1.11644786e+01  1.92198830e-05  2.80020421e+01  4.12858054e-02  2.46446970e+01  2.07113559e-05  2.46530747e+01 
                       1.93128957e-05  2.15171569e+01  8.14227553e-02  1.10707862e+01  2.07113637e-05  2.46530685e+01  4.19652677e-02  2.39939780e+01 
0.2800000000           5.21044211e-02  1.47727727e+01  1.79892839e-05  1.98465979e+01  9.49343153e-02  3.35767294e+00  1.91148316e-05  1.71745944e+01 
                       1.79892778e-05  1.98466035e+01  5.35732705e-02  1.44506305e+01  1.90082501e-05  2.40744305e+01  9.58536102e-02  3.23827546e+00 
                       9.49344563e-02  3.35766445e+00  1.90082442e-05  2.40744377e+01  5.24248867e-02  1.51135584e+01  2.05189233e-05  2.06054657e+01 
                       1.91148301e-05  1.71745932e+01  9.58536398e-02  3.23825781e+00  2.05189300e-05  2.06054601e+01  5.30591447e-02  1.44979335e+01 
0.2900000000           6.23640595e-02  5.45782605e+00  1.76031477e-05  1.62929942e+01  1.07604456e-01  -4.75178509e+00 1.87263889e-05  1.35133830e+01 
                       1.76031431e-05  1.62929991e+01  6.37671072e-02  5.21107161e+00  1.86228679e-05  2.08769878e+01  1.08470962e-01  -4.88638554e+00
                       1.07604527e-01  -4.75181675e+00 1.86228622e-05  2.08770027e+01  6.27007370e-02  5.83131657e+00  2.01366757e-05  1.72381720e+01 
                       1.87263869e-05  1.35133907e+01  1.08470937e-01  -4.88642057e+00 2.01366812e-05  1.72381669e+01  6.32742425e-02  5.23515219e+00 
0.3000000000           7.15953693e-02  -3.71006673e+00 1.70982091e-05  1.35800240e+01  1.18261104e-01  -1.30062797e+01 1.82089510e-05  1.06663683e+01 
                       1.70982054e-05  1.35800274e+01  7.29037076e-02  -3.89994108e+00 1.81302966e-05  1.85358582e+01  1.19056550e-01  -1.31505080e+01
                       1.18261129e-01  -1.30063217e+01 1.81302926e-05  1.85358780e+01  7.19431522e-02  -3.30936537e+00 1.96307121e-05  1.46743069e+01 
                       1.82089493e-05  1.06663815e+01  1.19056493e-01  -1.31505482e+01 1.96307174e-05  1.46743040e+01  7.24423429e-02  -3.89330368e+00
0.3100000000           7.96521520e-02  -1.27889200e+01 1.65443305e-05  1.18157625e+01  1.26740695e-01  -2.13210024e+01 1.76342852e-05  8.74235152e+00 
                       1.65443276e-05  1.18157644e+01  8.08384200e-02  -1.29316090e+01 1.76068101e-05  1.71442661e+01  1.27448377e-01  -2.14716679e+01
                       1.26740648e-01  -2.13210586e+01 1.76068080e-05  1.71442933e+01  8.00053637e-02  -1.23637748e+01 1.90775243e-05  1.30086978e+01 
                       1.76342845e-05  8.74237428e+00  1.27448259e-01  -2.14717174e+01 1.90775276e-05  1.30086950e+01  8.04185778e-02  -1.29395148e+01
0.3200000000           8.64076080e-02  -2.18168453e+01 1.60166657e-05  1.10661736e+01  1.32928766e-01  -2.96465868e+01 1.70803440e-05  7.81057145e+00 
