# GHz S MA R 50
! S-Parameters data
! Freq  magS11  angS11  magS12  angS12  magS13  angS13  magS14  angS14
!       magS21  angS21  magS22  angS22  magS23  angS23  magS24  angS24
!       magS31  angS31  magS32  angS32  magS33  angS33  magS34  angS34
!       magS41  angS41  magS42  angS42  magS43  angS43  magS44  angS44
!     
0.0000000000           7.86028127e-03  3.69071250e+01  3.18628109e-05  -1.03894381e+02 1.68413893e-03  2.71802958e+01  4.25891746e-05  -1.04859194e+02
                       3.18518318e-05  -1.03899202e+02 8.05035837e-03  3.75223308e+01  2.34875432e-05  -1.03399824e+02 1.67151140e-03  2.97763983e+01 
                       1.68412729e-03  2.71810312e+01  2.34928319e-05  -1.03394457e+02 8.17825980e-03  3.50297359e+01  3.08963153e-05  -1.03752534e+02
                       4.25925969e-05  -1.04858533e+02 1.67148346e-03  2.97768196e+01  3.08657811e-05  -1.03756964e+02 8.28983534e-03  3.60855162e+01 
0.0100000000           1.64169055e-02  4.24186815e+01  1.70287450e-04  -1.11566776e+02 2.19933834e-02  7.49058503e+01  2.19185669e-04  -1.11399178e+02
                       1.70287450e-04  -1.11566776e+02 1.64503188e-02  4.23142012e+01  1.28993825e-04  -1.11261614e+02 2.20759744e-02  7.68499036e+01 
                       2.19933835e-02  7.49058504e+01  1.28993825e-04  -1.11261614e+02 1.64221991e-02  4.26644190e+01  1.67418227e-04  -1.11015118e+02
                       2.19185669e-04  -1.11399178e+02 2.20759739e-02  7.68499035e+01  1.67418227e-04  -1.11015118e+02 1.64550864e-02  4.24521201e+01 
0.0200000000           2.51936723e-02  3.51468763e+01  3.19299114e-04  -1.22355924e+02 4.28489431e-02  6.46701431e+01  4.10598319e-04  -1.21410256e+02
                       3.19259704e-04  -1.22351428e+02 2.54140024e-02  3.52290363e+01  2.42054632e-04  -1.22182272e+02 4.30587169e-02  6.84778696e+01 
                       4.28489675e-02  6.46701547e+01  2.42070496e-04  -1.22189042e+02 2.52136515e-02  3.54731551e+01  3.14502103e-04  -1.21281802e+02
                       4.10602783e-04  -1.21410578e+02 4.30586973e-02  6.84778593e+01  3.14416944e-04  -1.21282735e+02 2.54583476e-02  3.53174742e+01 
0.0300000000           3.10552237e-02  2.60966691e+01  4.51789929e-04  -1.33532277e+02 6.23758130e-02  5.39098146e+01  5.83632584e-04  -1.31894058e+02
                       4.51784716e-04  -1.33531530e+02 3.16756109e-02  2.61048910e+01  3.42279374e-04  -1.33413945e+02 6.27366306e-02  5.95743714e+01 
                       6.23758285e-02  5.39098124e+01  3.42280737e-04  -1.33414859e+02 3.10757740e-02  2.65385254e+01  4.46500272e-04  -1.31935551e+02
                       5.83632787e-04  -1.31894167e+02 6.27366260e-02  5.95743712e+01  4.46491408e-04  -1.31934604e+02 3.17654768e-02  2.61404311e+01 
0.0400000000           3.48226108e-02  1.67002956e+01  5.69677848e-04  -1.44346523e+02 8.03583276e-02  4.31046390e+01  7.41486030e-04  -1.42094842e+02
                       5.69684654e-04  -1.44348007e+02 3.60246784e-02  1.64318220e+01  4.30934396e-04  -1.44226053e+02 8.08880883e-02  5.06303005e+01 
                       8.03583326e-02  4.31046360e+01  4.30934265e-04  -1.44224482e+02 3.48285971e-02  1.72624960e+01  5.66129965e-04  -1.42236807e+02
                       7.41487363e-04  -1.42094665e+02 8.08880933e-02  5.06302973e+01  5.66137803e-04  -1.42238688e+02 3.61625582e-02  1.64066178e+01 
0.0500000000           3.66622883e-02  6.97050675e+00  6.74174223e-04  -1.54635608e+02 9.65609978e-02  3.23082603e+01  8.86762641e-04  -1.51877499e+02
                       6.74176661e-04  -1.54637618e+02 3.86214644e-02  6.24304045e+00  5.08984182e-04  -1.54452606e+02 9.72723981e-02  4.17051690e+01 
                       9.65609980e-02  3.23082592e+01  5.08987515e-04  -1.54450604e+02 3.66359328e-02  7.66367195e+00  6.75191283e-04  -1.52064005e+02
                       8.86766014e-04  -1.51877429e+02 9.72724026e-02  4.17051619e+01  6.75193334e-04  -1.52066180e+02 3.88061644e-02  6.14449163e+00 
0.0600000000           3.66122749e-02  -3.15158176e+00 7.67488148e-04  -1.64291861e+02 1.10751643e-01  2.15240148e+01  1.02297609e-03  -1.61192500e+02
                       7.67481065e-04  -1.64293405e+02 3.95045116e-02  -4.54132683e+00 5.78303197e-04  -1.63981323e+02 1.11652509e-01  3.28069617e+01 
                       1.10751643e-01  2.15240151e+01  5.78309256e-04  -1.63979650e+02 3.65347925e-02  -2.31459860e+00 7.76387619e-04  -1.61353747e+02
                       1.02297765e-03  -1.61192628e+02 1.11652505e-01  3.28069533e+01  7.76385400e-04  -1.61355251e+02 3.97323025e-02  -4.72721778e+00
0.0700000000           3.47135015e-02  -1.38300314e+01 8.53439208e-04  -1.73262990e+02 1.22717379e-01  1.07477035e+01  1.15502720e-03  -1.70054409e+02
                       8.53425119e-04  -1.73263689e+02 3.87237918e-02  -1.61192600e+01 6.42125446e-04  -1.72760441e+02 1.23809243e-01  2.39364634e+01 
                       1.22717379e-01  1.07477036e+01  6.42132055e-04  -1.72759262e+02 3.45650629e-02  -1.28319618e+01 8.73753747e-04  -1.70110512e+02
                       1.15502376e-03  -1.70054589e+02 1.23809230e-01  2.39364556e+01  8.73752031e-04  -1.70111346e+02 3.89901485e-02  -1.64082602e+01
0.0800000000           3.10449116e-02  -2.54333639e+01 9.37437386e-04  1.78419875e+02  1.32276063e-01  -2.61740148e-02 1.28894118e-03  -1.78549023e+02
                       9.37422683e-04  1.78419908e+02  3.63872695e-02  -2.88758974e+01 7.05010526e-04  1.79166883e+02  1.33553005e-01  1.50937895e+01 
                       1.32276064e-01  -2.61742771e-02 7.05015783e-04  1.79167628e+02  3.08043323e-02  -2.42519809e+01 9.72424266e-04  -1.78422057e+02
                       1.28893366e-03  -1.78549095e+02 1.33552987e-01  1.50937838e+01  9.72424946e-04  -1.78422451e+02 3.66900261e-02  -2.92870449e+01
0.0900000000           2.57585163e-02  -3.88230980e+01 1.02600079e-03  1.70618685e+02  1.39281844e-01  -1.08035748e+01 1.43115183e-03  1.73169819e+02 
                       1.02599181e-03  1.70618958e+02  3.27112383e-02  -4.35388686e+01 7.72400841e-04  1.71634735e+02  1.40729747e-01  6.27961889e+00 
                       1.39281844e-01  -1.08035750e+01 7.72403639e-04  1.71635178e+02  2.54010271e-02  -3.74369838e+01 1.07799370e-03  1.73540104e+02 
                       1.43114506e-03  1.73169876e+02  1.40729731e-01  6.27961500e+00  1.07799556e-03  1.73539987e+02  3.30539787e-02  -4.40926007e+01
0.1000000000           1.91818533e-02  -5.63876112e+01 1.12581825e-03  1.63088425e+02  1.43626168e-01  -2.15899754e+01 1.58749675e-03  1.64901330e+02 
                       1.12581789e-03  1.63088222e+02  2.81225502e-02  -6.15053898e+01 8.49792673e-04  1.64356889e+02  1.45222766e-01  -2.50341241e+00
                       1.43626168e-01  -2.15899754e+01 8.49792623e-04  1.64357161e+02  1.86757409e-02  -5.48439733e+01 1.19561231e-03  1.65543272e+02 
                       1.58749791e-03  1.64901352e+02  1.45222765e-01  -2.50341433e+00 1.19561285e-03  1.65543401e+02  2.85197740e-02  -6.22075013e+01
0.1100000000           1.23621070e-02  -8.60214974e+01 1.24290464e-03  1.55506069e+02  1.45226902e-01  -3.23884550e+01 1.76245395e-03  1.56434923e+02 
                       1.24290385e-03  1.55505893e+02  2.34999989e-02  -8.51409381e+01 9.42037092e-04  1.56990161e+02  1.46948916e-01  -1.12476642e+01
                       1.45226903e-01  -3.23884551e+01 9.42037403e-04  1.56990401e+02  1.16643402e-02  -8.53308581e+01 1.32922874e-03  1.57337121e+02 
                       1.76245505e-03  1.56434938e+02  1.46948916e-01  -1.12476629e+01 1.32922955e-03  1.57337231e+02  2.39821721e-02  -8.59143115e+01
0.1200000000           9.64746287e-03  -1.48064818e+02 1.38013451e-03  1.47571024e+02  1.44082146e-01  -4.32000177e+01 1.95748197e-03  1.47589915e+02 
                       1.38013340e-03  1.47570875e+02  2.06142401e-02  -1.17450286e+02 1.05130829e-03  1.49182251e+02  1.45894316e-01  -1.99422964e+01
                       1.44082135e-01  -4.32000182e+01 1.05130895e-03  1.49182459e+02  9.27352401e-03  -1.51619432e+02 1.48024592e-03  1.48713083e+02 
                       1.95748301e-03  1.47589924e+02  1.45894318e-01  -1.99422932e+01 1.48024688e-03  1.48713174e+02  2.12024560e-02  -1.17965631e+02
0.1300000000           1.62401358e-02  1.60237654e+02  1.53808650e-03  1.39050742e+02  1.40215103e-01  -5.40247612e+01 2.17160877e-03  1.38245650e+02 
                       1.53808512e-03  1.39050619e+02  2.19006312e-02  -1.54780663e+02 1.17771141e-03  1.40691570e+02  1.42080988e-01  -2.85705154e+01
                       1.40215095e-01  -5.40247600e+01 1.17771234e-03  1.40691749e+02  1.65468976e-02  1.58098137e+02  1.64790447e-03  1.39528861e+02 
                       2.17160964e-03  1.38245654e+02  1.42080988e-01  -2.85705101e+01 1.64790566e-03  1.39528933e+02  2.25404242e-02  -1.54705416e+02
0.1400000000           2.69314115e-02  1.35693534e+02  1.71444476e-03  1.29820775e+02  1.33701576e-01  -6.48587281e+01 2.40116113e-03  1.28349733e+02 
                       1.71444328e-03  1.29820674e+02  2.78642109e-02  1.73644353e+02  1.31895743e-03  1.31404593e+02  1.35587298e-01  -3.71055109e+01
                       1.33701567e-01  -6.48587286e+01 1.31895848e-03  1.31404743e+02  2.75579873e-02  1.34984633e+02  1.82909599e-03  1.29724883e+02 
                       2.40116200e-03  1.28349735e+02  1.35587312e-01  -3.71055029e+01 1.82909724e-03  1.29724943e+02  2.84841835e-02  1.74022224e+02 
0.1500000000           3.88951351e-02  1.19598249e+02  1.90445592e-03  1.19862201e+02  1.24672212e-01  -7.56930191e+01 2.64018577e-03  1.17911857e+02 
                       1.90445435e-03  1.19862120e+02  3.68175436e-02  1.50437615e+02  1.47077470e-03  1.21323847e+02  1.26550859e-01  -4.55058950e+01
                       1.24672207e-01  -7.56930215e+01 1.47077586e-03  1.21323974e+02  3.97069984e-02  1.19581457e+02  2.01872155e-03  1.19315299e+02 
                       2.64018657e-03  1.17911858e+02  1.26550870e-01  -4.55058846e+01 2.01872276e-03  1.19315348e+02  3.74106654e-02  1.50798587e+02 
0.1600000000           5.12446842e-02  1.06453852e+02  2.10162486e-03  1.09235643e+02  1.13313744e-01  -8.65130221e+01 2.88108407e-03  1.06989732e+02 
                       2.10162323e-03  1.09235575e+02  4.72094127e-02  1.32597179e+02  1.62754075e-03  1.10533330e+02  1.15169467e-01  -5.37079622e+01
                       1.13313727e-01  -8.65130246e+01 1.62754188e-03  1.10533439e+02  5.21808939e-02  1.06846136e+02  2.21030607e-03  1.08369176e+02 
                       2.88108471e-03  1.06989732e+02  1.15169479e-01  -5.37079526e+01 2.21030723e-03  1.08369215e+02  4.77883445e-02  1.32844472e+02 
0.1700000000           6.34190819e-02  9.45987600e+01  2.29853673e-03  9.80507570e+01  9.98660131e-02  -9.72965407e+01 3.11542430e-03  9.56737866e+01 
                       2.29853514e-03  9.80507009e+01  5.80742861e-02  1.17720128e+02  1.78295122e-03  9.91635745e+01  1.01699033e-01  -6.16092105e+01
                       9.98659999e-02  -9.72965427e+01 1.78295231e-03  9.91636704e+01  6.44368897e-02  9.52769036e+01  2.39669910e-03  9.69910813e+01 
                       3.11542496e-03  9.56737865e+01  1.01699048e-01  -6.16092020e+01 2.39670021e-03  9.69911119e+01  5.86436339e-02  1.17842533e+02 
0.1800000000           7.49206571e-02  8.33988241e+01  2.48766308e-03  8.64413796e+01  8.46148760e-02  -1.08008452e+02 3.33481746e-03  8.40742141e+01 
                       2.48766164e-03  8.64413342e+01  6.87432314e-02  1.04514750e+02  1.93068673e-03  8.73657917e+01  8.64489102e-02  -6.90298325e+01
                       8.46148629e-02  -1.08008455e+02 1.93068775e-03  8.73658741e+01  7.59819757e-02  8.43012305e+01  2.57083663e-03  8.53055055e+01 
                       3.33481794e-03  8.40742162e+01  8.64489351e-02  -6.90298272e+01 2.57083758e-03  8.53055333e+01  6.92971189e-02  1.04520433e+02 
0.1900000000           8.52738512e-02  7.25730416e+01  2.66209934e-03  7.45487292e+01  6.78811105e-02  -1.18584442e+02 3.53178316e-03  7.23112180e+01 
                       2.66209793e-03  7.45486910e+01  7.86752956e-02  9.23050033e+01  2.06503107e-03  7.52957540e+01  6.97814094e-02  -7.56110899e+01
                       6.78811035e-02  -1.18584445e+02 2.06503205e-03  7.52958267e+01  8.63416946e-02  7.36660443e+01  2.72648661e-03  7.34457605e+01 
                       3.53178357e-03  7.23112204e+01  6.97814342e-02  -7.56110879e+01 2.72648753e-03  7.34457840e+01  7.92000036e-02  9.22040554e+01 
0.2000000000           9.40310860e-02  6.19878763e+01  2.81622271e-03  6.25112909e+01  5.00085694e-02  -1.28876171e+02 3.70057479e-03  6.05080811e+01 
                       2.81622147e-03  6.25112592e+01  8.73985360e-02  8.07221062e+01  2.18141165e-03  6.31048109e+01  5.21360255e-02  -8.04972779e+01
                       5.00085567e-02  -1.28876174e+02 2.18141251e-03  6.31048748e+01  9.50681984e-02  6.32520893e+01  2.85891978e-03  6.15465060e+01 
                       3.70057522e-03  6.05080834e+01  5.21360431e-02  -8.04972783e+01 2.85892059e-03  6.15465260e+01  8.78743462e-02  8.05224553e+01 
0.2100000000           1.00788928e-01  5.15802207e+01  2.94612394e-03  5.04590511e+01  3.13548561e-02  -1.38387709e+02 3.83778160e-03  4.87860289e+01 
                       2.94612279e-03  5.04590243e+01  9.44949038e-02  6.95543462e+01  2.27680098e-03  5.09350316e+01  3.41797080e-02  -8.10237370e+01
                       3.13548436e-02  -1.38387712e+02 2.27680180e-03  5.09350888e+01  1.01758638e-01  5.30048010e+01  2.96543274e-03  4.97384267e+01 
                       3.83778197e-03  4.87860309e+01  3.41797223e-02  -8.10237462e+01 2.96543347e-03  4.97384436e+01  9.48988713e-02  6.92613447e+01 
0.2200000000           1.05207809e-01  4.13249311e+01  3.04989438e-03  3.85105132e+01  1.23281124e-02  -1.43553918e+02 3.94276792e-03  3.72601914e+01 
                       3.04989330e-03  3.85104887e+01  9.96039897e-02  5.86744562e+01  2.34995996e-03  3.89167202e+01  1.79425226e-02  -6.47852363e+01
                       1.23280980e-02  -1.43553920e+02 2.34996066e-03  3.89167712e+01  1.06074868e-01  4.29047293e+01  3.04567432e-03  3.81441439e+01 
                       3.94276821e-03  3.72601914e+01  1.79425306e-02  -6.47852658e+01 3.04567498e-03  3.81441582e+01  9.99118522e-02  5.82908325e+01 
0.2300000000           1.07027195e-01  3.12196235e+01  3.12766469e-03  2.67711620e+01  7.35843401e-03  3.68648523e-01  4.01781600e-03  2.60357068e+01 
                       3.12766368e-03  2.67711441e+01  1.02430920e-01  4.80020687e+01  2.40147017e-03  2.71668852e+01  1.52265468e-02  -1.47720380e+00
                       7.35844099e-03  3.68672096e-01  2.40147078e-03  2.71669322e+01  1.07758089e-01  3.29541317e+01  3.10170528e-03  2.68742661e+01 
                       4.01781639e-03  2.60357084e+01  1.52265459e-02  -1.47720575e+00 3.10170586e-03  2.68742754e+01  1.02617981e-01  4.75279086e+01 
0.2400000000           1.06076784e-01  2.12786554e+01  3.18152201e-03  1.53328421e+01  2.61946329e-02  9.46984058e-01  4.06809795e-03  1.52029320e+01 
                       3.18152123e-03  1.53328262e+01  1.02755162e-01  3.74831646e+01  2.43369706e-03  1.57878789e+01  3.00178991e-02  2.43388125e+01 
                       2.61946445e-02  9.46982355e-01  2.43369756e-03  1.57879196e+01  1.06641569e-01  2.31720971e+01  3.13795873e-03  1.60224857e+01 
                       4.06809823e-03  1.52029320e+01  3.00178989e-02  2.43388094e+01  3.13795925e-03  1.60224954e+01  1.02798575e-01  3.69157079e+01 
0.2500000000           1.02281239e-01  1.15328960e+01  3.21530907e-03  4.27284245e+00  4.46916836e-02  -8.10860077e+00 4.10140329e-03  4.83089761e+00 
                       3.21530838e-03  4.27282959e+00  1.00436646e-01  2.70777074e+01  2.45059375e-03  4.86498638e+00  4.78008150e-02  2.59557097e+01 
                       4.46916912e-02  -8.10860348e+00 2.45059416e-03  4.86502432e+00  1.02654695e-01  1.35954412e+01  3.16094297e-03  5.65895331e+00 
                       4.10140355e-03  4.83089716e+00  4.78008204e-02  2.59557040e+01  3.16094341e-03  5.65895921e+00  1.00316614e-01  2.64106835e+01 
0.2600000000           9.56605163e-02  2.03606712e+00  3.23441153e-03  -6.34818241e+00 6.24037571e-02  -1.82796448e+01 4.12769852e-03  -5.04188223e+00
                       3.23441098e-03  -6.34819011e+00 9.54197076e-02  1.67507583e+01  2.45749399e-03  -5.53822315e+00 6.55239672e-02  2.19007224e+01 
                       6.24037611e-02  -1.82796480e+01 2.45749432e-03  -5.53819082e+00 9.58238467e-02  4.28676474e+00  3.17884632e-03  -4.17909536e+00
                       4.12769872e-03  -5.04188091e+00 6.55239766e-02  2.19007144e+01  3.17884669e-03  -4.17908974e+00 9.51209138e-02  1.59729622e+01 
0.2700000000           8.63256806e-02  -7.11708238e+00 3.24550993e-03  -1.64904061e+01 7.90308014e-02  -2.88301816e+01 4.15841097e-03  -1.44184323e+01
                       3.24550948e-03  -1.64904140e+01 8.77330507e-02  6.46386789e+00  2.46083846e-03  -1.53875884e+01 8.24288053e-02  1.58337060e+01 
                       7.90308056e-02  -2.88301857e+01 2.46083872e-03  -1.53875587e+01 8.62691057e-02  -4.64416581e+00 3.20094314e-03  -1.34984582e+01
                       4.15841106e-03  -1.44184320e+01 8.24288124e-02  1.58336962e+01  3.20094344e-03  -1.34984540e+01 8.72462901e-02  5.55616333e+00 
0.2800000000           7.44748157e-02  -1.57457038e+01 3.25632209e-03  -2.61422252e+01 9.42888186e-02  -3.95780713e+01 4.20544844e-03  -2.33537768e+01
                       3.25632184e-03  -2.61422319e+01 7.74877273e-02  -3.83829183e+00 2.46781191e-03  -2.46895174e+01 9.80781258e-02  8.83199486e+00 
                       9.42888164e-02  -3.95780747e+01 2.46781210e-03  -2.46894888e+01 7.42007814e-02  -1.29867454e+01 3.23677784e-03  -2.23604360e+01
                       4.20544852e-03  -2.33537769e+01 9.80781331e-02  8.83198285e+00  3.23677805e-03  -2.23604349e+01 7.68107397e-02  -4.90893066e+00
0.2900000000           6.03940186e-02  -2.34543020e+01 3.27517803e-03  -3.53298022e+01 1.07904159e-01  -5.04575687e+01 4.27985049e-03  -3.19591570e+01
                       3.27517779e-03  -3.53298073e+01 6.48711807e-02  -1.42564095e+01 2.48587066e-03  -3.35028699e+01 1.12116261e-01  1.32136029e+00 
                       1.07904156e-01  -5.04575728e+01 2.48587080e-03  -3.35028455e+01 5.99262444e-02  -2.02798273e+01 3.29517143e-03  -3.08847715e+01
                       4.27985052e-03  -3.19591565e+01 1.12116265e-01  1.32134868e+00  3.29517147e-03  -3.08847689e+01 6.40121062e-02  -1.55533190e+01
0.3000000000           4.44922111e-02  -2.91935674e+01 3.31042524e-03  -4.41262594e+01 1.19617424e-01  -6.14375252e+01 4.39034103e-03  -4.03941813e+01
                       3.31042516e-03  -4.41262625e+01 5.01426696e-02  -2.50235340e+01 2.52197837e-03  -4.19464187e+01 1.24226832e-01  -6.49115950e+00
                       1.19617420e-01  -6.14375290e+01 2.52197848e-03  -4.19463969e+01 4.38981208e-02  -2.52892029e+01 3.38300775e-03  -3.92410073e+01
                       4.39034111e-03  -4.03941806e+01 1.24226832e-01  -6.49117081e+00 3.38300774e-03  -3.92410063e+01 4.91226000e-02  -2.66856953e+01
0.3100000000           2.75243912e-02  -2.91156164e+01 3.36949753e-03  -5.26546408e+01 1.29191765e-01  -7.24979202e+01 4.54192689e-03  -4.88444670e+01
                       3.36949747e-03  -5.26546441e+01 3.36342425e-02  -3.68688211e+01 2.58173042e-03  -5.01938219e+01 1.34131625e-01  -1.44854918e+01
                       1.29191757e-01  -7.24979237e+01 2.58173049e-03  -5.01938025e+01 2.70205780e-02  -2.34729820e+01 3.50419534e-03  -4.76246937e+01
                       4.54192694e-03  -4.88444662e+01 1.34131620e-01  -1.44855031e+01 3.50419525e-03  -4.76246927e+01 3.25007842e-02  -3.93018182e+01
0.3200000000           1.29192370e-02  2.39769706e-01  3.45784277e-03  -6.10786538e+01 1.36424256e-01  -8.36217475e+01 4.73507444e-03  -5.74897808e+01
