# GHz S MA R 50
! S-Parameters data
! Freq  magS11  angS11  magS12  angS12  magS13  angS13  magS14  angS14
!       magS21  angS21  magS22  angS22  magS23  angS23  magS24  angS24
!       magS31  angS31  magS32  angS32  magS33  angS33  magS34  angS34
!       magS41  angS41  magS42  angS42  magS43  angS43  magS44  angS44
!     
0.0000000000           8.17651887e-03  3.64587838e+01  8.76074073e-08  7.98399113e+01  1.66181865e-03  2.95320482e+01  1.01554359e-07  7.91208257e+01 
                       8.76101592e-08  7.98394833e+01  8.05035837e-03  3.75223308e+01  9.04435412e-08  8.02277189e+01  1.67151140e-03  2.97763983e+01 
                       1.66080717e-03  2.94788519e+01  9.04433142e-08  8.02277633e+01  8.42668188e-03  3.51074969e+01  1.05499748e-07  7.94919853e+01 
                       1.01556950e-07  7.91203797e+01  1.67148346e-03  2.97768196e+01  1.05500138e-07  7.94919437e+01  8.28983534e-03  3.60855162e+01 
0.0100000000           1.62726978e-02  4.09077899e+01  5.77362403e-07  8.04864055e+01  2.21044204e-02  7.68011619e+01  6.51074017e-07  7.87693103e+01 
                       5.77362403e-07  8.04864055e+01  1.64503188e-02  4.23142012e+01  5.99872668e-07  8.19336942e+01  2.20759744e-02  7.68499036e+01 
                       2.21044190e-02  7.68011623e+01  5.99872678e-07  8.19336945e+01  1.63146290e-02  4.11471398e+01  6.89716906e-07  7.97569343e+01 
                       6.51074017e-07  7.87693104e+01  2.20759739e-02  7.68499035e+01  6.89716896e-07  7.97569340e+01  1.64550864e-02  4.24521201e+01 
0.0200000000           2.48138688e-02  3.40349223e+01  1.10791683e-06  7.88783135e+01  4.31290687e-02  6.83482465e+01  1.23491478e-06  7.65264657e+01 
                       1.10792867e-06  7.88788134e+01  2.54140024e-02  3.52290363e+01  1.16424591e-06  8.10657084e+01  4.30587169e-02  6.84778696e+01 
                       4.31231116e-02  6.83469018e+01  1.16424760e-06  8.10657247e+01  2.48992405e-02  3.42629283e+01  1.31718691e-06  7.79628812e+01 
                       1.23492609e-06  7.65269714e+01  4.30586973e-02  6.84778593e+01  1.31718562e-06  7.79628828e+01  2.54583476e-02  3.53174742e+01 
0.0300000000           3.06410618e-02  2.51500025e+01  1.60405388e-06  7.71047201e+01  6.27880024e-02  5.94286272e+01  1.76440399e-06  7.41555788e+01 
                       1.60405613e-06  7.71047033e+01  3.16756109e-02  2.61048910e+01  1.70950464e-06  7.98852437e+01  6.27366306e-02  5.95743714e+01 
                       6.27872605e-02  5.94287423e+01  1.70950482e-06  7.98852187e+01  3.08243060e-02  2.53486535e+01  1.89781447e-06  7.59944541e+01 
                       1.76440632e-06  7.41555694e+01  6.27366260e-02  5.95743712e+01  1.89781435e-06  7.59944700e+01  3.17654768e-02  2.61404311e+01 
0.0400000000           3.45846837e-02  1.58067446e+01  2.08064700e-06  7.55354094e+01  8.09226843e-02  5.04424726e+01  2.25244145e-06  7.21763040e+01 
                       2.08064480e-06  7.55354769e+01  3.60246784e-02  1.64318220e+01  2.25443787e-06  7.86490995e+01  8.08880883e-02  5.06303005e+01 
                       8.09236943e-02  5.04422212e+01  2.25443910e-06  7.86491135e+01  3.48339604e-02  1.59602982e+01  2.44770509e-06  7.42904644e+01 
                       2.25243897e-06  7.21763637e+01  8.08880933e-02  5.06302973e+01  2.44770428e-06  7.42904528e+01  3.61625582e-02  1.64066178e+01 
0.0500000000           3.68387541e-02  6.03645172e+00  2.54687417e-06  7.40989793e+01  9.72628029e-02  4.14762015e+01  2.70875971e-06  7.06104480e+01 
                       2.54687410e-06  7.40990412e+01  3.86214644e-02  6.24304045e+00  2.80791367e-06  7.72402774e+01  9.72723981e-02  4.17051690e+01 
                       9.72633924e-02  4.14760462e+01  2.80791458e-06  7.72402730e+01  3.71370935e-02  6.14306493e+00  2.97745425e-06  7.28263156e+01 
                       2.70875935e-06  7.06104986e+01  9.72724026e-02  4.17051619e+01  2.97745364e-06  7.28263160e+01  3.88061644e-02  6.14449163e+00 
0.0600000000           3.74671047e-02  -4.23038522e+00 3.00905784e-06  7.27201155e+01  1.11570032e-01  3.25431810e+01  3.14414047e-06  6.94315961e+01 
                       3.00905666e-06  7.27200496e+01  3.95045116e-02  -4.54132683e+00 3.37212449e-06  7.55897166e+01  1.11652509e-01  3.28069617e+01 
                       1.11569334e-01  3.25433559e+01  3.37212412e-06  7.55897205e+01  3.77976705e-02  -4.18417808e+00 3.49648253e-06  7.15504021e+01 
                       3.14413985e-06  6.94315402e+01  1.11652505e-01  3.28069533e+01  3.49648293e-06  7.15503978e+01  3.97323025e-02  -4.72721778e+00
0.0700000000           3.65339584e-02  -1.51711802e+01 3.47087551e-06  7.13375761e+01  1.23626453e-01  2.36462799e+01  3.57058343e-06  6.85765697e+01 
                       3.47087768e-06  7.13375220e+01  3.87237918e-02  -1.61192600e+01 3.94373594e-06  7.36817353e+01  1.23809243e-01  2.39364634e+01 
                       1.23624408e-01  2.36467452e+01  3.94373503e-06  7.36817592e+01  3.68759435e-02  -1.52036230e+01 4.01329639e-06  7.03999734e+01 
                       3.57058431e-06  6.85765043e+01  1.23809230e-01  2.39364556e+01  4.01329743e-06  7.03999532e+01  3.89901485e-02  -1.64082602e+01
0.0800000000           3.41425866e-02  -2.71360086e+01 3.93316197e-06  6.99192308e+01  1.33247262e-01  1.47875394e+01  4.00005559e-06  6.79592192e+01 
                       3.93316159e-06  6.99191462e+01  3.63872695e-02  -2.88758974e+01 4.51503892e-06  7.15513200e+01  1.33553005e-01  1.50937895e+01 
                       1.33244438e-01  1.47880965e+01  4.51503923e-06  7.15513538e+01  3.44747221e-02  -2.72703548e+01 4.53479522e-06  6.93163945e+01 
                       4.00005453e-06  6.79591364e+01  1.33552987e-01  1.50937838e+01  4.53479527e-06  6.93163646e+01  3.66900261e-02  -2.92870449e+01
0.0900000000           3.04736550e-02  -4.07971687e+01 4.39472309e-06  6.84716217e+01  1.40287228e-01  5.96934760e+00  4.44364962e-06  6.74891699e+01 
                       4.39472522e-06  6.84715594e+01  3.27112383e-02  -4.35388686e+01 5.07606709e-06  6.92769418e+01  1.40729747e-01  6.27961889e+00 
                       1.40284765e-01  5.96971322e+00  5.07606994e-06  6.92769588e+01  3.07787712e-02  -4.10663871e+01 5.06632150e-06  6.82583118e+01 
                       4.44365100e-06  6.74891124e+01  1.40729731e-01  6.27961500e+00  5.06631933e-06  6.82582959e+01  3.30539787e-02  -4.40926007e+01
0.1000000000           2.58656883e-02  -5.74983512e+01 4.85440361e-06  6.70352797e+01  1.44641851e-01  -2.80436514e+00 4.91181028e-06  6.70828134e+01 
                       4.85441289e-06  6.70352498e+01  2.81225502e-02  -6.15053898e+01 5.61761954e-06  6.69663912e+01  1.45222766e-01  -2.50341241e+00
                       1.44641475e-01  -2.80450451e+00 5.61762509e-06  6.69663681e+01  2.61382181e-02  -5.79529486e+01 5.61280375e-06  6.72031856e+01 
                       4.91181882e-06  6.70827842e+01  1.45222765e-01  -2.50341433e+00 5.61279877e-06  6.72032069e+01  2.85197740e-02  -6.22075013e+01
0.1100000000           2.10390755e-02  -7.96790916e+01 5.31533860e-06  6.56514717e+01  1.46246091e-01  -1.15261925e+01 5.41682589e-06  6.66435775e+01 
                       5.31534652e-06  6.56514240e+01  2.34999989e-02  -8.51409381e+01 6.13736383e-06  6.47247752e+01  1.46948916e-01  -1.12476642e+01
                       1.46245786e-01  -1.15263107e+01 6.13736864e-06  6.47247426e+01  2.12778257e-02  -8.04980061e+01 6.18282300e-06  6.61205659e+01 
                       5.41683313e-06  6.66435333e+01  1.46948916e-01  -1.12476629e+01 6.18281869e-06  6.61205941e+01  2.39821721e-02  -8.59143115e+01
0.1200000000           1.75389709e-02  -1.11684239e+02 5.78131663e-06  6.43730925e+01  1.45099470e-01  -2.01839318e+01 5.96710592e-06  6.61013891e+01 
                       5.78132263e-06  6.43730338e+01  2.06142401e-02  -1.17450286e+02 6.63329391e-06  6.26612951e+01  1.45894316e-01  -1.99422964e+01
                       1.45099226e-01  -2.01840346e+01 6.63329763e-06  6.26612577e+01  1.78282724e-02  -1.12867767e+02 6.78109622e-06  6.49977278e+01 
                       5.96711150e-06  6.61013373e+01  1.45894318e-01  -1.99422932e+01 6.78109286e-06  6.49977599e+01  2.12024560e-02  -1.17965631e+02
0.1300000000           1.79857604e-02  -1.51566579e+02 6.26372526e-06  6.32087112e+01  1.41237554e-01  -2.87606706e+01 6.57318128e-06  6.53593412e+01 
                       6.26372900e-06  6.32086502e+01  2.19006312e-02  -1.54780663e+02 7.11495830e-06  6.08509560e+01  1.42080988e-01  -2.85705154e+01
                       1.41237359e-01  -2.87607624e+01 7.11496058e-06  6.08509165e+01  1.84344773e-02  -1.52690395e+02 7.41731822e-06  6.37926596e+01 
                       6.57318499e-06  6.53592879e+01  1.42080988e-01  -2.85705101e+01 7.41731598e-06  6.37926910e+01  2.25404242e-02  -1.54705416e+02
0.1400000000           2.32932408e-02  1.74502658e+02  6.77783112e-06  6.21069681e+01  1.34748807e-01  -3.72293849e+01 7.24272322e-06  6.43066003e+01 
                       6.77783251e-06  6.21069107e+01  2.78642109e-02  1.73644353e+02  7.59971303e-06  5.93084572e+01  1.35587298e-01  -3.71055109e+01
                       1.34748670e-01  -3.72294676e+01 7.59971363e-06  5.93084199e+01  2.39119267e-02  1.73726370e+02  8.10081736e-06  6.24342321e+01 
                       7.24272483e-06  6.43065503e+01  1.35587312e-01  -3.71055029e+01 8.10081620e-06  6.24342611e+01  2.84841835e-02  1.74022224e+02 
0.1500000000           3.16640559e-02  1.50725723e+02  7.33858714e-06  6.09570665e+01  1.25776582e-01  -4.55478491e+01 7.97689057e-06  6.28355964e+01 
                       7.33858628e-06  6.09570197e+01  3.68175436e-02  1.50437615e+02  8.10914121e-06  5.79751809e+01  1.26550859e-01  -4.55058950e+01
                       1.25776476e-01  -4.55479260e+01 8.10914055e-06  5.79751489e+01  3.24208148e-02  1.50140290e+02  8.83670020e-06  6.08329471e+01 
                       7.97689048e-06  6.28355549e+01  1.26550870e-01  -4.55058846e+01 8.83669994e-06  6.08329710e+01  3.74106654e-02  1.50798587e+02 
0.1600000000           4.14664080e-02  1.33105876e+02  7.95508325e-06  5.96155326e+01  1.14520241e-01  -5.36499454e+01 8.76707324e-06  6.08678256e+01 
                       7.95508084e-06  5.96155007e+01  4.72094127e-02  1.32597179e+02  8.66317477e-06  5.67277152e+01  1.15169467e-01  -5.37079622e+01
                       1.14520166e-01  -5.36500224e+01 8.66317247e-06  5.67276915e+01  4.23366714e-02  1.32584441e+02  9.62191941e-06  5.89047186e+01 
                       8.76707185e-06  6.08677940e+01  1.15169479e-01  -5.37079526e+01 9.62191940e-06  5.89047363e+01  4.77883445e-02  1.32844472e+02 
0.1700000000           5.17787664e-02  1.18676677e+02  8.62601481e-06  5.79502391e+01  1.01234328e-01  -6.14279171e+01 9.59366229e-06  5.83758232e+01 
                       8.62601194e-06  5.79502211e+01  5.80742861e-02  1.17720128e+02  9.27391122e-06  5.54114448e+01  1.01699033e-01  -6.16092105e+01
                       1.01234279e-01  -6.14279954e+01 9.27390864e-06  5.54114311e+01  5.27389307e-02  1.18166852e+02  1.04430321e-05  5.65973688e+01 
                       9.59365976e-06  5.83758017e+01  1.01699048e-01  -6.16092020e+01 1.04430332e-05  5.65973809e+01  5.86436339e-02  1.17842533e+02 
0.1800000000           6.19973295e-02  1.05967230e+02  9.33827449e-06  5.58806624e+01  8.62263465e-02  -6.86916903e+01 1.04276609e-05  5.53916625e+01 
                       9.33827114e-06  5.58806555e+01  6.87432314e-02  1.04514750e+02  9.94177689e-06  5.38868634e+01  8.64489102e-02  -6.90298325e+01
                       8.62263266e-02  -6.86917766e+01 9.94177340e-06  5.38868577e+01  6.30208253e-02  1.05449255e+02  1.12769159e-05  5.39079939e+01 
                       1.04276586e-05  5.53916501e+01  8.64489351e-02  -6.90298272e+01 1.12769178e-05  5.39080020e+01  6.92971189e-02  1.04520433e+02 
0.1900000000           7.16389533e-02  9.42498235e+01  1.00693208e-05  5.33962327e+01  6.98596701e-02  -7.50642155e+01 1.12348621e-05  5.20006450e+01 
                       1.00693185e-05  5.33962346e+01  7.86752956e-02  9.23050033e+01  1.06557502e-05  5.20663729e+01  6.97814094e-02  -7.56110899e+01
                       6.98596634e-02  -7.50643140e+01 1.06557483e-05  5.20663744e+01  7.26961470e-02  9.37166506e+01  1.20944113e-05  5.08851943e+01 
                       1.12348595e-05  5.20006386e+01  6.97814342e-02  -7.56110879e+01 1.20944119e-05  5.08851981e+01  7.92000036e-02  9.22040554e+01 
0.2000000000           8.02776837e-02  8.31429692e+01  1.07921766e-05  5.05498574e+01  5.25832217e-02  -7.96627605e+01 1.19813995e-05  4.83257469e+01 
                       1.07921756e-05  5.05498640e+01  8.73985360e-02  8.07221062e+01  1.13971753e-05  4.99263858e+01  5.21360255e-02  -8.04972779e+01
                       5.25832168e-02  -7.96628808e+01 1.13971742e-05  4.99263904e+01  8.13359361e-02  8.25923672e+01  1.28657378e-05  4.76185261e+01 
                       1.19813979e-05  4.83257442e+01  5.21360431e-02  -8.04972783e+01 1.28657379e-05  4.76185281e+01  8.78743462e-02  8.05224553e+01 
0.2100000000           8.75291461e-02  7.24345737e+01  1.14810149e-05  4.74357977e+01  3.50912893e-02  -7.98474799e+01 1.26392322e-05  4.45088976e+01 
                       1.14810144e-05  4.74358051e+01  9.44949038e-02  6.95543462e+01  1.21450429e-05  4.74952606e+01  3.41797080e-02  -8.10237370e+01
                       3.50912786e-02  -7.98476469e+01 1.21450427e-05  4.74952671e+01  8.85542761e-02  7.18664098e+01  1.35660138e-05  4.42207385e+01 
                       1.26392307e-05  4.45088963e+01  3.41797223e-02  -8.10237462e+01 1.35660134e-05  4.42207389e+01  9.48988713e-02  6.92613447e+01 
0.2200000000           9.30539018e-02  6.20011748e+01  1.21155223e-05  4.41642786e+01  1.94021675e-02  -6.44915649e+01 1.31902850e-05  4.06940581e+01 
                       1.21155230e-05  4.41642845e+01  9.96039897e-02  5.86744562e+01  1.28803581e-05  4.48297551e+01  1.79425226e-02  -6.47852363e+01
                       1.94021276e-02  -6.44918153e+01 1.28803587e-05  4.48297607e+01  9.40112487e-02  6.14161514e+01  1.41793571e-05  4.08094044e+01 
                       1.31902843e-05  4.06940568e+01  1.79425306e-02  -6.47852658e+01 1.41793564e-05  4.08094038e+01  9.99118522e-02  5.82908325e+01 
0.2300000000           9.65652021e-02  5.17678747e+01  1.26830607e-05  4.08406182e+01  1.57571507e-02  -7.80006233e+00 1.36285178e-05  3.70136780e+01 
                       1.26830624e-05  4.08406215e+01  1.02430920e-01  4.80020687e+01  1.35882215e-05  4.19922912e+01  1.52265468e-02  -1.47720380e+00
                       1.57570698e-02  -7.80005425e+00 1.35882228e-05  4.19922953e+01  9.74199608e-02  5.11670861e+01  1.47007071e-05  3.74913445e+01 
                       1.36285179e-05  3.70136751e+01  1.52265459e-02  -1.47720575e+00 1.47007060e-05  3.74913444e+01  1.02617981e-01  4.75279086e+01 
0.2400000000           9.78375722e-02  4.16872665e+01  1.31785274e-05  3.75523673e+01  2.91041550e-02  2.06268976e+01  1.39597812e-05  3.35789796e+01 
                       1.31785288e-05  3.75523657e+01  1.02755162e-01  3.74831646e+01  1.42574557e-05  3.90367366e+01  3.00178991e-02  2.43388125e+01 
                       2.91040944e-02  2.06269724e+01  1.42574563e-05  3.90367380e+01  9.85565074e-02  4.10721528e+01  1.51351898e-05  3.43517110e+01 
                       1.39597806e-05  3.35789745e+01  3.00178989e-02  2.43388094e+01  1.51351886e-05  3.43517114e+01  1.02798575e-01  3.69157079e+01 
0.2500000000           9.67129588e-02  3.17275714e+01  1.36024689e-05  3.43644340e+01  4.61289614e-02  2.37776231e+01  1.41997521e-05  3.04738035e+01 
                       1.36024703e-05  3.43644286e+01  1.00436646e-01  2.70777074e+01  1.48786284e-05  3.60042470e+01  4.78008150e-02  2.59557097e+01 
                       4.61289182e-02  2.37776701e+01  1.48786300e-05  3.60042475e+01  9.72653407e-02  3.11000472e+01  1.54955275e-05  3.14485515e+01 
                       1.41997524e-05  3.04737973e+01  4.78008204e-02  2.59557040e+01  1.54955272e-05  3.14485540e+01  1.00316614e-01  2.64106835e+01 
0.2600000000           9.31048357e-02  2.18653247e+01  1.39584080e-05  3.13212096e+01  6.32852238e-02  2.04872661e+01  1.43706829e-05  2.77518780e+01 
                       1.39584091e-05  3.13212015e+01  9.54197076e-02  1.67507583e+01  1.54417294e-05  3.29275487e+01  6.55239672e-02  2.19007224e+01 
                       6.32851886e-02  2.04872918e+01  1.54417307e-05  3.29275477e+01  9.34635260e-02  2.12280841e+01  1.57984164e-05  2.88128742e+01 
                       1.43706820e-05  2.77518693e+01  6.55239766e-02  2.19007144e+01  1.57984153e-05  2.88128756e+01  9.51209138e-02  1.59729622e+01 
0.2700000000           8.69986541e-02  1.20802725e+01  1.42504007e-05  2.84541445e+01  7.97271346e-02  1.49095275e+01  1.44977731e-05  2.54379518e+01 
                       1.42504011e-05  2.84541341e+01  8.77330507e-02  6.46386789e+00  1.59347205e-05  2.98404095e+01  8.24288053e-02  1.58337060e+01 
                       7.97271025e-02  1.49095411e+01  1.59347214e-05  2.98404079e+01  8.71415395e-02  1.14372703e+01  1.60609916e-05  2.64541187e+01 
                       1.44977717e-05  2.54379426e+01  8.24288124e-02  1.58336962e+01  1.60609907e-05  2.64541207e+01  8.72462901e-02  5.55616333e+00 
0.2800000000           7.84508048e-02  2.35021089e+00  1.44817614e-05  2.57924288e+01  9.50210314e-02  8.27786618e+00  1.46061510e-05  2.35326245e+01 
                       1.44817609e-05  2.57924182e+01  7.74877273e-02  -3.83829183e+00 1.63438477e-05  2.67885925e+01  9.80781258e-02  8.83199486e+00 
                       9.50210022e-02  8.27787006e+00  1.63438482e-05  2.67885905e+01  7.83611915e-02  1.70804490e+00  1.62985298e-05  2.43695231e+01 
                       1.46061489e-05  2.35326156e+01  9.80781331e-02  8.83198285e+00  1.62985292e-05  2.43695255e+01  7.68107397e-02  -4.90893066e+00
0.2900000000           6.75837941e-02  -7.35629324e+00 1.46555997e-05  2.33740053e+01  1.08836983e-01  1.07449695e+00  1.47192416e-05  2.20198789e+01 
                       1.46555984e-05  2.33739960e+01  6.48711807e-02  -1.42564095e+01 1.66560755e-05  2.38393378e+01  1.12116261e-01  1.32136029e+00 
                       1.08836953e-01  1.07449624e+00  1.66560757e-05  2.38393367e+01  6.72528878e-02  -7.98712872e+00 1.65241128e-05  2.25546966e+01 
                       1.47192399e-05  2.20198733e+01  1.12116265e-01  1.32134868e+00  1.65241125e-05  2.25546984e+01  6.40121062e-02  -1.55533190e+01
0.3000000000           5.45818098e-02  -1.70988281e+01 1.47773214e-05  2.12537176e+01  1.20886536e-01  -6.47239454e+00 1.48589768e-05  2.08744298e+01 
                       1.47773195e-05  2.12537101e+01  5.01426696e-02  -2.50235340e+01 1.68634856e-05  2.10870171e+01  1.24226832e-01  -6.49115950e+00
                       1.20886506e-01  -6.47239838e+00 1.68634855e-05  2.10870165e+01  5.40083715e-02  -1.76985931e+01 1.67505416e-05  2.10112992e+01 
                       1.48589747e-05  2.08744266e+01  1.24226832e-01  -6.49117081e+00 1.67505415e-05  2.10113005e+01  4.91226000e-02  -2.66856953e+01
0.3100000000           3.96833697e-02  -2.70276277e+01 1.48589038e-05  1.95043940e+01  1.30911615e-01  -1.42363448e+01 1.50476951e-05  2.00646220e+01 
                       1.48589013e-05  1.95043895e+01  3.36342425e-02  -3.68688211e+01 1.69692374e-05  1.86527067e+01  1.34131625e-01  -1.44854918e+01
                       1.30911582e-01  -1.42363513e+01 1.69692372e-05  1.86527076e+01  3.88750217e-02  -2.75552373e+01 1.69939081e-05  1.97477029e+01 
                       1.50476917e-05  2.00646199e+01  1.34131620e-01  -1.44855031e+01 1.69939081e-05  1.97477039e+01  3.25007842e-02  -3.93018182e+01
0.3200000000           2.31785102e-02  -3.77370199e+01 1.49239440e-05  1.82065188e+01  1.38689216e-01  -2.21358437e+01 1.53106768e-05  1.95471197e+01 
