# GHz S MA R 50
! S-Parameters data
! Freq  magS11  angS11  magS12  angS12  magS13  angS13  magS14  angS14
!       magS21  angS21  magS22  angS22  magS23  angS23  magS24  angS24
!       magS31  angS31  magS32  angS32  magS33  angS33  magS34  angS34
!       magS41  angS41  magS42  angS42  magS43  angS43  magS44  angS44
!     
0.0000000000           8.19066213e-03  3.65342880e+01  8.96267275e-09  7.48148633e+01  1.66966038e-03  2.97204160e+01  3.21809902e-08  7.69077659e+01 
                       8.98432716e-09  7.48246409e+01  8.05035837e-03  3.75223308e+01  1.37819154e-08  -9.88391392e+01 1.67151140e-03  2.97763983e+01 
                       1.66963509e-03  2.97209952e+01  1.37813083e-08  -9.88407932e+01 8.43657780e-03  3.51856390e+01  1.31411791e-08  7.56164470e+01 
                       3.21895504e-08  7.69078114e+01  1.67148346e-03  2.97768196e+01  1.31260928e-08  7.56133911e+01  8.28983534e-03  3.60855162e+01 
0.0100000000           1.63171023e-02  4.10103280e+01  6.47430541e-07  6.91722924e+01  2.21307660e-02  7.67926237e+01  5.88599523e-07  6.92709792e+01 
                       6.47430333e-07  6.91722845e+01  1.64503188e-02  4.23142012e+01  7.83676012e-07  6.83183028e+01  2.20759744e-02  7.68499036e+01 
                       2.21307655e-02  7.67926236e+01  7.83675796e-07  6.83182935e+01  1.63275329e-02  4.11643511e+01  6.81270377e-07  6.83401941e+01 
                       5.88599291e-07  6.92709694e+01  2.20759739e-02  7.68499035e+01  6.81270591e-07  6.83402035e+01  1.64550864e-02  4.24521201e+01 
0.0200000000           2.48774676e-02  3.41580854e+01  1.14870904e-06  6.14301736e+01  4.31558244e-02  6.83739190e+01  1.04509931e-06  6.24292479e+01 
                       1.14875689e-06  6.14307640e+01  2.54140024e-02  3.52290363e+01  1.38536785e-06  5.96755174e+01  4.30587169e-02  6.84778696e+01 
                       4.31558330e-02  6.83738981e+01  1.38532706e-06  5.96761906e+01  2.49529291e-02  3.42666214e+01  1.20405441e-06  6.04961595e+01 
                       1.04511503e-06  6.24298380e+01  4.30586973e-02  6.84778593e+01  1.20405241e-06  6.04956452e+01  2.54583476e-02  3.53174742e+01 
0.0300000000           3.07538751e-02  2.52989330e+01  1.50520709e-06  5.32107841e+01  6.28551752e-02  5.94215027e+01  1.37477613e-06  5.51619074e+01 
                       1.50522297e-06  5.32106319e+01  3.16756109e-02  2.61048910e+01  1.80859455e-06  5.03969292e+01  6.27366306e-02  5.95743714e+01 
                       6.28551737e-02  5.94215002e+01  1.80858812e-06  5.03972025e+01  3.08624984e-02  2.53516266e+01  1.57487510e-06  5.20748808e+01 
                       1.37478298e-06  5.51619297e+01  6.27366260e-02  5.95743712e+01  1.57487046e-06  5.20748123e+01  3.17654768e-02  2.61404311e+01 
0.0400000000           3.47211330e-02  1.59695078e+01  1.69452347e-06  4.53189915e+01  8.10026082e-02  5.04325308e+01  1.56199964e-06  4.84410496e+01 
                       1.69448106e-06  4.53200121e+01  3.60246784e-02  1.64318220e+01  2.02201933e-06  4.11054792e+01  8.08880883e-02  5.06303005e+01 
                       8.10026086e-02  5.04325335e+01  2.02203257e-06  4.11046985e+01  3.48796591e-02  1.59630124e+01  1.77064582e-06  4.38770530e+01 
                       1.56197942e-06  4.84413093e+01  8.08880933e-02  5.06302973e+01  1.77065993e-06  4.38770001e+01  3.61625582e-02  1.64066178e+01 
0.0500000000           3.69844623e-02  6.22114088e+00  1.69530522e-06  3.82166272e+01  9.73512579e-02  4.14669682e+01  1.59220557e-06  4.28827826e+01 
                       1.69525065e-06  3.82194364e+01  3.86214644e-02  6.24304045e+00  1.99547450e-06  3.19946315e+01  9.72723981e-02  4.17051690e+01 
                       9.73512573e-02  4.14669705e+01  1.99550360e-06  3.19929100e+01  3.71915816e-02  6.13339268e+00  1.76871927e-06  3.63109268e+01 
                       1.59218121e-06  4.28837041e+01  9.72724026e-02  4.17051619e+01  1.76873025e-06  3.63107259e+01  3.88061644e-02  6.14449163e+00 
0.0600000000           3.76104299e-02  -4.02165004e+00 1.49602116e-06  3.28666581e+01  1.11660796e-01  3.25346327e+01  1.46178745e-06  3.96907161e+01 
                       1.49602209e-06  3.28705661e+01  3.95045116e-02  -4.54132683e+00 1.70868074e-06  2.33542140e+01  1.11652509e-01  3.28069617e+01 
                       1.11660791e-01  3.25346351e+01  1.70872981e-06  2.33512537e+01  3.78580996e-02  -4.20744498e+00 1.55571213e-06  3.01822518e+01 
                       1.46180079e-06  3.96917636e+01  1.11652505e-01  3.28069533e+01  1.55568953e-06  3.01827215e+01  3.97323025e-02  -4.72721778e+00
0.0700000000           3.66614216e-02  -1.49379975e+01 1.10453335e-06  3.23768528e+01  1.23712847e-01  2.36384099e+01  1.19181809e-06  4.19865364e+01 
                       1.10463315e-06  3.23792916e+01  3.87237918e-02  -1.61192600e+01 1.15379466e-06  1.61851812e+01  1.23809243e-01  2.39364634e+01 
                       1.23712837e-01  2.36384128e+01  1.15385900e-06  1.61796416e+01  3.69408634e-02  -1.52399849e+01 1.13481378e-06  2.81265765e+01 
                       1.19189313e-06  4.19855365e+01  1.23809230e-01  2.39364556e+01  1.13475044e-06  2.81298967e+01  3.89901485e-02  -1.64082602e+01
0.0800000000           3.42391391e-02  -2.68778336e+01 6.15526487e-07  5.32876163e+01  1.33323118e-01  1.47804009e+01  8.85638443e-07  5.89861760e+01 
                       6.15656708e-07  5.32762361e+01  3.63872695e-02  -2.88758974e+01 3.47878988e-07  2.27192518e+01  1.33553005e-01  1.50937895e+01 
                       1.33323107e-01  1.47804043e+01  3.47915911e-07  2.26978170e+01  3.45434394e-02  -2.73210936e+01 5.79667814e-07  4.61946746e+01 
                       8.85715581e-07  5.89778063e+01  1.33552987e-01  1.50937838e+01  5.79633324e-07  4.62092019e+01  3.66900261e-02  -2.92870449e+01
0.0900000000           3.05237018e-02  -4.05158648e+01 7.30799827e-07  1.22286989e+02  1.40347193e-01  5.96297948e+00  9.07084311e-07  9.79605555e+01 
                       7.30659324e-07  1.22276026e+02  3.27112383e-02  -4.35388686e+01 7.68380656e-07  1.60901849e+02  1.40729747e-01  6.27961889e+00 
                       1.40347187e-01  5.96298150e+00  7.68304257e-07  1.60906955e+02  3.08506621e-02  -4.11348513e+01 6.72450275e-07  1.26799670e+02 
                       9.07016351e-07  9.79512109e+01  1.40729731e-01  6.27961500e+00  6.72597190e-07  1.26802623e+02  3.30539787e-02  -4.40926007e+01
0.1000000000           2.58545208e-02  -5.72102088e+01 1.63488769e-06  1.40263813e+02  1.44681481e-01  -2.80991178e+00 1.50515661e-06  1.21772129e+02 
                       1.63488375e-06  1.40263133e+02  2.81225502e-02  -6.15053898e+01 2.06759598e-06  1.57825914e+02  1.45222766e-01  -2.50341241e+00
                       1.44681487e-01  -2.80991287e+00 2.06759706e-06  1.57826461e+02  2.62132701e-02  -5.80432831e+01 1.64498586e-06  1.43402632e+02 
                       1.50516040e-06  1.21772330e+02  1.45222765e-01  -2.50341433e+00 1.64500319e-06  1.43402793e+02  2.85197740e-02  -6.22075013e+01
0.1100000000           2.09650906e-02  -7.94410094e+01 2.79723675e-06  1.39321373e+02  1.46257257e-01  -1.15300552e+01 2.42895612e-06  1.26885541e+02 
                       2.79723391e-06  1.39320976e+02  2.34999989e-02  -8.51409381e+01 3.56618345e-06  1.50064104e+02  1.46948916e-01  -1.12476642e+01
                       1.46257263e-01  -1.15300535e+01 3.56618190e-06  1.50064438e+02  2.13619086e-02  -8.05896020e+01 2.86424620e-06  1.41219961e+02 
                       2.42896075e-06  1.26885635e+02  1.46948916e-01  -1.12476629e+01 2.86426335e-06  1.41220049e+02  2.39821721e-02  -8.59143115e+01
0.1200000000           1.74254228e-02  -1.11727001e+02 4.10604931e-06  1.33871739e+02  1.45076332e-01  -2.01855498e+01 3.52416203e-06  1.24772532e+02 
                       4.10604913e-06  1.33871470e+02  2.06142401e-02  -1.17450286e+02 5.21082447e-06  1.41342872e+02  1.45894316e-01  -1.99422964e+01
                       1.45076338e-01  -2.01855460e+01 5.21081978e-06  1.41343104e+02  1.79242728e-02  -1.12905801e+02 4.22913977e-06  1.35080581e+02 
                       3.52416701e-06  1.24772586e+02  1.45894318e-01  -1.99422932e+01 4.22915625e-06  1.35080655e+02  2.12024560e-02  -1.17965631e+02
0.1300000000           1.79294232e-02  -1.52025591e+02 5.50009395e-06  1.26737223e+02  1.41174717e-01  -2.87591800e+01 4.71763374e-06  1.19659176e+02 
                       5.50009685e-06  1.26737030e+02  2.19006312e-02  -1.54780663e+02 6.93761443e-06  1.32255041e+02  1.42080988e-01  -2.85705154e+01
                       1.41174721e-01  -2.87591741e+01 6.93760646e-06  1.32255212e+02  1.85350189e-02  -1.52611748e+02 5.67941447e-06  1.27498968e+02 
                       4.71763918e-06  1.19659212e+02  1.42080988e-01  -2.85705101e+01 5.67943020e-06  1.27499037e+02  2.25404242e-02  -1.54705416e+02
0.1400000000           2.33774666e-02  1.73974235e+02  6.91664660e-06  1.18790582e+02  1.34641628e-01  -3.72234335e+01 5.94933160e-06  1.13057696e+02 
                       6.91665277e-06  1.18790438e+02  2.78642109e-02  1.73644353e+02  8.67082565e-06  1.22986076e+02  1.35587298e-01  -3.71055109e+01
                       1.34641645e-01  -3.72234247e+01 8.67081416e-06  1.22986206e+02  2.40104094e-02  1.73853146e+02  7.15087614e-06  1.19226344e+02 
                       5.94933745e-06  1.13057726e+02  1.35587312e-01  -3.71055029e+01 7.15089083e-06  1.19226412e+02  2.84841835e-02  1.74022224e+02 
0.1500000000           3.18984817e-02  1.50307274e+02  8.28588537e-06  1.10404620e+02  1.25621596e-01  -4.55352525e+01 7.15699247e-06  1.05628786e+02 
                       8.28589448e-06  1.10404513e+02  3.68175436e-02  1.50437615e+02  1.03244712e-05  1.13628878e+02  1.26550859e-01  -4.55058950e+01
                       1.25621609e-01  -4.55352413e+01 1.03244565e-05  1.13628978e+02  3.25238451e-02  1.50253778e+02  8.57138820e-06  1.10580686e+02 
                       7.15699862e-06  1.05628814e+02  1.26550870e-01  -4.55058846e+01 8.57140166e-06  1.10580753e+02  3.74106654e-02  1.50798587e+02 
0.1600000000           4.18440757e-02  1.32791594e+02  9.53224035e-06  1.01789459e+02  1.14315610e-01  -5.36272018e+01 8.27428972e-06  9.77274844e+01 
                       9.53225203e-06  1.01789379e+02  4.72094127e-02  1.32597179e+02  1.18059676e-05  1.04255569e+02  1.15169467e-01  -5.37079622e+01
                       1.14315623e-01  -5.36271918e+01 1.18059505e-05  1.04255645e+02  4.24521347e-02  1.32672813e+02  9.86285788e-06  1.01743345e+02 
                       8.27429637e-06  9.77275141e+01  1.15169479e-01  -5.37079526e+01 9.86286991e-06  1.01743413e+02  4.77883445e-02  1.32844472e+02 
0.1700000000           5.22935141e-02  1.18436833e+02  1.05786723e-05  9.31003876e+01  1.00980387e-01  -6.13891770e+01 9.23357353e-06  8.95897986e+01 
                       1.05786860e-05  9.31003298e+01  5.80742861e-02  1.17720128e+02  1.30216767e-05  9.49418335e+01  1.01699033e-01  -6.16092105e+01
                       1.00980403e-01  -6.13891679e+01 1.30216576e-05  9.49418902e+01  5.28717113e-02  1.18231445e+02  1.09457222e-05  9.28512357e+01 
                       9.23358044e-06  8.95898316e+01  1.01699048e-01  -6.16092020e+01 1.09457326e-05  9.28513041e+01  5.86436339e-02  1.17842533e+02 
0.1800000000           6.26426452e-02  1.05779678e+02  1.13526279e-05  8.44815453e+01  8.59261673e-02  -6.86266166e+01 9.97084098e-06  8.14082548e+01 
                       1.13526431e-05  8.44815052e+01  6.87432314e-02  1.04514750e+02  1.38838313e-05  8.57792167e+01  8.64489102e-02  -6.90298325e+01
                       8.59261935e-02  -6.86266110e+01 1.38838107e-05  8.57792581e+01  6.31731065e-02  1.05492925e+02  1.17450323e-05  8.40341622e+01 
                       9.97084796e-06  8.14082941e+01  8.64489351e-02  -6.90298272e+01 1.17450409e-05  8.40342326e+01  6.92971189e-02  1.04520433e+02 
0.1900000000           7.24061430e-02  9.41005241e+01  1.17927065e-05  7.60899269e+01  6.95201016e-02  -7.49523979e+01 1.04316404e-05  7.33689489e+01 
                       1.17927222e-05  7.60899010e+01  7.86752956e-02  9.23050033e+01  1.43179655e-05  7.68859491e+01  6.97814094e-02  -7.56110899e+01
                       6.95201275e-02  -7.49523957e+01 1.43179443e-05  7.68859769e+01  7.28679756e-02  9.37417638e+01  1.21971324e-05  7.54353279e+01 
                       1.04316471e-05  7.33689953e+01  6.97814342e-02  -7.56110879e+01 1.21971392e-05  7.54354014e+01  7.92000036e-02  9.22040554e+01 
0.2000000000           8.11550786e-02  8.30234558e+01  1.18552228e-05  6.81171306e+01  5.22176678e-02  -7.94564293e+01 1.05769227e-05  6.56774116e+01 
                       1.18552386e-05  6.81171164e+01  8.73985360e-02  8.07221062e+01  1.42700506e-05  6.84237264e+01  5.21360255e-02  -8.04972779e+01
                       5.22176862e-02  -7.94564301e+01 1.42700293e-05  6.84237421e+01  8.15257024e-02  8.26006929e+01  1.22560311e-05  6.72308812e+01 
                       1.05769288e-05  6.56774651e+01  5.21360431e-02  -8.04972783e+01 1.22560360e-05  6.72309591e+01  8.78743462e-02  8.05224553e+01 
0.2100000000           8.85020280e-02  7.23400662e+01  1.15197542e-05  6.08212491e+01  3.47318158e-02  -7.94009973e+01 1.03879603e-05  5.85873078e+01 
                       1.15197697e-05  6.08212447e+01  9.44949038e-02  6.95543462e+01  1.37125833e-05  6.06305998e+01  3.41797080e-02  -8.10237370e+01
                       3.47318310e-02  -7.94010088e+01 1.37125624e-05  6.06306053e+01  8.87591320e-02  7.18592434e+01  1.18987805e-05  5.96593704e+01 
                       1.03879655e-05  5.85873720e+01  3.41797223e-02  -8.10237462e+01 1.18987835e-05  5.96594547e+01  9.48988713e-02  6.92613447e+01 
0.2200000000           9.41048360e-02  6.19294129e+01  1.07944134e-05  5.45862609e+01  1.91798991e-02  -6.32188510e+01 9.87051970e-06  5.24462955e+01 
                       1.07944280e-05  5.45862651e+01  9.96039897e-02  5.86744562e+01  1.26505696e-05  5.38921941e+01  1.79425226e-02  -6.47852363e+01
                       1.91799065e-02  -6.32188820e+01 1.26505496e-05  5.38921917e+01  9.42275221e-02  6.13944163e+01  1.11301935e-05  5.30789521e+01 
                       9.87052400e-06  5.24463720e+01  1.79425306e-02  -6.47852658e+01 1.11301949e-05  5.30790459e+01  9.99118522e-02  5.82908325e+01 
0.2300000000           9.76745548e-02  5.17184442e+01  9.72309285e-06  5.00432451e+01  1.60745509e-02  -6.38048849e+00 9.05967391e-06  4.77805901e+01 
                       9.72310630e-06  5.00432549e+01  1.02430920e-01  4.80020687e+01  1.11308515e-05  4.89069520e+01  1.52265468e-02  -1.47720380e+00
                       1.60745483e-02  -6.38049351e+00 1.11308323e-05  4.89069412e+01  9.76434983e-02  5.11313329e+01  9.98922957e-06  4.80894172e+01 
                       9.05967698e-06  4.77806815e+01  1.52265459e-02  -1.47720575e+00 9.98923005e-06  4.80895259e+01  1.02617981e-01  4.75279086e+01 
0.2400000000           9.89841123e-02  4.16612629e+01  8.40215753e-06  4.83177663e+01  2.96091208e-02  2.08743095e+01  8.02970085e-06  4.54500558e+01 
                       8.40216980e-06  4.83177788e+01  1.02755162e-01  3.74831646e+01  9.26702064e-06  4.70879586e+01  3.00178991e-02  2.43388125e+01 
                       2.96091190e-02  2.08743077e+01  9.26700254e-06  4.70879473e+01  9.87830736e-02  4.10225380e+01  8.56457364e-06  4.57982511e+01 
                       8.02970365e-06  4.54501699e+01  3.00178989e-02  2.43388094e+01  8.56457396e-06  4.57983822e+01  1.02798575e-01  3.69157079e+01 
0.2500000000           9.78744010e-02  3.17275479e+01  7.02442229e-06  5.14454466e+01  4.66544622e-02  2.38011036e+01  6.91809508e-06  4.68816872e+01 
                       7.02443337e-06  5.14454558e+01  1.00436646e-01  2.70777074e+01  7.31814168e-06  5.14893182e+01  4.78008150e-02  2.59557097e+01 
                       4.66544673e-02  2.38011001e+01  7.31812397e-06  5.14893202e+01  9.74908194e-02  3.10362029e+01  7.03895336e-06  4.83559113e+01 
                       6.91809813e-06  4.68818323e+01  4.78008204e-02  2.59557040e+01  7.03895614e-06  4.83560761e+01  1.00316614e-01  2.64106835e+01 
0.2600000000           9.42582979e-02  2.18955459e+01  5.97507073e-06  6.22487455e+01  6.38061657e-02  2.04599141e+01  5.97540550e-06  5.40414993e+01 
                       5.97508070e-06  6.22487388e+01  9.54197076e-02  1.67507583e+01  5.91242345e-06  6.73247527e+01  6.55239672e-02  2.19007224e+01 
                       6.38061743e-02  2.04599072e+01  5.91240836e-06  6.73248057e+01  9.36841644e-02  2.11488914e+01  5.80295997e-06  5.92805694e+01 
                       5.97541098e-06  5.40416767e+01  6.55239766e-02  2.19007144e+01  5.80296643e-06  5.92807669e+01  9.51209138e-02  1.59729622e+01 
0.2700000000           8.81210412e-02  1.21474440e+01  5.86042892e-06  8.00264658e+01  8.02327960e-02  1.48701126e+01  5.60037205e-06  6.74706991e+01 
                       5.86043726e-06  8.00264356e+01  8.77330507e-02  6.46386789e+00  6.13816330e-06  9.21312913e+01  8.24288053e-02  1.58337060e+01 
                       8.02328035e-02  1.48701039e+01  6.13815391e-06  9.21313876e+01  8.73539836e-02  1.13404666e+01  5.55159434e-06  7.90065380e+01 
                       5.60038290e-06  6.74708824e+01  8.24288124e-02  1.58336962e+01  5.55160900e-06  7.90067043e+01  8.72462901e-02  5.55616333e+00 
0.2800000000           7.95190504e-02  2.46507894e+00  7.01572913e-06  9.55997962e+01  9.55030079e-02  8.23826311e+00  6.14447419e-06  8.22413895e+01 
                       7.01573587e-06  9.55997612e+01  7.74877273e-02  -3.83829183e+00 8.24719060e-06  1.08616057e+02  9.80781258e-02  8.83199486e+00 
                       9.55030158e-02  8.23825165e+00  8.24718606e-06  1.08616142e+02  7.85625542e-02  1.58941833e+00  6.73321423e-06  9.66942194e+01 
                       6.14449092e-06  8.22415331e+01  9.80781331e-02  8.83198285e+00  6.73323404e-06  9.66943079e+01  7.68107397e-02  -4.90893066e+00
0.2900000000           6.85750767e-02  -7.17523694e+00 9.11836050e-06  1.03167270e+02  1.09287294e-01  1.03912366e+00  7.55648140e-06  9.19016238e+01 
                       9.11836635e-06  1.03167244e+02  6.48711807e-02  -1.42564095e+01 1.14094851e-05  1.13757525e+02  1.12116261e-01  1.32136029e+00 
                       1.09287298e-01  1.03911231e+00  1.14094830e-05  1.13757579e+02  6.74407021e-02  -8.13543176e+00 8.96475773e-06  1.04922089e+02 
                       7.55650223e-06  9.19017172e+01  1.12116265e-01  1.32134868e+00  8.96477961e-06  1.04922132e+02  6.40121062e-02  -1.55533190e+01
0.3000000000           5.54735589e-02  -1.68158377e+01 1.17227871e-05  1.04545464e+02  1.21297184e-01  -6.50164042e+00 9.52313225e-06  9.55514690e+01 
                       1.17227926e-05  1.04545447e+02  5.01426696e-02  -2.50235340e+01 1.50178860e-05  1.12768661e+02  1.24226832e-01  -6.49115950e+00
                       1.21297184e-01  -6.50165160e+00 1.50178846e-05  1.12768694e+02  5.41805777e-02  -1.78923729e+01 1.17221514e-05  1.06220988e+02 
                       9.52315556e-06  9.55515322e+01  1.24226832e-01  -6.49117081e+00 1.17221740e-05  1.06221014e+02  4.91226000e-02  -2.66856953e+01
0.3100000000           4.04529880e-02  -2.65589421e+01 1.45432910e-05  1.02339964e+02  1.31274476e-01  -1.42584587e+01 1.17741488e-05  9.50594804e+01 
                       1.45432966e-05  1.02339953e+02  3.36342425e-02  -3.68688211e+01 1.87628914e-05  1.08762038e+02  1.34131625e-01  -1.44854918e+01
                       1.31274471e-01  -1.42584701e+01 1.87628915e-05  1.08762059e+02  3.90301251e-02  -2.78321425e+01 1.46932452e-05  1.03734865e+02 
                       1.17741735e-05  9.50595287e+01  1.34131620e-01  -1.44855031e+01 1.46932680e-05  1.03734886e+02  3.25007842e-02  -3.93018182e+01
0.3200000000           2.38008114e-02  -3.67971710e+01 1.73976790e-05  9.81004156e+01  1.38996090e-01  -2.21500373e+01 1.41279345e-05  9.20399138e+01 
