# GHz S MA R 50
! S-Parameters data
! Freq  magS11  angS11  magS12  angS12  magS13  angS13  magS14  angS14
!       magS21  angS21  magS22  angS22  magS23  angS23  magS24  angS24
!       magS31  angS31  magS32  angS32  magS33  angS33  magS34  angS34
!       magS41  angS41  magS42  angS42  magS43  angS43  magS44  angS44
!     
0.0000000000           7.92419694e-03  3.66107316e+01  6.52194103e-06  -1.00684827e+02 1.68413315e-03  2.71857087e+01  5.64417218e-06  -1.01221353e+02
                       6.52196169e-06  -1.00684787e+02 8.05035837e-03  3.75223308e+01  6.49835260e-06  -9.99475818e+01 1.67151140e-03  2.97763983e+01 
                       1.68419326e-03  2.71900183e+01  6.49836956e-06  -9.99475631e+01 8.24175175e-03  3.48194002e+01  6.39489944e-06  -1.00387854e+02
                       5.64419457e-06  -1.01221296e+02 1.67148346e-03  2.97768196e+01  6.39489240e-06  -1.00387872e+02 8.28983534e-03  3.60855162e+01 
0.0100000000           1.63125520e-02  4.14222499e+01  6.45463049e-05  -1.08209292e+02 2.19836123e-02  7.47763583e+01  5.58610207e-05  -1.08381296e+02
                       6.45463049e-05  -1.08209292e+02 1.64503188e-02  4.23142012e+01  6.89583432e-05  -1.08121718e+02 2.20759744e-02  7.68499036e+01 
                       2.19836108e-02  7.47763576e+01  6.89583432e-05  -1.08121718e+02 1.63379041e-02  4.17124509e+01  6.65155900e-05  -1.08232429e+02
                       5.58610207e-05  -1.08381296e+02 2.20759739e-02  7.68499035e+01  6.65155900e-05  -1.08232429e+02 1.64550864e-02  4.24521201e+01 
0.0200000000           2.49922301e-02  3.37994988e+01  1.22694897e-04  -1.19150282e+02 4.28282208e-02  6.44038570e+01  1.06194278e-04  -1.19898498e+02
                       1.22694930e-04  -1.19150322e+02 2.54140024e-02  3.52290363e+01  1.31105596e-04  -1.19242564e+02 4.30587169e-02  6.84778696e+01 
                       4.28285978e-02  6.44036611e+01  1.31105607e-04  -1.19242572e+02 2.50789703e-02  3.40445813e+01  1.26394014e-04  -1.19453232e+02
                       1.06194313e-04  -1.19898553e+02 4.30586973e-02  6.84778593e+01  1.26394013e-04  -1.19453230e+02 2.54583476e-02  3.53174742e+01 
0.0300000000           3.08052083e-02  2.43569730e+01  1.75803045e-04  -1.30080038e+02 6.23480144e-02  5.35180603e+01  1.51607699e-04  -1.31361892e+02
                       1.75803045e-04  -1.30080042e+02 3.16756109e-02  2.61048910e+01  1.87748221e-04  -1.30325158e+02 6.27366306e-02  5.95743714e+01 
                       6.23480319e-02  5.35180306e+01  1.87748222e-04  -1.30325158e+02 3.08898921e-02  2.48096055e+01  1.80844785e-04  -1.30638535e+02
                       1.51607699e-04  -1.31361897e+02 6.27366260e-02  5.95743712e+01  1.80844783e-04  -1.30638538e+02 3.17654768e-02  2.61404311e+01 
0.0400000000           3.46296874e-02  1.45355175e+01  2.24463609e-04  -1.40613376e+02 8.03230703e-02  4.25825081e+01  1.92335478e-04  -1.42359288e+02
                       2.24463620e-04  -1.40613373e+02 3.60246784e-02  1.64318220e+01  2.39354721e-04  -1.40994646e+02 8.08880883e-02  5.06303005e+01 
                       8.03230731e-02  4.25825398e+01  2.39354720e-04  -1.40994641e+02 3.47271580e-02  1.50913061e+01  2.30248338e-04  -1.41403896e+02
                       1.92335500e-04  -1.42359285e+02 8.08880933e-02  5.06302973e+01  2.30248341e-04  -1.41403902e+02 3.61625582e-02  1.64066178e+01 
0.0500000000           3.66250449e-02  4.34301797e+00  2.69230636e-04  -1.50667810e+02 9.65181768e-02  3.16560081e+01  2.28656306e-04  -1.52774752e+02
                       2.69230643e-04  -1.50667810e+02 3.86214644e-02  6.24304045e+00  2.86420169e-04  -1.51157736e+02 9.72723981e-02  4.17051690e+01 
                       9.65181874e-02  3.16560185e+01  2.86420183e-04  -1.51157735e+02 3.67046310e-02  4.99205221e+00  2.75028163e-04  -1.51647680e+02
                       2.28656314e-04  -1.52774751e+02 9.72724026e-02  4.17051619e+01  2.75028158e-04  -1.51647681e+02 3.88061644e-02  6.14449163e+00 
0.0600000000           3.68343610e-02  -6.27288314e+00 3.11055896e-04  -1.60205276e+02 1.10702478e-01  2.07424845e+01  2.61294769e-04  -1.62524079e+02
                       3.11055885e-04  -1.60205275e+02 3.95045116e-02  -4.54132683e+00 3.29902982e-04  -1.60762319e+02 1.11652509e-01  3.28069617e+01 
                       1.10702459e-01  2.07424763e+01  3.29902981e-04  -1.60762320e+02 3.68736812e-02  -5.52628178e+00 3.16072614e-04  -1.61308304e+02
                       2.61294760e-04  -1.62524079e+02 1.11652505e-01  3.28069533e+01  3.16072628e-04  -1.61308303e+02 3.97323025e-02  -4.72721778e+00
0.0700000000           3.53015307e-02  -1.74806713e+01 3.51374916e-04  -1.69241809e+02 1.22663777e-01  9.83779484e+00  2.91549333e-04  -1.71573110e+02
                       3.51374881e-04  -1.69241806e+02 3.87237918e-02  -1.61192600e+01 3.71335769e-04  -1.69808846e+02 1.23809243e-01  2.39364634e+01 
                       1.22663720e-01  9.83778629e+00  3.71335742e-04  -1.69808845e+02 3.52784571e-02  -1.66403007e+01 3.54851499e-04  -1.70375721e+02
                       2.91549301e-04  -1.71573108e+02 1.23809230e-01  2.39364556e+01  3.54851522e-04  -1.70375723e+02 3.89901485e-02  -1.64082602e+01
0.0800000000           3.21035232e-02  -2.96408475e+01 3.92015131e-04  -1.77859687e+02 1.32220311e-01  -1.06338710e+00 3.21261421e-04  -1.79966631e+02
                       3.92015103e-04  -1.77859683e+02 3.63872695e-02  -2.88758974e+01 4.12751031e-04  -1.78368117e+02 1.33553005e-01  1.50937895e+01 
                       1.32220238e-01  -1.06338627e+00 4.12750994e-04  -1.78368114e+02 3.19940331e-02  -2.87191163e+01 3.93356936e-04  -1.78911544e+02
                       3.21261386e-04  -1.79966628e+02 1.33552987e-01  1.50937838e+01  3.93356961e-04  -1.78911548e+02 3.66900261e-02  -2.92870449e+01
0.0900000000           2.73900206e-02  -4.35361135e+01 4.34988894e-04  1.73791344e+02  1.39226890e-01  -1.19667828e+01 3.52647232e-04  1.72148601e+02 
                       4.34988876e-04  1.73791347e+02  3.27112383e-02  -4.35388686e+01 4.56456731e-04  1.73411657e+02  1.40729747e-01  6.27961889e+00 
                       1.39226839e-01  -1.19667747e+01 4.56456707e-04  1.73411660e+02  2.71715330e-02  -4.25676855e+01 4.33895360e-04  1.72940099e+02 
                       3.52647215e-04  1.72148604e+02  1.40729731e-01  6.27961500e+00  4.33895368e-04  1.72940096e+02  3.30539787e-02  -4.40926007e+01
0.1000000000           2.14779354e-02  -6.10989733e+01 4.82195260e-04  1.65510274e+02  1.43575938e-01  -2.28776675e+01 3.87980905e-04  1.64524429e+02 
                       4.82195260e-04  1.65510274e+02  2.81225502e-02  -6.15053898e+01 5.04694612e-04  1.65317541e+02  1.45222766e-01  -2.50341241e+00
                       1.43575939e-01  -2.28776675e+01 5.04694619e-04  1.65317540e+02  2.11372126e-02  -6.02112917e+01 4.78754249e-04  1.64961632e+02 
                       3.87980906e-04  1.64524429e+02  1.45222765e-01  -2.50341433e+00 4.78754251e-04  1.64961632e+02  2.85197740e-02  -6.22075013e+01
0.1100000000           1.53231639e-02  -8.80039987e+01 5.35080538e-04  1.57076965e+02  1.45190349e-01  -3.37998804e+01 4.29206120e-04  1.56851550e+02 
                       5.35080540e-04  1.57076966e+02  2.34999989e-02  -8.51409381e+01 5.59306861e-04  1.57110754e+02  1.46948916e-01  -1.12476642e+01
                       1.45190350e-01  -3.37998806e+01 5.59306860e-04  1.57110754e+02  1.50042912e-02  -8.69448589e+01 5.29864433e-04  1.56900672e+02 
                       4.29206114e-04  1.56851550e+02  1.46948916e-01  -1.12476629e+01 5.29864436e-04  1.56900671e+02  2.39821721e-02  -8.59143115e+01
0.1200000000           1.17588710e-02  -1.35950486e+02 5.94414735e-04  1.48298665e+02  1.44068108e-01  -4.47341135e+01 4.77478210e-04  1.48823787e+02 
                       5.94414742e-04  1.48298666e+02  2.06142401e-02  -1.17450286e+02 6.21241225e-04  1.48564669e+02  1.45894316e-01  -1.99422964e+01
                       1.44068097e-01  -4.47341140e+01 6.21241224e-04  1.48564668e+02  1.14091153e-02  -1.35739797e+02 5.88278964e-04  1.48511062e+02 
                       4.77478216e-04  1.48823787e+02  1.45894318e-01  -1.99422932e+01 5.88278966e-04  1.48511061e+02  2.12024560e-02  -1.17965631e+02
0.1300000000           1.55095962e-02  1.71369222e+02  6.60111302e-04  1.39034883e+02  1.40231778e-01  -5.56809447e+01 5.33010375e-04  1.40209681e+02 
                       6.60111313e-04  1.39034885e+02  2.19006312e-02  -1.54780663e+02 6.90524286e-04  1.39515484e+02  1.42080988e-01  -2.85705154e+01
                       1.40231771e-01  -5.56809439e+01 6.90524288e-04  1.39515485e+02  1.53421723e-02  1.70766269e+02  6.54132717e-04  1.39610242e+02 
                       5.33010385e-04  1.40209681e+02  1.42080988e-01  -2.85705101e+01 6.54132708e-04  1.39610237e+02  2.25404242e-02  -1.54705416e+02
0.1400000000           2.44900091e-02  1.40749123e+02  7.31214182e-04  1.29214358e+02  1.33755339e-01  -6.66368692e+01 5.95018192e-04  1.30885399e+02 
                       7.31214203e-04  1.29214360e+02  2.78642109e-02  1.73644353e+02  7.66193280e-04  1.29877204e+02  1.35587298e-01  -3.71055109e+01
                       1.33755330e-01  -6.66368696e+01 7.66193273e-04  1.29877205e+02  2.45459702e-02  1.40506238e+02  7.26560944e-04  1.30098674e+02 
                       5.95018193e-04  1.30885399e+02  1.35587312e-01  -3.71055029e+01 7.26560911e-04  1.30098671e+02  2.84841835e-02  1.74022224e+02 
0.1500000000           3.54079155e-02  1.21366066e+02  8.06003272e-04  1.18832047e+02  1.24766432e-01  -7.75933459e+01 6.61862235e-04  1.20831518e+02 
                       8.06003345e-04  1.18832049e+02  3.68175436e-02  1.50437615e+02  8.46408042e-04  1.19638969e+02  1.26550859e-01  -4.55058950e+01
                       1.24766427e-01  -7.75933483e+01 8.46408040e-04  1.19638970e+02  3.56563652e-02  1.21488901e+02  8.03805582e-04  1.19958418e+02 
                       6.61862258e-04  1.20831518e+02  1.26550870e-01  -4.55058846e+01 8.03805540e-04  1.19958414e+02  3.74106654e-02  1.50798587e+02 
0.1600000000           4.70167321e-02  1.06296427e+02  8.82172859e-04  1.07935863e+02  1.13447929e-01  -8.85358986e+01 7.31280035e-04  1.10107576e+02 
                       8.82172907e-04  1.07935865e+02  4.72094127e-02  1.32597179e+02  9.28677541e-04  1.08849122e+02  1.15169467e-01  -5.37079622e+01
                       1.13447912e-01  -8.85359005e+01 9.28677551e-04  1.08849123e+02  4.74386430e-02  1.06692006e+02  8.83445280e-04  1.09236195e+02 
                       7.31280048e-04  1.10107576e+02  1.15169479e-01  -5.37079526e+01 8.83445239e-04  1.09236192e+02  4.77883445e-02  1.32844472e+02 
0.1700000000           5.86640279e-02  9.31439819e+01  9.57079243e-04  9.66108603e+01  1.00035295e-01  -9.94419812e+01 8.00662272e-04  9.88221429e+01 
                       9.57079302e-04  9.66108617e+01  5.80742861e-02  1.17720128e+02  1.01013375e-03  9.75960875e+01  1.01699033e-01  -6.16092105e+01
                       1.00035282e-01  -9.94419829e+01 1.01013377e-03  9.75960909e+01  5.92396986e-02  9.37542690e+01  9.62668545e-04  9.80221111e+01 
                       8.00662293e-04  9.88221436e+01  1.01699048e-01  -6.16092020e+01 9.62668492e-04  9.80221070e+01  5.86436339e-02  1.17842533e+02 
0.1800000000           6.98367926e-02  8.09706408e+01  1.02801734e-03  8.49650576e+01  8.48103623e-02  -1.10275220e+02 8.67332805e-04  8.71084737e+01 
                       1.02801742e-03  8.49650601e+01  6.87432314e-02  1.04514750e+02  1.08783331e-03  8.59916416e+01  8.64489102e-02  -6.90298325e+01
                       8.48103487e-02  -1.10275224e+02 1.08783334e-03  8.59916434e+01  7.05406237e-02  8.17609274e+01  1.03857359e-03  8.64310231e+01 
                       8.67332820e-04  8.71084773e+01  8.64489351e-02  -6.90298272e+01 1.03857351e-03  8.64310223e+01  6.92971189e-02  1.04520433e+02 
0.1900000000           8.00649352e-02  6.93549640e+01  1.09249936e-03  7.31184279e+01  6.80909126e-02  -1.20968114e+02 9.28809459e-04  7.51080047e+01 
                       1.09249944e-03  7.31184299e+01  7.86752956e-02  9.23050033e+01  1.15905453e-03  7.41584181e+01  6.97814094e-02  -7.56110899e+01
                       6.80909055e-02  -1.20968117e+02 1.15905457e-03  7.41584201e+01  8.08650579e-02  7.03031202e+01  1.10846060e-03  7.45887731e+01 
                       9.28809495e-04  7.51080093e+01  6.97814342e-02  -7.56110879e+01 1.10846052e-03  7.45887727e+01  7.92000036e-02  9.22040554e+01 
0.2000000000           8.89090783e-02  5.80903971e+01  1.14852874e-03  6.11949413e+01  5.02197040e-02  -1.31364412e+02 9.83042086e-04  6.29604303e+01 
                       1.14852881e-03  6.11949431e+01  8.73985360e-02  8.07221062e+01  1.22156919e-03  6.22214240e+01  5.21360255e-02  -8.04972779e+01
                       5.02196913e-02  -1.31364414e+02 1.22156925e-03  6.22214255e+01  8.97677375e-02  5.91808878e+01  1.17009463e-03  6.26230338e+01 
                       9.83042134e-04  6.29604342e+01  5.21360431e-02  -8.04972783e+01 1.17009455e-03  6.26230337e+01  8.78743462e-02  8.05224553e+01 
0.2100000000           9.59693838e-02  4.70715594e+01  1.19479706e-03  4.93168160e+01  3.15557975e-02  -1.40943791e+02 1.02857743e-03  5.07979519e+01 
                       1.19479713e-03  4.93168174e+01  9.44949038e-02  6.95543462e+01  1.27385468e-03  5.03023447e+01  3.41797080e-02  -8.10237370e+01
                       3.15557851e-02  -1.40943794e+02 1.27385475e-03  5.03023459e+01  9.68448588e-02  4.82927760e+01  1.22191395e-03  5.06573342e+01 
                       1.02857749e-03  5.07979551e+01  3.41797223e-02  -8.10237462e+01 1.22191388e-03  5.06573347e+01  9.48988713e-02  6.92613447e+01 
0.2200000000           1.00902133e-01  3.62461225e+01  1.23083489e-03  3.76002771e+01  1.25159186e-02  -1.46015776e+02 1.06467218e-03  3.87423453e+01 
                       1.23083496e-03  3.76002763e+01  9.96039897e-02  5.86744562e+01  1.31523722e-03  3.85158306e+01  1.79425226e-02  -6.47852363e+01
                       1.25159054e-02  -1.46015774e+02 1.31523731e-03  3.85158311e+01  1.01750381e-01  3.75887253e+01  1.26316445e-03  3.88073958e+01 
                       1.06467225e-03  3.87423462e+01  1.79425306e-02  -6.47852658e+01 1.26316438e-03  3.88073964e+01  9.99118522e-02  5.82908325e+01 
0.2300000000           1.03433716e-01  2.55918424e+01  1.25706184e-03  2.61519002e+01  7.26092668e-03  -3.90475034e+00 1.09131809e-03  2.69035073e+01 
                       1.25706191e-03  2.61519020e+01  1.02430920e-01  4.80020687e+01  1.34593043e-03  2.69667272e+01  1.52265468e-02  -1.47720380e+00
                       7.26093337e-03  -3.90472809e+00 1.34593053e-03  2.69667290e+01  1.04209285e-01  2.70479657e+01  1.29393343e-03  2.71787163e+01 
                       1.09131817e-03  2.69035093e+01  1.52265459e-02  -1.47720575e+00 1.29393336e-03  2.71787142e+01  1.02617981e-01  4.75279086e+01 
0.2400000000           1.03371929e-01  1.51058977e+01  1.27477912e-03  1.50649531e+01  2.61014772e-02  -2.50662276e+00 1.10922656e-03  1.53787233e+01 
                       1.27477919e-03  1.50649525e+01  1.02755162e-01  3.74831646e+01  1.36704426e-03  1.57476988e+01  3.00178991e-02  2.43388125e+01 
                       2.61014885e-02  -2.50662488e+00 1.36704434e-03  1.57476984e+01  1.04030299e-01  1.66688496e+01  1.31515850e-03  1.58645918e+01 
                       1.10922664e-03  1.53787229e+01  3.00178989e-02  2.43388094e+01  1.31515843e-03  1.58645927e+01  1.02798575e-01  3.69157079e+01 
0.2500000000           1.00611413e-01  4.80075746e+00  1.28609242e-03  4.41455796e+00  4.46307725e-02  -1.15630210e+01 1.11976548e-03  4.25173294e+00 
                       1.28609249e-03  4.41455741e+00  1.00436646e-01  2.70777074e+01  1.38050652e-03  4.93610333e+00  4.78008150e-02  2.59557097e+01 
                       4.46307797e-02  -1.15630239e+01 1.38050661e-03  4.93610386e+00  1.01110536e-01  6.46498182e+00  1.32854883e-03  4.94380436e+00 
                       1.11976555e-03  4.25173158e+00  4.78008204e-02  2.59557040e+01  1.32854876e-03  4.94380313e+00  1.00316614e-01  2.64106835e+01 
0.2600000000           9.51348234e-02  -5.29441669e+00 1.29379600e-03  -5.74909742e+00 6.23786219e-02  -2.18065472e+01 1.12489356e-03  -6.40965329e+00
                       1.29379608e-03  -5.74909583e+00 9.54197076e-02  1.67507583e+01  1.38897108e-03  -5.41087213e+00 6.55239672e-02  2.19007224e+01 
                       6.23786262e-02  -2.18065504e+01 1.38897115e-03  -5.41087385e+00 9.54369284e-02  -3.53303191e+00 1.33650153e-03  -5.52330626e+00
                       1.12489362e-03  -6.40965302e+00 6.55239766e-02  2.19007144e+01  1.33650145e-03  -5.52330573e+00 9.51209138e-02  1.59729622e+01 
0.2700000000           8.70091430e-02  -1.51247236e+01 1.30119706e-03  -1.54095802e+01 7.90446746e-02  -3.24460463e+01 1.12708035e-03  -1.65584241e+01
                       1.30119714e-03  -1.54095813e+01 8.77330507e-02  6.46386789e+00  1.39568277e-03  -1.52633494e+01 8.24288053e-02  1.58337060e+01 
                       7.90446784e-02  -3.24460502e+01 1.39568283e-03  -1.52633509e+01 8.70827272e-02  -1.32680596e+01 1.34198333e-03  -1.55008614e+01
                       1.12708040e-03  -1.65584256e+01 8.24288124e-02  1.58336962e+01  1.34198324e-03  -1.55008606e+01 8.72462901e-02  5.55616333e+00 
0.2800000000           7.63803625e-02  -2.45856887e+01 1.31188903e-03  -2.45943029e+01 9.43478557e-02  -4.32862786e+01 1.12922153e-03  -2.61770558e+01
                       1.31188912e-03  -2.45943044e+01 7.74877273e-02  -3.83829183e+00 1.40428949e-03  -2.46283873e+01 9.80781258e-02  8.83199486e+00 
                       9.43478523e-02  -4.32862817e+01 1.40428954e-03  -2.46283869e+01 7.62014013e-02  -2.26306533e+01 1.34837322e-03  -2.49861980e+01
                       1.12922157e-03  -2.61770576e+01 9.80781331e-02  8.83198285e+00  1.34837312e-03  -2.49861986e+01 7.68107397e-02  -4.90893066e+00
0.2900000000           6.34676457e-02  -3.34562133e+01 1.32942875e-03  -3.33820494e+01 1.08018736e-01  -5.42574614e+01 1.13448900e-03  -3.52892252e+01
                       1.32942884e-03  -3.33820514e+01 6.48711807e-02  -1.42564095e+01 1.41859668e-03  -3.35596235e+01 1.12116261e-01  1.32136029e+00 
                       1.08018734e-01  -5.42574653e+01 1.41859672e-03  -3.35596245e+01 6.30227380e-02  -3.13888839e+01 1.35926028e-03  -3.40195979e+01
                       1.13448904e-03  -3.52892260e+01 1.12116265e-01  1.32134868e+00  1.35926018e-03  -3.40195957e+01 6.40121062e-02  -1.55533190e+01
0.3000000000           4.85694052e-02  -4.11859548e+01 1.35696094e-03  -4.19031874e+01 1.19801956e-01  -6.53275492e+01 1.14611292e-03  -4.39715922e+01
                       1.35696103e-03  -4.19031903e+01 5.01426696e-02  -2.50235340e+01 1.44218075e-03  -4.21627248e+01 1.24226832e-01  -6.49115950e+00
                       1.19801951e-01  -6.53275529e+01 1.44218079e-03  -4.21627255e+01 4.78577560e-02  -3.89557420e+01 1.37811443e-03  -4.26913860e+01
                       1.14611295e-03  -4.39715928e+01 1.24226832e-01  -6.49117081e+00 1.37811434e-03  -4.26913826e+01 4.91226000e-02  -2.66856953e+01
0.3100000000           3.21242687e-02  -4.59628264e+01 1.39678959e-03  -5.03275505e+01 1.29462987e-01  -7.64770438e+01 1.16702220e-03  -5.23588761e+01
                       1.39678967e-03  -5.03275536e+01 3.36342425e-02  -3.68688211e+01 1.47795736e-03  -5.05905232e+01 1.34131625e-01  -1.44854918e+01
                       1.29462979e-01  -7.64770472e+01 1.47795741e-03  -5.05905234e+01 3.11692617e-02  -4.33477242e+01 1.40790021e-03  -5.11407052e+01
                       1.16702224e-03  -5.23588762e+01 1.34131620e-01  -1.44855031e+01 1.40790014e-03  -5.11407016e+01 3.25007842e-02  -3.93018182e+01
0.3200000000           1.53016592e-02  -3.74430423e+01 1.45002771e-03  -5.88399421e+01 1.36798339e-01  -8.76901126e+01 1.19941898e-03  -6.06344814e+01
