# GHz S MA R 50
! S-Parameters data
! Freq  magS11  angS11  magS12  angS12  magS13  angS13  magS14  angS14
!       magS21  angS21  magS22  angS22  magS23  angS23  magS24  angS24
!       magS31  angS31  magS32  angS32  magS33  angS33  magS34  angS34
!       magS41  angS41  magS42  angS42  magS43  angS43  magS44  angS44
!     
0.0000000000           1.26348518e-02  -6.06423428e+00 3.13164789e-05  -1.04036691e+02 1.36104981e-03  3.49144900e+01  4.18328775e-05  -1.04981909e+02
                       3.13056596e-05  -1.04041269e+02 1.26335831e-02  -3.50002205e+00 2.30998855e-05  -1.03546979e+02 1.37810493e-03  3.71316099e+01 
                       1.36426592e-03  3.48044363e+01  2.31051887e-05  -1.03541760e+02 1.26206991e-02  -6.04760827e+00 3.03878669e-05  -1.03895573e+02
                       4.18362695e-05  -1.04981311e+02 1.38261720e-03  3.69786375e+01  3.03575538e-05  -1.03899642e+02 1.26483755e-02  -3.54569310e+00
0.0100000000           2.08935089e-02  3.71206947e+01  1.58785326e-04  -1.10340837e+02 2.02973775e-02  7.44062779e+01  1.96276951e-04  -1.10496572e+02
                       1.58787111e-04  -1.10340928e+02 2.08160963e-02  4.01720137e+01  1.25186312e-04  -1.09901370e+02 2.04466574e-02  7.66347809e+01 
                       2.02971411e-02  7.43947129e+01  1.25186531e-04  -1.09901349e+02 2.08856158e-02  3.71591853e+01  1.56427645e-04  -1.09680795e+02
                       1.96276867e-04  -1.10496540e+02 2.04462746e-02  7.66186815e+01  1.56425763e-04  -1.09680699e+02 2.08093238e-02  4.01094010e+01 
0.0200000000           3.44799072e-02  3.84852187e+01  3.01967330e-04  -1.22101399e+02 3.96982051e-02  6.38311923e+01  3.72798587e-04  -1.21553825e+02
                       3.01931918e-04  -1.22096695e+02 3.42923771e-02  4.47066514e+01  2.38488163e-04  -1.21614349e+02 4.00787463e-02  6.81333996e+01 
                       3.96974678e-02  6.38255961e+01  2.38503559e-04  -1.21621284e+02 3.44757037e-02  3.85140122e+01  2.98474699e-04  -1.20863710e+02
                       3.72802779e-04  -1.21554099e+02 4.00775767e-02  6.81256251e+01  2.98386806e-04  -1.20864090e+02 3.42643988e-02  4.46628022e+01 
0.0300000000           4.76869921e-02  3.06101761e+01  4.29318158e-04  -1.34244371e+02 5.78232183e-02  5.25086007e+01  5.31586050e-04  -1.33129977e+02
                       4.29317182e-04  -1.34243882e+02 4.72920007e-02  3.99549178e+01  3.39696894e-04  -1.33654455e+02 5.84786161e-02  5.88505756e+01 
                       5.78221004e-02  5.25050500e+01  3.39698790e-04  -1.33655313e+02 4.76846379e-02  3.06435622e+01  4.26491787e-04  -1.32450171e+02
                       5.31586428e-04  -1.33130000e+02 5.84769205e-02  5.88457055e+01  4.26478852e-04  -1.32448881e+02 4.72492705e-02  3.99214645e+01 
0.0400000000           5.94178228e-02  2.02113697e+01  5.41350416e-04  -1.45967082e+02 7.43374916e-02  4.11652509e+01  6.73789522e-04  -1.44350196e+02
                       5.41361309e-04  -1.45969006e+02 5.86567023e-02  3.26815209e+01  4.29257270e-04  -1.45262461e+02 7.52900507e-02  4.95312089e+01 
                       7.43361113e-02  4.11627623e+01  4.29258678e-04  -1.45260816e+02 5.94156762e-02  2.02473988e+01  5.41872744e-04  -1.43656867e+02
                       6.73791305e-04  -1.44349898e+02 7.52879905e-02  4.95278329e+01  5.41875366e-04  -1.43658470e+02 5.86044899e-02  3.26531431e+01 
0.0500000000           6.94150341e-02  9.04673899e+00  6.38700914e-04  -1.57123255e+02 8.90183970e-02  2.99223617e+01  8.00947485e-04  -1.55081323e+02
                       6.38707178e-04  -1.57125762e+02 6.81388070e-02  2.46745320e+01  5.07810869e-04  -1.56310317e+02 9.02736540e-02  4.03040424e+01 
                       8.90168428e-02  2.99205267e+01  5.07816291e-04  -1.56308265e+02 6.94118395e-02  9.08715237e+00  6.45722270e-04  -1.54387204e+02
                       8.00951592e-04  -1.55081126e+02 9.02713865e-02  4.03015730e+01  6.45719165e-04  -1.54389055e+02 6.80820216e-02  2.46487356e+01 
0.0600000000           7.76866166e-02  -2.29063531e+00 7.22864176e-04  -1.67630964e+02 1.01712386e-01  1.87935324e+01  9.15328498e-04  -1.65280289e+02
                       7.22860784e-04  -1.67633015e+02 7.57869861e-02  1.65235670e+01  5.76652199e-04  -1.66734007e+02 1.03261203e-01  3.11874448e+01 
                       1.01710752e-01  1.87921321e+01  5.76660529e-04  -1.66732296e+02 7.76819058e-02  -2.24474372e+00 7.39753642e-04  -1.64603657e+02
                       9.15331754e-04  -1.65280307e+02 1.03258836e-01  3.11855779e+01  7.39746959e-04  -1.64604793e+02 7.57304900e-02  1.64991285e+01 
0.0700000000           8.43298069e-02  -1.35867883e+01 7.96383624e-04  -1.77436833e+02 1.12303008e-01  7.76365956e+00  1.02004093e-03  -1.74939751e+02
                       7.96372561e-04  -1.77438026e+02 8.17504421e-02  8.42835769e+00  6.37830369e-04  -1.76499981e+02 1.14123156e-01  2.21703723e+01 
                       1.12301359e-01  7.76256246e+00  6.37839521e-04  -1.76498763e+02 8.43235231e-02  -1.35346556e+01 8.26386858e-04  -1.74302813e+02
                       1.02004021e-03  -1.74939845e+02 1.14120782e-01  2.21689262e+01  8.26381329e-04  -1.74303256e+02 8.16991459e-02  8.40459454e+00 
0.0800000000           8.94533470e-02  -2.47720325e+01 8.62868594e-04  1.73481366e+02  1.20695212e-01  -3.18850107e+00 1.11896184e-03  1.75918405e+02 
                       8.62855616e-04  1.73480946e+02  8.61905359e-02  4.38623814e-01  6.94121826e-04  1.74393845e+02  1.22753340e-01  1.32355471e+01 
                       1.20693580e-01  -3.18937652e+00 6.94130056e-04  1.74394630e+02  8.94457280e-02  -2.47130730e+01 9.08644122e-04  1.76489304e+02 
                       1.11895778e-03  1.75918399e+02  1.22751040e-01  1.32344017e+01  9.08641611e-04  1.76489303e+02  8.61494176e-02  4.15057999e-01 
0.0900000000           9.31458857e-02  -3.58340776e+01 9.26961439e-04  1.65098477e+02  1.26811081e-01  -1.40829051e+01 1.21662873e-03  1.67239518e+02 
                       9.26952985e-04  1.65098349e+02  8.92423336e-02  -7.45687514e+00 7.48972535e-04  1.65906497e+02  1.29065022e-01  4.36709481e+00 
                       1.26809523e-01  -1.40836210e+01 7.48978971e-04  1.65906966e+02  9.31374811e-02  -3.57678020e+01 9.90035872e-04  1.67715564e+02 
                       1.21662637e-03  1.67239630e+02  1.29062823e-01  4.36617504e+00  9.90035131e-04  1.67715828e+02  8.92163354e-02  -7.48065371e+00
0.1000000000           9.54678827e-02  -4.67822898e+01 9.94164953e-04  1.57319240e+02  1.30591144e-01  -2.49362268e+01 1.31805308e-03  1.58930123e+02 
                       9.94163875e-04  1.57318655e+02  9.10023724e-02  -1.52930618e+01 8.06357710e-04  1.57938408e+02  1.32992246e-01  -4.44726049e+00
                       1.30589654e-01  -2.49368162e+01 8.06362091e-04  1.57938667e+02  9.54595063e-02  -4.67082857e+01 1.07440438e-03  1.59283835e+02 
                       1.31805887e-03  1.58930177e+02  1.32990212e-01  -4.44801699e+00 1.07440278e-03  1.59284331e+02  9.09963928e-02  -1.53174817e+01
0.1100000000           9.64502056e-02  -5.76329825e+01 1.07068357e-03  1.49952073e+02  1.31996463e-01  -3.57616651e+01 1.42855557e-03  1.50855061e+02 
                       1.07068113e-03  1.49951568e+02  9.15842440e-02  -2.31137513e+01 8.70637352e-04  1.50316528e+02  1.34494030e-01  -1.32156070e+01
                       1.31995080e-01  -3.57621646e+01 8.70642752e-04  1.50316716e+02  9.64430180e-02  -5.75509501e+01 1.16583598e-03  1.51062804e+02 
                       1.42856184e-03  1.50855073e+02  1.34492134e-01  -1.32162353e+01 1.16583495e-03  1.51063252e+02  9.16034919e-02  -2.31393501e+01
0.1200000000           9.61112869e-02  -6.84005025e+01 1.16177233e-03  1.42745926e+02  1.31012896e-01  -4.65686033e+01 1.55276346e-03  1.42846707e+02 
                       1.16176889e-03  1.42745508e+02  9.09413882e-02  -3.09592904e+01 9.45600786e-04  1.42822024e+02  1.33552384e-01  -2.19413144e+01
                       1.31011598e-01  -4.65690256e+01 9.45606717e-04  1.42822139e+02  9.61064956e-02  -6.83100678e+01 1.26777051e-03  1.42902070e+02 
                       1.55277003e-03  1.42846682e+02  1.33550657e-01  -2.19418527e+01 1.26777029e-03  1.42902469e+02  9.09902718e-02  -3.09866449e+01
0.1300000000           9.44497269e-02  -7.90965062e+01 1.27199077e-03  1.35408003e+02  1.27652341e-01  -5.73626629e+01 1.69463130e-03  1.34726521e+02 
                       1.27198661e-03  1.35407670e+02  8.90808158e-02  -3.88675149e+01 1.03452947e-03  1.35203056e+02  1.30180084e-01  -3.06227652e+01
                       1.27651145e-01  -5.73630281e+01 1.03453593e-03  1.35203101e+02  9.44488487e-02  -7.89972780e+01 1.38326106e-03  1.34636204e+02 
                       1.69463794e-03  1.34726463e+02  1.30178512e-01  -3.06232303e+01 1.38326141e-03  1.34636556e+02  8.91634439e-02  -3.88973006e+01
0.1400000000           9.14568532e-02  -8.97255508e+01 1.40412198e-03  1.27664637e+02  1.21956706e-01  -6.81444850e+01 1.85677357e-03  1.26326570e+02 
                       1.40411774e-03  1.27664381e+02  8.59938896e-02  -4.68719782e+01 1.13950807e-03  1.27223170e+02  1.24421072e-01  -3.92508278e+01
                       1.21955625e-01  -6.81448105e+01 1.13951480e-03  1.27223150e+02  9.14615792e-02  -8.96170694e+01 1.51435707e-03  1.26108776e+02 
                       1.85678063e-03  1.26326486e+02  1.24419639e-01  -3.92512311e+01 1.51435775e-03  1.26109085e+02  8.61138942e-02  -4.69049399e+01
0.1500000000           8.71240043e-02  -1.00281778e+02 1.55879541e-03  1.19311377e+02  1.14001214e-01  -7.89075376e+01 2.04010715e-03  1.17511662e+02 
                       1.55879074e-03  1.19311183e+02  8.16665756e-02  -5.50012978e+01 1.26113597e-03  1.18700114e+02  1.16353348e-01  -4.78046530e+01
                       1.14000231e-01  -7.89078275e+01 1.26114305e-03  1.18700043e+02  8.71361348e-02  -1.00163511e+02 1.66182305e-03  1.17191958e+02 
                       2.04011357e-03  1.17511558e+02  1.16352061e-01  -4.78050120e+01 1.66182347e-03  1.17192230e+02  8.18270214e-02  -5.50382739e+01
0.1600000000           8.14507681e-02  -1.10743754e+02 1.73447783e-03  1.10235204e+02  1.03898434e-01  -8.96339016e+01 2.24368200e-03  1.08192577e+02 
                       1.73447341e-03  1.10235057e+02  7.60904512e-02  -6.32796954e+01 1.39845906e-03  1.09525318e+02  1.06093253e-01  -5.62438294e+01
                       1.03897547e-01  -8.96341635e+01 1.39846601e-03  1.09525208e+02  8.14722286e-02  -1.10615076e+02 1.82498603e-03  1.07798914e+02 
                       2.24368816e-03  1.08192462e+02  1.06092103e-01  -5.62441537e+01 1.82498640e-03  1.07799155e+02  7.62937366e-02  -6.33216709e+01
0.1700000000           7.44540540e-02  -1.21065180e+02 1.92771493e-03  1.00408319e+02  9.18026590e-02  -1.00285732e+02 2.46469309e-03  9.83286561e+01 
                       1.92771089e-03  1.00408204e+02  6.92731667e-02  -7.17288624e+01 1.54906464e-03  9.96623558e+01  9.38001337e-02  -6.44919633e+01
                       9.18018557e-02  -1.00285962e+02 1.54907102e-03  9.96622205e+01  7.44867484e-02  -1.20925285e+02 2.00171033e-03  9.78872181e+01 
                       2.46469903e-03  9.83285358e+01  9.37991226e-02  -6.44922703e+01 2.00171101e-03  9.78874362e+01  6.95208512e-02  -7.17769812e+01
0.1800000000           6.61778284e-02  -1.31156377e+02 2.13347105e-03  8.98666239e+01  7.79138597e-02  -1.10785781e+02 2.69862718e-03  8.79224023e+01 
                       2.13346759e-03  8.98665322e+01  6.12482484e-02  -8.03722169e+01 1.70927302e-03  8.91325840e+01  7.96829628e-02  -7.23993819e+01
                       7.79131457e-02  -1.10785990e+02 1.70927903e-03  8.91324313e+01  6.62236016e-02  -1.31004249e+02 2.18848586e-03  8.74552043e+01 
                       2.69863264e-03  8.79222798e+01  7.96820712e-02  -7.23996698e+01 2.18848634e-03  8.74554031e+01  6.15409703e-02  -8.04279019e+01
0.1900000000           5.67042501e-02  -1.40843425e+02 2.34550068e-03  7.86864571e+01  6.24817711e-02  -1.20965916e+02 2.93952715e-03  7.70104246e+01 
                       2.34549775e-03  7.86863811e+01  5.20833494e-02  -8.92450906e+01 1.87438384e-03  7.79975408e+01  6.40115137e-02  -7.96440937e+01
                       6.24811424e-02  -1.20966106e+02 1.87438940e-03  7.79973786e+01  5.67648191e-02  -1.40677774e+02 2.38061602e-03  7.65346576e+01 
                       2.93953219e-03  7.70103033e+01  6.40107337e-02  -7.96443654e+01 2.38061636e-03  7.65348412e+01  5.24207048e-02  -8.93101142e+01
0.2000000000           4.61685187e-02  -1.49763143e+02 2.55673739e-03  6.69665191e+01  4.58129755e-02  -1.30395109e+02 3.18036252e-03  6.56541224e+01 
                       2.55673581e-03  6.69664554e+01  4.18859142e-02  -9.84217756e+01 2.03897119e-03  6.63439588e+01  4.71462369e-02  -8.54073937e+01
                       4.58124347e-02  -1.30395316e+02 2.03897649e-03  6.63437906e+01  4.62454553e-02  -1.49582617e+02 2.57250902e-03  6.51827568e+01 
                       3.18036772e-03  6.56540032e+01  4.71455545e-02  -8.54076016e+01 2.57250851e-03  6.51829274e+01  4.22663693e-02  -9.84982365e+01
0.2100000000           3.47894315e-02  -1.57036794e+02 2.75972766e-03  5.48163072e+01  2.83045334e-02  -1.37550944e+02 3.41350211e-03  5.39318485e+01 
                       2.75972605e-03  5.48162471e+01  3.08062759e-02  -1.08105072e+02 2.19723847e-03  5.42731627e+01  2.96752546e-02  -8.68925266e+01
                       2.83040638e-02  -1.37551049e+02 2.19724295e-03  5.42729963e+01  3.48843040e-02  -1.56841986e+02 2.75806214e-03  5.34748973e+01 
                       3.41350637e-03  5.39317343e+01  2.96746684e-02  -8.68926831e+01 2.75806202e-03  5.34750595e+01  3.12271898e-02  -1.08193849e+02
0.2200000000           2.29851928e-02  -1.59929352e+02 2.94711072e-03  4.23495014e+01  1.08574706e-02  -1.30926980e+02 3.63126823e-03  4.19328319e+01 
                       2.94710974e-03  4.23494454e+01  1.90421024e-02  -1.19059524e+02 2.34342623e-03  4.18942288e+01  1.36671658e-02  -6.76691334e+01
                       1.08570900e-02  -1.30926503e+02 2.34343054e-03  4.18940644e+01  2.30993605e-02  -1.59739076e+02 2.93113409e-03  4.14987823e+01 
                       3.63127197e-03  4.19327227e+01  1.36667273e-02  -6.76683283e+01 2.93113310e-03  4.14989366e+01  1.94996924e-02  -1.19142968e+02
0.2300000000           1.21810494e-02  -1.45789389e+02 3.11215165e-03  2.96805488e+01  1.02923049e-02  -2.04372371e+01 3.82656002e-03  2.97526769e+01 
                       3.11215111e-03  2.96804938e+01  6.91262374e-03  -1.37675781e+02 2.47226818e-03  2.93197517e+01  1.43260759e-02  8.93470248e+00 
                       1.02925532e-02  -2.04361773e+01 2.47227149e-03  2.93195921e+01  1.23047477e-02  -1.45826174e+02 3.08606301e-03  2.93497350e+01 
                       3.82656362e-03  2.97525735e+01  1.43262041e-02  8.93615670e+00  3.08606252e-03  2.93498833e+01  7.39693118e-03  -1.37213198e+02
0.2400000000           1.05821261e-02  -8.53910908e+01 3.24924121e-03  1.69229363e+01  2.76769397e-02  -1.23359244e+01 3.99343896e-03  1.74899649e+01 
                       3.24924130e-03  1.69228820e+01  6.12682518e-03  6.55502517e+01  2.57942223e-03  1.66631452e+01  3.06710177e-02  2.59489415e+01 
                       2.76771806e-02  -1.23358269e+01 2.57942498e-03  1.66629914e+01  1.05804950e-02  -8.60116333e+01 3.21817589e-03  1.71269222e+01 
                       3.99344217e-03  1.74898670e+01  3.06712380e-02  2.59493120e+01  3.21817526e-03  1.71270657e+01  5.66546080e-03  6.76720581e+01 
0.2500000000           2.08307279e-02  -6.26143134e+01 3.35434998e-03  4.18833432e+00  4.51962211e-02  -1.93198229e+01 4.12765416e-03  5.24359097e+00 
                       3.35435045e-03  4.18827917e+00  1.84713227e-02  4.50529376e+01  2.66185004e-03  4.03676587e+00  4.83486575e-02  2.41242597e+01 
                       4.51964084e-02  -1.93198368e+01 2.66185228e-03  4.03661823e+00  2.07395446e-02  -6.27998504e+01 3.32422128e-03  4.93017997e+00 
                       4.12765710e-03  5.24349854e+00  4.83488406e-02  2.41243912e+01  3.32422055e-03  4.93031933e+00  1.79575839e-02  4.53966937e+01 
0.2600000000           3.31654022e-02  -6.35127382e+01 3.42534302e-03  -8.41370819e+00 6.18913095e-02  -2.86749393e+01 4.22700562e-03  -6.88929140e+00
                       3.42534389e-03  -8.41376449e+00 3.07132846e-02  3.38239888e+01  2.71807950e-03  -8.44939811e+00 6.54623726e-02  1.82943250e+01 
                       6.18914421e-02  -2.86749854e+01 2.71808128e-03  -8.44953909e+00 3.30440883e-02  -6.35412139e+01 3.40267590e-03  -7.14263108e+00
                       4.22700832e-03  -6.88937873e+00 6.54625051e-02  1.82943710e+01  3.40267511e-03  -7.14249542e+00 3.01878555e-02  3.39751736e+01 
0.2700000000           4.54743867e-02  -6.99544345e+01 3.46215926e-03  -2.07756364e+01 7.73642768e-02  -3.87941681e+01 4.29153889e-03  -1.88148315e+01
                       3.46216036e-03  -2.07756948e+01 4.24903113e-02  2.39109332e+01  2.74833246e-03  -2.06886065e+01 8.14226763e-02  1.10707812e+01 
                       7.73643583e-02  -3.87942268e+01 2.74833383e-03  -2.06887403e+01 4.53367297e-02  -6.99161584e+01 3.45388811e-03  -1.89978318e+01
                       4.29154128e-03  -1.88149129e+01 8.14227553e-02  1.10707862e+01  3.45388728e-03  -1.89976987e+01 4.19652677e-02  2.39939780e+01 
0.2800000000           5.72023518e-02  -7.82939090e+01 3.46685916e-03  -3.27916229e+01 9.13126212e-02  -4.92293097e+01 4.32357709e-03  -3.04438408e+01
                       3.46686052e-03  -3.27916841e+01 5.35732705e-02  1.44506305e+01  2.75452744e-03  -3.25781188e+01 9.58536102e-02  3.23827546e+00 
                       9.13126549e-02  -4.92293734e+01 2.75452847e-03  -3.25782454e+01 5.70542967e-02  -7.82183285e+01 3.48007028e-03  -3.05479425e+01
                       4.32357932e-03  -3.04439172e+01 9.58536398e-02  3.23825781e+00  3.48006946e-03  -3.05478116e+01 5.30591447e-02  1.44979335e+01 
0.2900000000           6.80414779e-02  -8.74433185e+01 3.44357996e-03  -4.43575130e+01 1.03493132e-01  -5.98067073e+01 4.32762679e-03  -4.16932283e+01
                       3.44358213e-03  -4.43575779e+01 6.37671072e-02  5.21107161e+00  2.74019721e-03  -4.40201626e+01 1.08470962e-01  -4.88638554e+00
                       1.03493132e-01  -5.98067688e+01 2.74019793e-03  -4.40202807e+01 6.78870487e-02  -8.73428075e+01 3.48518315e-03  -4.17137853e+01
                       4.32762972e-03  -4.16932997e+01 1.08470937e-01  -4.88642057e+00 3.48518225e-03  -4.17136558e+01 6.32742425e-02  5.23515219e+00 
0.3000000000           7.77688436e-02  -9.69730453e+01 3.39846317e-03  -5.53720516e+01 1.13713908e-01  -7.04471373e+01 4.31022436e-03  -5.24882676e+01
                       3.39846464e-03  -5.53721174e+01 7.29037076e-02  -3.89994108e+00 2.71035975e-03  -5.49240448e+01 1.19056550e-01  -1.31505080e+01
                       1.13713858e-01  -7.04472029e+01 2.71036033e-03  -5.49241563e+01 7.76114536e-02  -9.68536748e+01 3.47474409e-03  -5.24272869e+01
                       4.31022640e-03  -5.24883352e+01 1.19056493e-01  -1.31505482e+01 3.47474329e-03  -5.24271610e+01 7.24423429e-02  -3.89330368e+00
0.3100000000           8.62107815e-02  -1.06682649e+02 3.33958640e-03  -6.57411668e+01 1.21829043e-01  -8.11122048e+01 4.27975310e-03  -6.27667302e+01
                       3.33958847e-03  -6.57412388e+01 8.08384200e-02  -1.29316090e+01 2.67139015e-03  -6.52109307e+01 1.27448377e-01  -2.14716679e+01
                       1.21828982e-01  -8.11122667e+01 2.67139113e-03  -6.52110334e+01 8.60536613e-02  -1.06547660e+02 3.45561818e-03  -6.26358611e+01
                       4.27975592e-03  -6.27667927e+01 1.27448259e-01  -2.14717174e+01 3.45561676e-03  -6.26357352e+01 8.04185778e-02  -1.29395148e+01
0.3200000000           9.32295263e-02  -1.16469262e+02 3.27691107e-03  -7.53880155e+01 1.27733129e-01  -9.17841962e+01 4.24625500e-03  -7.24861012e+01
