# GHz S MA R 50
! S-Parameters data
! Freq  magS11  angS11  magS12  angS12  magS13  angS13  magS14  angS14
!       magS21  angS21  magS22  angS22  magS23  angS23  magS24  angS24
!       magS31  angS31  magS32  angS32  magS33  angS33  magS34  angS34
!       magS41  angS41  magS42  angS42  magS43  angS43  magS44  angS44
!     
0.0000000000           1.26390397e-02  -5.95399052e+00 9.78829084e-01  -3.27996582e+00 1.37283649e-03  3.52876431e+01  1.37956226e-03  -1.67220336e+02
                       9.78829291e-01  -3.27996552e+00 1.26335831e-02  -3.50002205e+00 1.37326986e-03  -1.67144077e+02 1.37810493e-03  3.71316099e+01 
                       1.37602524e-03  3.51771906e+01  1.36631227e-03  -1.67059466e+02 1.26220691e-02  -6.00310570e+00 9.78833200e-01  -3.27958314e+00
                       1.37442596e-03  -1.67158506e+02 1.38261720e-03  3.69786375e+01  9.78832997e-01  -3.27958340e+00 1.26483755e-02  -3.54569310e+00
0.0100000000           2.09367788e-02  3.71898431e+01  9.77723913e-01  -1.11078225e+01 2.03351937e-02  7.43913232e+01  2.57332922e-03  -1.42951889e+02
                       9.77724115e-01  -1.11078244e+01 2.08160963e-02  4.01720137e+01  2.56928805e-03  -1.42835728e+02 2.04466574e-02  7.66347809e+01 
                       2.03349581e-02  7.43797788e+01  2.56522492e-03  -1.42703491e+02 2.09122822e-02  3.72022908e+01  9.77728476e-01  -1.11062267e+01
                       2.57024441e-03  -1.42855666e+02 2.04462746e-02  7.66186815e+01  9.77728278e-01  -1.11062246e+01 2.08093238e-02  4.01094010e+01 
0.0200000000           3.45694612e-02  3.85311378e+01  9.71303354e-01  -2.18881039e+01 3.97691726e-02  6.38105193e+01  4.42335124e-03  -1.49844374e+02
                       9.71303339e-01  -2.18881074e+01 3.42923771e-02  4.47066514e+01  4.42002024e-03  -1.49768993e+02 4.00787463e-02  6.81333996e+01 
                       3.97684087e-02  6.38049237e+01  4.41723289e-03  -1.49685917e+02 3.45336742e-02  3.85424686e+01  9.71309730e-01  -2.18849994e+01
                       4.42112469e-03  -1.49783800e+02 4.00775767e-02  6.81256251e+01  9.71309547e-01  -2.18849956e+01 3.42643988e-02  4.46628022e+01 
0.0300000000           4.78155734e-02  3.06420796e+01  9.64330058e-01  -3.25404833e+01 5.79215167e-02  5.24817836e+01  6.13378230e-03  -1.64878823e+02
                       9.64330230e-01  -3.25404878e+01 4.72920007e-02  3.99549178e+01  6.13025862e-03  -1.64822905e+02 5.84786161e-02  5.88505756e+01 
                       5.79203862e-02  5.24782419e+01  6.12781737e-03  -1.64764598e+02 4.77686140e-02  3.06532116e+01  9.64338435e-01  -3.25359368e+01
                       6.13174109e-03  -1.64836345e+02 5.84769205e-02  5.88457055e+01  9.64338475e-01  -3.25359318e+01 4.72492705e-02  3.99214645e+01 
0.0400000000           5.95764956e-02  2.02346113e+01  9.57083139e-01  -4.30763616e+01 7.44566054e-02  4.11326016e+01  7.59158900e-03  1.78137138e+02 
                       9.57083293e-01  -4.30763670e+01 5.86567023e-02  3.26815209e+01  7.58760543e-03  1.78183461e+02  7.52900507e-02  4.95312089e+01 
                       7.44552242e-02  4.11301187e+01  7.58524755e-03  1.78228079e+02  5.95209152e-02  2.02464400e+01  9.57093305e-01  -4.30704185e+01
                       7.58955036e-03  1.78169603e+02  7.52879905e-02  4.95278329e+01  9.57093164e-01  -4.30704133e+01 5.86044899e-02  3.26531431e+01 
0.0500000000           6.95950985e-02  9.06295907e+00  9.49961149e-01  -5.35088877e+01 8.91512165e-02  2.98840605e+01  8.77514664e-03  1.60656256e+02 
                       9.49961087e-01  -5.35088932e+01 6.81388070e-02  2.46745320e+01  8.77059160e-03  1.60697722e+02  9.02736540e-02  4.03040424e+01 
                       8.91496648e-02  2.98822270e+01  8.76822447e-03  1.60733739e+02  6.95337429e-02  9.07658900e+00  9.49972475e-01  -5.35015769e+01
                       8.77305611e-03  1.60682405e+02  9.02713865e-02  4.03015730e+01  9.49972351e-01  -5.35015716e+01 6.80820216e-02  2.46487356e+01 
0.0600000000           7.78789007e-02  -2.28159901e+00 9.43264891e-01  -6.38550472e+01 1.01851339e-01  1.87496700e+01  9.69312590e-03  1.43123832e+02 
                       9.43265014e-01  -6.38550523e+01 7.57869861e-02  1.65235670e+01  9.68796318e-03  1.43163042e+02  1.03261203e-01  3.11874448e+01 
                       1.01849708e-01  1.87482690e+01  9.68554535e-03  1.43193139e+02  7.78151491e-02  -2.26500138e+00 9.43276799e-01  -6.38463860e+01
                       9.69097103e-03  1.43145611e+02  1.03258836e-01  3.11855779e+01  9.43276887e-01  -6.38463813e+01 7.57304900e-02  1.64991285e+01 
0.0700000000           8.45247317e-02  -1.35858795e+01 9.37176306e-01  -7.41324406e+01 1.12440235e-01  7.71424287e+00  1.03638502e-02  1.25668801e+02 
                       9.37176419e-01  -7.41324454e+01 8.17504421e-02  8.42835769e+00  1.03580729e-02  1.25707310e+02  1.14123156e-01  2.21703723e+01 
                       1.12438588e-01  7.71314507e+00  1.03555886e-02  1.25733074e+02  8.44624462e-02  -1.35652021e+01 9.37188251e-01  -7.41224374e+01
                       1.03616255e-02  1.25687331e+02  1.14120782e-01  2.21689262e+01  9.37188346e-01  -7.41224332e+01 8.16991459e-02  8.40459454e+00 
0.0800000000           8.96409561e-02  -2.47805957e+01 9.31787146e-01  -8.43572516e+01 1.20822651e-01  -3.24355214e+00 1.08058210e-02  1.08303241e+02 
                       9.31787057e-01  -8.43572559e+01 8.61905359e-02  4.38623814e-01  1.07994415e-02  1.08342067e+02  1.22753340e-01  1.32355471e+01 
                       1.20821021e-01  -3.24442826e+00 1.07968824e-02  1.08364499e+02  8.95843951e-02  -2.47547941e+01 9.31798784e-01  -8.43459053e+01
                       1.08035265e-02  1.08319236e+02  1.22751040e-01  1.32344017e+01  9.31798882e-01  -8.43459018e+01 8.61494176e-02  4.15057999e-01 
0.0900000000           9.33160317e-02  -3.58537154e+01 9.27131663e-01  -9.45436213e+01 1.26920597e-01  -1.41437757e+01 1.10341951e-02  9.09947196e+01 
                       9.27131765e-01  -9.45436249e+01 8.92423336e-02  -7.45687514e+00 1.10272383e-02  9.10345291e+01  1.29065022e-01  4.36709481e+00 
                       1.26919039e-01  -1.41444921e+01 1.10245973e-02  9.10543057e+01  9.32696564e-02  -3.58217863e+01 9.27142385e-01  -9.45309219e+01
                       1.10318357e-02  9.10086469e+01  1.29062823e-01  4.36617504e+00  9.27142483e-01  -9.45309191e+01 8.92163354e-02  -7.48065371e+00
0.1000000000           9.56102116e-02  -4.68148168e+01 9.23209198e-01  -1.04703843e+02 1.30674548e-01  -2.50032068e+01 1.10603068e-02  7.36942607e+01 
                       9.23209105e-01  -1.04703846e+02 9.10023724e-02  -1.52930618e+01 1.10528039e-02  7.37354956e+01  1.32992246e-01  -4.44726049e+00
                       1.30673058e-01  -2.50037971e+01 1.10500810e-02  7.37530791e+01  9.55787209e-02  -4.67757878e+01 9.23218516e-01  -1.04689771e+02
                       1.10578837e-02  7.37064373e+01  1.32990212e-01  -4.44801699e+00 9.23218612e-01  -1.04689769e+02 9.09963928e-02  -1.53174817e+01
0.1100000000           9.65513855e-02  -5.76802302e+01 9.19983673e-01  -1.14848891e+02 1.32045374e-01  -3.58351505e+01 1.08938814e-02  5.63491546e+01 
                       9.19983581e-01  -1.14848893e+02 9.15842440e-02  -2.31137513e+01 1.08860302e-02  5.63919269e+01  1.34494030e-01  -1.32156070e+01
                       1.32043991e-01  -3.58356511e+01 1.08832367e-02  5.64076678e+01  9.65410267e-02  -5.76331895e+01 9.19991427e-01  -1.14833418e+02
                       1.08914096e-02  5.63598193e+01  1.34492134e-01  -1.32162353e+01 9.19991326e-01  -1.14833416e+02 9.16034919e-02  -2.31393501e+01
0.1200000000           9.61622932e-02  -6.84641008e+01 9.17425978e-01  -1.24988146e+02 1.31019304e-01  -4.66490643e+01 1.05395453e-02  3.88951228e+01 
                       9.17425889e-01  -1.24988148e+02 9.09413882e-02  -3.09592904e+01 1.05313434e-02  3.89394332e+01  1.33552384e-01  -2.19413144e+01
                       1.31018006e-01  -4.66494877e+01 1.05284856e-02  3.89535540e+01  9.61770317e-02  -6.84084082e+01 9.17431558e-01  -1.24971238e+02
                       1.05370394e-02  3.89043977e+01  1.33550657e-01  -2.19418527e+01 9.17431645e-01  -1.24971237e+02 9.09902718e-02  -3.09866449e+01
0.1300000000           9.44415886e-02  -7.91788245e+01 9.15474179e-01  -1.35130363e+02 1.27608522e-01  -5.74506743e+01 1.00031640e-02  2.12606192e+01 
                       9.15474094e-01  -1.35130365e+02 8.90808158e-02  -3.88675149e+01 9.99462600e-03  2.13064440e+01  1.30180084e-01  -3.06227652e+01
                       1.27607325e-01  -5.74510406e+01 9.99171759e-03  2.13190772e+01  9.44853145e-02  -7.91135532e+01 9.15477835e-01  -1.35111981e+02
                       1.00006376e-02  2.12685486e+01  1.30178512e-01  -3.06232303e+01 9.15477916e-01  -1.35111980e+02 8.91634439e-02  -3.88973006e+01
0.1400000000           9.13806398e-02  -8.98295870e+01 9.14049592e-01  -1.45283281e+02 1.21855338e-01  -6.82407098e+01 9.29113793e-03  3.35500909e+00 
                       9.14049705e-01  -1.45283282e+02 8.59938896e-02  -4.68719782e+01 9.28230204e-03  3.40219913e+00  1.24421072e-01  -3.92508278e+01
                       1.21854256e-01  -6.82410370e+01 9.27935652e-03  3.41337847e+00  9.14570273e-02  -8.97535227e+01 9.14051353e-01  -1.45263383e+02
                       9.28860822e-03  3.36156104e+00  1.24419639e-01  -3.92512311e+01 9.14051428e-01  -1.45263383e+02 8.61138942e-02  -4.69049399e+01
0.1500000000           8.69709652e-02  -1.00411147e+02 9.13055073e-01  -1.55453446e+02 1.13835607e-01  -7.90126767e+01 8.41173319e-03  -1.49503741e+01
                       9.13054999e-01  -1.55453446e+02 8.16665756e-02  -5.50012978e+01 8.40265950e-03  -1.49022643e+01 1.16353348e-01  -4.78046530e+01
                       1.13834623e-01  -7.90129679e+01 8.39969803e-03  -1.48926373e+01 8.70834367e-02  -1.00322780e+02 9.13055013e-01  -1.55431990e+02
                       8.40921811e-03  -1.49453751e+01 1.16352061e-01  -4.78050120e+01 9.13054889e-01  -1.55431990e+02 8.18270214e-02  -5.50382739e+01
0.1600000000           8.12126751e-02  -1.10902735e+02 9.12376980e-01  -1.65645981e+02 1.03662869e-01  -8.97486232e+01 7.37671352e-03  -3.38629848e+01
                       9.12376912e-01  -1.65645981e+02 7.60904512e-02  -6.32796954e+01 7.36748708e-03  -3.38149380e+01 1.06093253e-01  -5.62438294e+01
                       1.03661981e-01  -8.97488860e+01 7.36453055e-03  -3.38071876e+01 8.13642873e-02  -1.10800222e+02 9.12375658e-01  -1.65622926e+02
                       7.37424024e-03  -3.38599315e+01 1.06092103e-01  -5.62441537e+01 9.12375529e-01  -1.65622926e+02 7.62937366e-02  -6.33216709e+01
0.1700000000           7.41234823e-02  -1.21258795e+02 9.11888604e-01  -1.75864303e+02 9.14926951e-02  -1.00410492e+02 6.20373269e-03  -5.37646776e+01
                       9.11888540e-01  -1.75864303e+02 6.92731667e-02  -7.17288624e+01 6.19446906e-03  -5.37189678e+01 9.38001337e-02  -6.44919633e+01
                       9.14918904e-02  -1.00410722e+02 6.19154780e-03  -5.37138839e+01 7.43167817e-02  -1.21139835e+02 9.11886369e-01  -1.75839609e+02
                       6.20133601e-03  -5.37644109e+01 9.37991226e-02  -6.44922703e+01 9.11886428e-01  -1.75839610e+02 6.95208512e-02  -7.17769812e+01
0.1800000000           6.57485516e-02  -1.31390389e+02 9.11454504e-01  1.73890140e+02  7.75268294e-02  -1.10920310e+02 4.92128491e-03  -7.54710031e+01
                       9.11454446e-01  1.73890141e+02  6.12482484e-02  -8.03722169e+01 4.91215284e-03  -7.54332954e+01 7.96829628e-02  -7.23993819e+01
                       7.75261139e-02  -1.10920521e+02 4.90931720e-03  -7.54328500e+01 6.59855574e-02  -1.31252196e+02 9.11452275e-01  1.73916502e+02 
                       4.91901864e-03  -7.54754412e+01 7.96820712e-02  -7.23996698e+01 9.11452330e-01  1.73916502e+02  6.15409703e-02  -8.04279019e+01
0.1900000000           5.61714977e-02  -1.41123747e+02 9.10937565e-01  1.63618048e+02  6.20171391e-02  -1.21107475e+02 3.58354274e-03  -1.01068039e+02
                       9.10937511e-01  1.63618048e+02  5.20833494e-02  -8.92450906e+01 3.57488692e-03  -1.01055080e+02 6.40115137e-02  -7.96440937e+01
                       6.20165090e-02  -1.21107667e+02 3.57225082e-03  -1.01064929e+02 5.64536658e-02  -1.40963209e+02 9.10936335e-01  1.63646097e+02 
                       3.58152400e-03  -1.01082255e+02 6.40107337e-02  -7.96443654e+01 9.10936386e-01  1.63646097e+02  5.24207048e-02  -8.93101142e+01
0.2000000000           4.55290438e-02  -1.50092189e+02 9.10208681e-01  1.53322336e+02  4.52729331e-02  -1.30530747e+02 2.33474872e-03  -1.37056559e+02
                       9.10208827e-01  1.53322336e+02  4.18859142e-02  -9.84217756e+01 2.32770959e-03  -1.37126486e+02 4.71462369e-02  -8.54073937e+01
                       4.52723908e-02  -1.30530957e+02 2.32565647e-03  -1.37165329e+02 4.58573940e-02  -1.49907466e+02 9.10209560e-01  1.53352078e+02 
                       2.33334293e-03  -1.37095502e+02 4.71455545e-02  -8.54076016e+01 9.10209413e-01  1.53352078e+02  4.22663693e-02  -9.84982365e+01
0.2100000000           3.40415714e-02  -1.57393553e+02 9.09156163e-01  1.43008055e+02  2.76958500e-02  -1.37603622e+02 1.70152188e-03  1.61489369e+02 
                       9.09156117e-01  1.43008055e+02  3.08062759e-02  -1.08105072e+02 1.70031031e-03  1.61272488e+02  2.96752546e-02  -8.68925266e+01
                       2.76953791e-02  -1.37603726e+02 1.70020643e-03  1.61189107e+02  3.44168735e-02  -1.57193392e+02 9.09159944e-01  1.43039478e+02 
                       1.70183112e-03  1.61421549e+02  2.96746684e-02  -8.68926831e+01 9.09159990e-01  1.43039478e+02  3.12271898e-02  -1.08193849e+02
0.2200000000           2.21329712e-02  -1.60130414e+02 9.07694241e-01  1.32682052e+02  1.02368827e-02  -1.29666163e+02 2.38029744e-03  1.00057475e+02 
                       9.07694201e-01  1.32682052e+02  1.90421024e-02  -1.19059524e+02 2.38496952e-03  9.99714842e+01  1.36671658e-02  -6.76691334e+01
                       1.02365037e-02  -1.29665597e+02 2.38671610e-03  9.99328991e+01  2.25540856e-02  -1.60001699e+02 9.07702352e-01  1.32715124e+02 
                       2.38197992e-03  1.00033144e+02  1.36667273e-02  -6.76683283e+01 9.07702203e-01  1.32715124e+02  1.94996924e-02  -1.19142968e+02
0.2300000000           1.13332579e-02  -1.44019437e+02 9.05773730e-01  1.22352459e+02  1.08853262e-02  -1.83394308e+01 3.71724468e-03  6.39593850e+01 
                       9.05773690e-01  1.22352459e+02  6.91262374e-03  -1.37675781e+02 3.72322733e-03  6.39667951e+01  1.43260759e-02  8.93470248e+00 
                       1.08855839e-02  -1.83384808e+01 3.72538941e-03  6.39559828e+01  1.17487176e-02  -1.44869378e+02 9.05786740e-01  1.22387130e+02 
                       3.71912632e-03  6.39563643e+01  1.43262041e-02  8.93615670e+00  9.05786782e-01  1.22387130e+02  7.39693118e-03  -1.37213198e+02
0.2400000000           1.07275988e-02  -8.02096048e+01 9.03384035e-01  1.12028052e+02  2.84088325e-02  -1.20521058e+01 5.18990759e-03  3.81248905e+01 
                       9.03383997e-01  1.12028052e+02  6.12682518e-03  6.55502517e+01  5.19578360e-03  3.81684802e+01  3.06710177e-02  2.59489415e+01 
                       2.84090749e-02  -1.20520172e+01 5.19796245e-03  3.81670020e+01  1.06547447e-02  -8.26903302e+01 9.03403163e-01  1.12064251e+02 
                       5.19171041e-03  3.81280160e+01  3.06712380e-02  2.59493120e+01  9.03403204e-01  1.12064251e+02  5.66546080e-03  6.76720581e+01 
0.2500000000           2.15189987e-02  -6.06160038e+01 9.00556959e-01  1.01717463e+02  4.59660992e-02  -1.92737392e+01 6.64462730e-03  1.60872878e+01 
                       9.00556923e-01  1.01717463e+02  1.84713227e-02  4.50529376e+01  6.64994077e-03  1.61488451e+01  4.83486575e-02  2.41242597e+01 
                       4.59662872e-02  -1.92737558e+01 6.65201915e-03  1.61511396e+01  2.11917987e-02  -6.15613674e+01 9.00582363e-01  1.01755105e+02 
                       6.64628180e-03  1.60925046e+01  4.83488406e-02  2.41243912e+01  9.00582403e-01  1.01755105e+02  1.79575839e-02  4.53966937e+01 
0.2600000000           3.40037867e-02  -6.25021647e+01 8.97361703e-01  9.14284294e+01  6.26751821e-02  -2.87120014e+01 8.01401481e-03  -4.21782616e+00
                       8.97361668e-01  9.14284292e+01  3.07132846e-02  3.38239888e+01  8.01854976e-03  -4.14495048e+00 6.54623726e-02  1.82943250e+01 
                       6.26753152e-02  -2.87120489e+01 8.02048219e-03  -4.14086320e+00 3.36066818e-02  -6.29755548e+01 8.97393663e-01  9.14674197e+01 
                       8.01549620e-03  -4.21180962e+00 6.54625051e-02  1.82943710e+01  8.97393701e-01  9.14674194e+01  3.01878555e-02  3.39751736e+01 
0.2700000000           4.63727816e-02  -6.93399371e+01 8.93898520e-01  8.11671694e+01  7.81439647e-02  -3.88736188e+01 9.25507677e-03  -2.35860518e+01
                       8.93898485e-01  8.11671691e+01  4.24903113e-02  2.39109332e+01  9.25870427e-03  -2.35047229e+01 8.14226763e-02  1.10707812e+01 
                       7.81440463e-02  -3.88736784e+01 9.26046458e-03  -2.34996821e+01 4.59474827e-02  -6.96215068e+01 8.93936795e-01  8.12074058e+01 
                       9.25637214e-03  -2.35797274e+01 8.14227553e-02  1.10707862e+01  8.93936832e-01  8.12074058e+01  4.19652677e-02  2.39939780e+01 
0.2800000000           5.81189605e-02  -7.78884038e+01 8.90289385e-01  7.09378615e+01  9.20715722e-02  -4.93351840e+01 1.03358831e-02  -4.23790357e+01
                       8.90289351e-01  7.09378613e+01  5.35732705e-02  1.44506305e+01  1.03385178e-02  -4.22906176e+01 9.58536102e-02  3.23827546e+00 
                       9.20716058e-02  -4.93352485e+01 1.03400901e-02  -4.22850245e+01 5.76847258e-02  -7.80669695e+01 8.90333118e-01  7.09792479e+01 
                       1.03369862e-02  -4.23726118e+01 9.58536398e-02  3.23825781e+00  8.90333155e-01  7.09792479e+01  5.30591447e-02  1.44979335e+01 
0.2900000000           6.89471364e-02  -8.71685560e+01 8.86666378e-01  6.07423935e+01  1.04215892e-01  -5.99313560e+01 1.12317961e-02  -6.07834765e+01
                       8.86666531e-01  6.07423932e+01  6.37671072e-02  5.21107161e+00  1.12333830e-02  -6.06886239e+01 1.08470962e-01  -4.88638554e+00
                       1.04215892e-01  -5.99314182e+01 1.12347589e-02  -6.06826766e+01 6.85176612e-02  -8.72812411e+01 8.86714602e-01  6.07848426e+01 
                       1.12327064e-02  -6.07770427e+01 1.08470937e-01  -4.88642057e+00 8.86714637e-01  6.07848425e+01  6.32742425e-02  5.23515219e+00 
0.3000000000           7.86393224e-02  -9.67900456e+01 8.83161793e-01  5.05803001e+01  1.14386129e-01  -7.05865196e+01 1.19239197e-02  -7.89067775e+01
                       8.83161760e-01  5.05802999e+01  7.29037076e-02  -3.89994108e+00 1.19244196e-02  -7.88057499e+01 1.19056550e-01  -1.31505080e+01
                       1.14386078e-01  -7.05865858e+01 1.19255954e-02  -7.87995622e+01 7.82263963e-02  -9.68553329e+01 8.83212707e-01  5.06237456e+01 
                       1.19246341e-02  -7.89003717e+01 1.19056493e-01  -1.31505482e+01 8.83212741e-01  5.06237454e+01  7.24423429e-02  -3.89330368e+00
0.3100000000           8.70245052e-02  -1.06569766e+02 8.79897360e-01  4.04488983e+01  1.22437452e-01  -8.12642089e+01 1.23980962e-02  -9.68172113e+01
                       8.79897511e-01  4.04488980e+01  8.08384200e-02  -1.29316090e+01 1.23974881e-02  -9.67100448e+01 1.27448377e-01  -2.14716679e+01
                       1.22437391e-01  -8.12642715e+01 1.23984630e-02  -9.67036605e+01 8.66391099e-02  -1.06597954e+02 8.79949752e-01  4.04933001e+01 
                       1.23986203e-02  -9.68108358e+01 1.27448259e-01  -2.14717174e+01 8.79949600e-01  4.04933000e+01  8.04185778e-02  -1.29395148e+01
0.3200000000           9.39667927e-02  -1.16413714e+02 8.76978588e-01  3.03435427e+01  1.28265461e-01  -9.19479177e+01 1.26440822e-02  -1.14562298e+02
