! TE Connectivity
! F14F15-G14G15_NEXT
!!
!! PART DESCRIPTION: Whisper 27in Megtron 6 HVLP-HVLP-HVLP Channel Model, bulkhead 2.92mm test points
!! 
!! MODEL DESCRIPTION: System 4-port S-parameter
!! MODEL STATUS: Measured
!! MODEL GEOMETRY: Channel Model
!! MODEL FREQUENCY RANGE: DC to 40 GHz in 10 MHz frequency steps
!! MODEL EDGE RATE LIMITATION: 12.5 ps (Using conservative 0.5/Fmax rule of thumb)
!! 
!! TIME-DOMAIN TRANSFORM CAUTIONS: 
!! 1.) Do not simulate transient edge rates faster than the number listed above.  Edge
!!     rates faster than this number contain significant spectral content at frequencies
!!     above the model's highest frequency.
!! 2.) Even when simulating edge rates that are slower than the number listed above, be
!!     aware that the best time resolution possible with a direct iFFT is (1 / 2Fmax).
!!     As a result, time resolution is typically not adequate for most time-domain
!!     simulations unless tricks such as frequency-domain zero-padding and windowing are
!!     used to minimize leakage and aliasing. 
!! 3.) Because the model has a uniform frequency step, a direct iFFT will result in an
!!     impulse that that has a time length given by either (1 / Fstep) or (1 / 2Fstep),
!!     depending on the transform being used.  Care has been taken in selecting the
!!     frequency step to ensure a settled impulse response for the model.  Therefore,
!!     convolution with the model's impulse response should present no issues.  However,
!!     if directly concatenating s-parameter models in the frequency domain a user must
!!     either interpolate necessary interim frequencies or complete impulse response 
!!     zero-padding.  Impulse response zero-padding is more difficult, but more accurate. 
!!    
!! 
!! PORT DEFINITIONS: 
!! Port   1  ----->  Side A     F14            G14     Side B  <-----  Port   2
!! Port   3  ----->  Side A     F15            G15     Side B  <-----  Port   4
!! 
!!!!!!!!!!!!!!!!!!!!!!!!!!!!!!!!!!!!!!!!!!!!!!!!!!!!!!!!!!!!!!!!!!!!!!!!!!!!!!!!!!!!!!!!!!!!!!!!!!!!!!!!!!!!!!!!!!!!!!!!
!!!!!!!!!!!!!!!!!!!!!!!!!!!!!!!!!!!!!!!!!!!!!!!!!!!!!
! Point-to-Point link (differential)                !
! Connectors:                                       !
!   1: STRADA Whisper 3.9mm                         !
! Materials:                                        !
!  Backplane: Megtron-6 HVLP			    !
!  Daughtercard: Megtron-6 HVLP		            !
! Stack-up:					    !
!  Backplane: 20 layers, 190mil thick	            !
!  Daughtercard: 14 layers, 110mil thick	    !
! Trace Length:  		                    !
!  Backplane: 17in                                !
!  Daughtercards: 5in                               !
! Trace Width:                                      !
!  Backplane: 5.75-6.25-5.75 mils                   !
!  Daughtercards: 6-9-6 mils                        !
! Geometry:                                         !
!  Backplane: Stripline				    !
!  Daughtercards: Stripline                         !
! Layer Connections:                          	    !
!  Backplane: Layer 16, counterbored(1-6mil stub)   !
!  Daughtercard: Layer 9, counterbored(1-6mil stub) !
! Freq. Range: 0 GHz - 40 GHz                	    !
! Note1: non-mixed-mode s-parameters          	    ! 
! Note2: channel includes 2.92mm test points   	    !
!!!!!!!!!!!!!!!!!!!!!!!!!!!!!!!!!!!!!!!!!!!!!!!!!!!!!
!
! Created Thu Jul 21 14:39:45 2016
# hz S ma R 50
! 4 Port Network Data from SP1.SP block
! freq  magS11  angS11  magS12  angS12  magS13  angS13  magS14  angS14  
!       magS21  angS21  magS22  angS22  magS23  angS23  magS24  angS24  
!       magS31  angS31  magS32  angS32  magS33  angS33  magS34  angS34  
!       magS41  angS41  magS42  angS42  magS43  angS43  magS44  angS44  
!     
                 0      0.0277688051   -2.90957609e-028     0.000199469227   -2.79548718e-022      0.00105472548   -1.17003038e-026      0.00035958188                180
                   0.000199469227   -2.79548718e-022       0.0239218452   -6.92287294e-028     0.000457444905                180       0.0015177655   -8.25493937e-027
                    0.00105472548   -1.17003037e-026     0.000457444905                180       0.0296468164   -6.18028713e-028     0.000172024877   -3.23632961e-022
                    0.00035958188                180       0.0015177655   -8.25493957e-027     0.000172024877   -3.23632961e-022       0.0259250938   -3.65068349e-028

          10000000      0.0507682839         21.9360186     0.000240782703        -164.927654        0.033741134         67.8842188     0.000227489067         105.979815
                   0.000240782703        -164.927654       0.0582284603         28.6868618     0.000406907217         102.047951        0.032973927         67.5405083
                      0.033741134         67.8842188     0.000406907217         102.047951       0.0553347146         18.9564804     0.000374897923         -13.532482
                   0.000227489067         105.979815        0.032973927         67.5405083     0.000374897923         -13.532482       0.0584992042         26.7892414

          20000000      0.0662592399         11.1138334       0.0001052238         35.2361008        0.063303978         50.4456192    5.04246195e-005         99.8046293
                     0.0001052238         35.2361008       0.0771923353          16.391185     0.000233873847         25.2357168       0.0621382489         50.3327429
                      0.063303978         50.4456192     0.000233873847         25.2357168        0.066881507         8.67752736     0.000322652315         76.3302451
                  5.04246195e-005         99.8046293       0.0621382489         50.3327429     0.000322652315         76.3302451        0.077047115         15.3434362

          30000000      0.0790529223        -2.74399528     0.000140320282         20.7168266        0.088122749         32.6966744     0.000134543546         15.0572339
                   0.000140320282         20.7168266       0.0958562118         2.93706916    9.40445244e-005        -16.2829271       0.0861337483         32.5795026
                      0.088122749         32.6966744    9.40445244e-005        -16.2829271       0.0788612087        -4.57353948    7.82068189e-005        -39.4214149
                   0.000134543546         15.0572339       0.0861337483         32.5795026    7.82068189e-005        -39.4214149       0.0952598214          1.5307918

          40000000      0.0855964622        -15.9628196    9.10660796e-005        -4.36794559        0.106643236         14.9308647    6.77958245e-005        -22.9200083
                  9.10660796e-005        -4.36794559        0.107213593        -11.6830248     0.000152716982         -32.612734        0.103583948         14.9144838
                      0.106643236         14.9308647     0.000152716982         -32.612734       0.0848431657        -18.4419512      0.00023436507        -4.78472275
                  6.77958245e-005        -22.9200083        0.103583948         14.9144838      0.00023436507        -4.78472275         0.10531475        -13.0380454

          50000000      0.0886968814        -30.6981568    9.75613544e-005        -33.0938131        0.117897846        -2.61279047     0.000104999975        -52.5539654
                  9.75613544e-005        -33.0938131         0.11379571        -26.2236354    9.52793681e-005        -30.1835403        0.113804778        -2.48910431
                      0.117897846        -2.61279047    9.52793681e-005        -30.1835403       0.0875123609        -32.1475436     0.000135856197        -66.8232499
                   0.000104999975        -52.5539654        0.113804778        -2.48910431     0.000135856197        -66.8232499        0.111065695        -27.5347332

          60000000      0.0859583632        -43.7403982     0.000187398599        -32.2420171        0.121813887        -20.3541378    4.94498233e-005         34.3496618
                   0.000187398599        -32.2420171        0.113141968        -40.1360994     0.000132302901         -97.914816        0.116670185        -20.1159421
                      0.121813887        -20.3541378     0.000132302901         -97.914816       0.0862979115         -45.131141     0.000102624402        -75.2686327
                  4.94498233e-005         34.3496618        0.116670185        -20.1159421     0.000102624402        -75.2686327        0.109928773        -41.5478572

          70000000      0.0809389882        -56.5830856    4.66125694e-005         2.12732351        0.118308716        -37.6830245     0.000128968543        -129.499763
                  4.66125694e-005         2.12732351        0.108203714        -53.5657734    5.08526603e-005        -121.942181         0.11187453         -37.291671
                      0.118308716        -37.6830245    5.08526603e-005        -121.942181       0.0813868647        -58.2429326    5.56720807e-005        -92.1779774
                   0.000128968543        -129.499763         0.11187453         -37.291671    5.56720807e-005        -92.1779774        0.106752257        -55.6121102

          80000000      0.0730821817        -68.3071686    7.95532745e-005        -167.092699        0.107976629        -54.7593232     0.000132633235          174.56095
                  7.95532745e-005        -167.092699        0.100091282        -65.9753474    7.60907835e-005        -84.9892985        0.100205332        -54.2592168
                      0.107976629        -54.7593232    7.60907835e-005        -84.9892985       0.0749155202        -70.5703298     7.6958639e-005        -132.877894
                   0.000132633235          174.56095        0.100205332        -54.2592168     7.6958639e-005        -132.877894       0.0986580096        -68.7411092

          90000000      0.0633505201         -79.274504      0.00012824727         109.412872       0.0920199063         -71.512251     0.000129186494         125.590578
                    0.00012824727         109.412872       0.0894547257        -77.6423072     0.000104122902         129.583053       0.0833725193        -70.6894957
                     0.0920199063         -71.512251     0.000104122902         129.583053       0.0650547672        -82.5503066     0.000103837839         81.4571363
                   0.000129186494         125.590578       0.0833725193        -70.6894957     0.000103837839         81.4571363       0.0894831951         -81.221515

         100000000      0.0525718807        -88.2862106      0.00015774873         78.3695504       0.0719193734        -87.5068031     0.000100771965         118.826066
                    0.00015774873         78.3695504       0.0776612667        -89.3327036     0.000136774298         74.7202454       0.0625204436        -86.0972684
                     0.0719193734        -87.5068031     0.000136774298         74.7202454       0.0545128015        -92.9763206     0.000160097206         67.3008511
                   0.000100771965         118.826066       0.0625204436        -86.0972684     0.000160097206         67.3008511       0.0792092157         -93.098237

         110000000      0.0423323613         -94.932354     0.000213981134         46.8190241       0.0496121949        -101.763802     0.000205076482         66.4918063
                   0.000213981134         46.8190241       0.0651936354        -99.5934508     0.000208780294         53.4306184       0.0399467979         -98.623242
                     0.0496121949        -101.763802     0.000208780294         53.4306184       0.0438870233        -100.852724     0.000322746311         58.0607114
                   0.000205076482         66.4918063       0.0399467979         -98.623242     0.000322746311         58.0607114       0.0677240684        -104.674294

         120000000      0.0324702918        -95.7001676     0.000278282625         31.6226385       0.0268581713        -110.274758       0.0002190927         54.1667503
                   0.000278282625         31.6226385       0.0517689994         -109.50103     0.000233714655         42.3663573       0.0181412249         -98.463853
                     0.0268581713        -110.274758     0.000233714655         42.3663573       0.0329119642        -104.452046     0.000442312661         34.7909985
                     0.0002190927         54.1667503       0.0181412249         -98.463853     0.000442312661         34.7909985       0.0559125385        -115.544672

         130000000      0.0259001234         -88.589022     0.000382234839         21.3688134      0.00936210842        -75.8084825      0.00038981233         30.2194314
                   0.000382234839         21.3688134       0.0391699474        -115.140424     0.000304687507         18.7233893       0.0110176606        -23.7653569
                    0.00936210842        -75.8084825     0.000304687507         18.7233893       0.0247799439        -99.5292438     0.000427278614         15.5999212
                    0.00038981233         30.2194314       0.0110176606        -23.7653569     0.000427278614         15.5999212       0.0431569326        -124.522268

         140000000      0.0246750547        -74.1970088     0.000480864758        -4.60402039       0.0188836621        -12.1782642     0.000370198341         13.1737966
                   0.000480864758        -4.60402039       0.0277259296        -112.760664     0.000363973614         1.78383765       0.0259266441        -4.50188079
                     0.0188836621        -12.1782642     0.000363973614         1.78383765       0.0208260531        -83.8631522     0.000547827306        -4.45624397
                   0.000370198341         13.1737966       0.0259266441        -4.50188079     0.000547827306        -4.45624397       0.0310233446        -128.439072

         150000000      0.0288326557         -65.249134     0.000511606912        -28.9286603       0.0338808993         -16.169009     0.000452259543        -12.0700967
                   0.000511606912        -28.9286603       0.0225972266        -95.7353274     0.000388446908        -15.9747191       0.0394077409        -13.9310931
                     0.0338808993         -16.169009     0.000388446908        -15.9747191       0.0234341768         -68.869845     0.000605341169         -20.759069
                   0.000452259543        -12.0700967       0.0394077409        -13.9310931     0.000605341169         -20.759069       0.0211632197        -119.540346

         160000000      0.0360238288         -64.295917     0.000484490989        -36.7036575       0.0451706718        -29.0824545     0.000511097469        -32.9421197
                   0.000484490989        -36.7036575       0.0262076952        -78.5827084     0.000375049931        -40.4740634       0.0482002778        -27.8013603
                     0.0451706718        -29.0824545     0.000375049931        -40.4740634       0.0290493716        -64.1469776     0.000652807027        -43.0598777
                   0.000511097469        -32.9421197       0.0482002778        -27.8013603     0.000652807027        -43.0598777       0.0189826582        -94.8108202

         170000000      0.0436349352        -69.4501418     0.000563818131        -60.4154536       0.0519437101        -43.9369996     0.000477818944        -52.4052703
                   0.000563818131        -60.4154536       0.0347401286         -76.295769     0.000416876416        -60.1883622       0.0520785118        -42.9712067
                     0.0519437101        -43.9369996     0.000416876416        -60.1883622       0.0365893556         -65.142101     0.000622185964        -54.9298628
                   0.000477818944        -52.4052703       0.0520785118        -42.9712067     0.000622185964        -54.9298628       0.0247054046        -79.4220614

         180000000      0.0502925381        -77.5052358     0.000544466122        -69.0649916       0.0542079741        -59.4920861     0.000409499393        -67.0956393
                   0.000544466122        -69.0649916       0.0435345131        -82.2450462     0.000369586162        -75.5595463       0.0511934155        -58.3260852
                     0.0542079741        -59.4920861     0.000369586162        -75.5595463       0.0436607735        -71.6517398     0.000526957203        -73.8301934
                   0.000409499393        -67.0956393       0.0511934155        -58.3260852     0.000526957203        -73.8301934       0.0325773842         -78.863653

         190000000      0.0557008694        -87.4814942     0.000515957445        -88.0705078       0.0525340223        -75.2882092     0.000464063266        -100.026901
                   0.000515957445        -88.0705078       0.0508197193        -91.9792954     0.000379609899        -94.3151166       0.0463566667        -73.5245754
                     0.0525340223        -75.2882092     0.000379609899        -94.3151166       0.0504711143         -80.398965     0.000575838112         -88.915628
                   0.000464063266        -100.026901       0.0463566667        -73.5245754     0.000575838112         -88.915628       0.0398618621           -85.1178

         200000000      0.0591767755        -98.3164862     0.000430455808        -110.283775        0.047732293        -91.0070977     0.000386875243        -108.540819
                   0.000430455808        -110.283775       0.0563515073         -102.63356     0.000270565639        -114.085081       0.0385995999        -87.9991255
                      0.047732293        -91.0070977     0.000270565639        -114.085081       0.0556053613        -90.2991666      0.00049122388        -112.392822
                   0.000386875243        -108.540819       0.0385995999        -87.9991255      0.00049122388        -112.392822       0.0454876399        -93.8755702

         210000000       0.060562232        -109.826512     0.000381434735        -124.287609       0.0408471495         -106.52618     0.000375888739        -131.244763
                   0.000381434735        -124.287609       0.0597007676        -113.847882     0.000259623829        -129.523647       0.0291713248        -101.190286
                     0.0408471495         -106.52618     0.000259623829        -129.523647        0.058681079         -101.61859     0.000410970609        -128.812896
                   0.000375888739        -131.244763       0.0291713248        -101.190286     0.000410970609        -128.812896       0.0499696122        -104.479328

         220000000      0.0595171183        -121.882564     0.000248928268        -131.831277       0.0329364869         -121.71941      0.00028379362        -162.441592
                   0.000248928268        -131.831277       0.0619433153        -125.359336      0.00018930713        -151.820104       0.0196487666        -110.762068
                     0.0329364869         -121.71941      0.00018930713        -151.820104       0.0590979632        -113.777042     0.000289935445        -149.619672
                    0.00028379362        -162.441592       0.0196487666        -110.762068     0.000289935445        -149.619672       0.0524019987         -116.50805

         230000000      0.0565617472        -134.194506     0.000164051194        -155.889093       0.0251511728        -136.492153     0.000226996044         176.169337
                   0.000164051194        -155.889093       0.0629542749        -138.526918     6.9306508e-005        -156.168787       0.0114124207        -112.101224
                     0.0251511728        -136.492153     6.9306508e-005        -156.168787       0.0568127985        -126.820464     0.000206056963        -139.194374
