! TE Connectivity
! F11F12-G14G15_NEXT
!!
!! PART DESCRIPTION: Whisper 27in Megtron 6 HVLP-HVLP-HVLP Channel Model, bulkhead 2.92mm test points
!! 
!! MODEL DESCRIPTION: System 4-port S-parameter
!! MODEL STATUS: Measured
!! MODEL GEOMETRY: Channel Model
!! MODEL FREQUENCY RANGE: DC to 40 GHz in 10 MHz frequency steps
!! MODEL EDGE RATE LIMITATION: 12.5 ps (Using conservative 0.5/Fmax rule of thumb)
!! 
!! TIME-DOMAIN TRANSFORM CAUTIONS: 
!! 1.) Do not simulate transient edge rates faster than the number listed above.  Edge
!!     rates faster than this number contain significant spectral content at frequencies
!!     above the model's highest frequency.
!! 2.) Even when simulating edge rates that are slower than the number listed above, be
!!     aware that the best time resolution possible with a direct iFFT is (1 / 2Fmax).
!!     As a result, time resolution is typically not adequate for most time-domain
!!     simulations unless tricks such as frequency-domain zero-padding and windowing are
!!     used to minimize leakage and aliasing. 
!! 3.) Because the model has a uniform frequency step, a direct iFFT will result in an
!!     impulse that that has a time length given by either (1 / Fstep) or (1 / 2Fstep),
!!     depending on the transform being used.  Care has been taken in selecting the
!!     frequency step to ensure a settled impulse response for the model.  Therefore,
!!     convolution with the model's impulse response should present no issues.  However,
!!     if directly concatenating s-parameter models in the frequency domain a user must
!!     either interpolate necessary interim frequencies or complete impulse response 
!!     zero-padding.  Impulse response zero-padding is more difficult, but more accurate. 
!!    
!! 
!! PORT DEFINITIONS: 
!! Port   1  ----->  Side A     F11            G14     Side B  <-----  Port   2
!! Port   3  ----->  Side A     F12            G15     Side B  <-----  Port   4
!! 
!!!!!!!!!!!!!!!!!!!!!!!!!!!!!!!!!!!!!!!!!!!!!!!!!!!!!!!!!!!!!!!!!!!!!!!!!!!!!!!!!!!!!!!!!!!!!!!!!!!!!!!!!!!!!!!!!!!!!!!!
!!!!!!!!!!!!!!!!!!!!!!!!!!!!!!!!!!!!!!!!!!!!!!!!!!!!!
! Point-to-Point link (differential)                !
! Connectors:                                       !
!   1: STRADA Whisper 3.9mm                         !
! Materials:                                        !
!  Backplane: Megtron-6 HVLP			    !
!  Daughtercard: Megtron-6 HVLP		            !
! Stack-up:					    !
!  Backplane: 20 layers, 190mil thick	            !
!  Daughtercard: 14 layers, 110mil thick	    !
! Trace Length:  		                    !
!  Backplane: 17in                                !
!  Daughtercards: 5in                               !
! Trace Width:                                      !
!  Backplane: 5.75-6.25-5.75 mils                   !
!  Daughtercards: 6-9-6 mils                        !
! Geometry:                                         !
!  Backplane: Stripline				    !
!  Daughtercards: Stripline                         !
! Layer Connections:                          	    !
!  Backplane: Layer 16, counterbored(1-6mil stub)   !
!  Daughtercard: Layer 9, counterbored(1-6mil stub) !
! Freq. Range: 0 GHz - 40 GHz                	    !
! Note1: non-mixed-mode s-parameters          	    ! 
! Note2: channel includes 2.92mm test points   	    !
!!!!!!!!!!!!!!!!!!!!!!!!!!!!!!!!!!!!!!!!!!!!!!!!!!!!!
!
! Created Thu Jul 21 14:38:03 2016
# hz S ma R 50
! 4 Port Network Data from SP1.SP block
! freq  magS11  angS11  magS12  angS12  magS13  angS13  magS14  angS14  
!       magS21  angS21  magS22  angS22  magS23  angS23  magS24  angS24  
!       magS31  angS31  magS32  angS32  magS33  angS33  magS34  angS34  
!       magS41  angS41  magS42  angS42  magS43  angS43  magS44  angS44  
!     
                 0      0.0297199929   -1.76602081e-027    6.18648839e-005                180      0.00165515873   -1.52968477e-026     0.000549697152                180
                  6.18648839e-005                180       0.0239218452    1.07046679e-030    6.48144647e-005   -4.10403956e-022       0.0015177655   -2.38898495e-027
                    0.00165515873   -1.52968476e-026    6.48144647e-005   -4.10403956e-022       0.0283559694   -4.25521533e-028     0.000327417815                180
                   0.000549697152                180       0.0015177655     -2.388985e-027     0.000327417815                180       0.0259250938   -4.16443604e-027

          10000000       0.056006298         24.4877798      0.00036944226        -174.746595        0.032139632         67.6119804     0.000330071931         93.6195568
                    0.00036944226        -174.746595       0.0582284603         28.6868618     0.000168695458        -149.306311        0.032973927         67.5405083
                      0.032139632         67.6119804     0.000168695458        -149.306311       0.0594618491         23.5300116     0.000235631898         90.9800823
                   0.000330071931         93.6195568        0.032973927         67.5405083     0.000235631898         90.9800823       0.0584992042         26.7892414

          20000000      0.0746836757          15.480416    9.78508569e-005        -131.503433       0.0610607477         50.7131788    3.34855229e-005         53.5825554
                  9.78508569e-005        -131.503433       0.0771923353          16.391185     8.5369505e-005        -132.065907       0.0621382489         50.3327429
                     0.0610607477         50.7131788     8.5369505e-005        -132.065907       0.0743734428         14.2255472    7.50884713e-005        -14.9850295
                  3.34855229e-005         53.5825554       0.0621382489         50.3327429    7.50884713e-005        -14.9850295        0.077047115         15.3434362

          30000000      0.0903690189         2.36948418     0.000153230888          -73.31332       0.0847147427         32.9503254     0.000137274524        -148.035211
                   0.000153230888          -73.31332       0.0958562118         2.93706916    7.96955218e-005        -60.1541562       0.0861337483         32.5795026
                     0.0847147427         32.9503254    7.96955218e-005        -60.1541562        0.089632739          1.1616121    7.35404317e-005        -138.504002
                   0.000137274524        -148.035211       0.0861337483         32.5795026    7.35404317e-005        -138.504002       0.0952598214          1.5307918

          40000000      0.0986613733        -11.7233636    5.47036308e-005        -16.0225414         0.10247495         15.4468053    9.38766167e-006        -66.4691462
                  5.47036308e-005        -16.0225414        0.107213593        -11.6830248    5.97102409e-005         39.1319151        0.103583948         14.9144838
                       0.10247495         15.4468053    5.97102409e-005         39.1319151       0.0986243959        -12.2823996    9.27549513e-006        -172.232779
                  9.38766167e-006        -66.4691462        0.103583948         14.9144838    9.27549513e-006        -172.232779         0.10531475        -13.0380454

          50000000       0.103267567        -25.2775952    3.73474671e-005        -87.1704108        0.113302896        -1.84552364    8.11781408e-005        -60.8688103
                  3.73474671e-005        -87.1704108         0.11379571        -26.2236354    6.84892475e-005         94.9438784        0.113804778        -2.48910431
                      0.113302896        -1.84552364    6.84892475e-005         94.9438784        0.102558685        -26.1155552    6.41159192e-005         34.7633538
                  8.11781408e-005        -60.8688103        0.113804778        -2.48910431    6.41159192e-005         34.7633538        0.111065695        -27.5347332

          60000000       0.103249078        -38.2497082    8.96014494e-005        -158.987689        0.117281345        -19.4023025    2.00833801e-005        -140.886338
                  8.96014494e-005        -158.987689        0.113141968        -40.1360994    3.99697435e-005        -147.109797        0.116670185        -20.1159421
                      0.117281345        -19.4023025    3.99697435e-005        -147.109797        0.101670541         -39.507204    3.04371841e-005         27.6437569
                  2.00833801e-005        -140.886338        0.116670185        -20.1159421    3.04371841e-005         27.6437569        0.109928773        -41.5478572

          70000000      0.0998656355         -51.852508    5.53978564e-005         -106.78832        0.113927931        -36.5007192    3.19464289e-005        -88.5367443
                  5.53978564e-005         -106.78832        0.108203714        -53.5657734    2.58032279e-005         53.7409096         0.11187453         -37.291671
                      0.113927931        -36.5007192    2.58032279e-005         53.7409096       0.0985908973        -53.1363868    5.79032861e-005        -48.7995697
                  3.19464289e-005        -88.5367443         0.11187453         -37.291671    5.79032861e-005        -48.7995697        0.106752257        -55.6121102

          80000000       0.091961428        -64.1384706    4.33699889e-005          154.76292         0.10423518        -53.4445274     0.000111213716         96.2933302
                  4.33699889e-005          154.76292        0.100091282        -65.9753474    4.91637111e-005         137.685407        0.100205332        -54.2592168
                       0.10423518        -53.4445274    4.91637111e-005         137.685407       0.0922555716        -66.0868576    4.78197985e-005        -117.891783
                   0.000111213716         96.2933302        0.100205332        -54.2592168    4.78197985e-005        -117.891783       0.0986580096        -68.7411092

          90000000      0.0825948925        -75.0833462     6.6113287e-005        -157.996906       0.0890124708        -69.9117731    2.50628616e-005         83.8101267
                   6.6113287e-005        -157.996906       0.0894547257        -77.6423072    2.38486594e-005        -48.2395423       0.0833725193        -70.6894957
                     0.0890124708        -69.9117731    2.38486594e-005        -48.2395423       0.0832796872        -78.9214962    5.35005536e-005        -1.12481335
                  2.50628616e-005         83.8101267       0.0833725193        -70.6894957    5.35005536e-005        -1.12481335       0.0894831951         -81.221515

         100000000      0.0728507413        -85.4724506     5.2301397e-005        -131.096063        0.069885018        -85.7055476    5.33024637e-005        -57.7006672
                   5.2301397e-005        -131.096063       0.0776612667        -89.3327036    5.44571791e-005        -133.432361       0.0625204436        -86.0972684
                      0.069885018        -85.7055476    5.44571791e-005        -133.432361       0.0729221249        -90.3749468    3.88097715e-005        -55.6883646
                  5.33024637e-005        -57.7006672       0.0625204436        -86.0972684    3.88097715e-005        -55.6883646       0.0792092157         -93.098237

         110000000      0.0609947782        -94.9841354    3.73159582e-005        -167.839033       0.0484004802        -99.8755288     4.7072026e-005        -128.231769
                  3.73159582e-005        -167.839033       0.0651936354        -99.5934508    6.64782795e-005         115.214763       0.0399467979         -98.623242
                     0.0484004802        -99.8755288    6.64782795e-005         115.214763       0.0617650919        -101.065362     0.000108581723         96.1804479
                   4.7072026e-005        -128.231769       0.0399467979         -98.623242     0.000108581723         96.1804479       0.0677240684        -104.674294

         120000000      0.0486935615        -100.504146    3.77751324e-006        -82.4746288       0.0266300407        -108.477774    4.06772195e-005         9.12621541
                  3.77751324e-006        -82.4746288       0.0517689994         -109.50103    2.37936303e-005        -133.404856       0.0181412249         -98.463853
                     0.0266300407        -108.477774    2.37936303e-005        -133.404856       0.0489266764        -109.029248    5.84398671e-005         106.774884
                  4.06772195e-005         9.12621541       0.0181412249         -98.463853    5.84398671e-005         106.774884       0.0559125385        -115.544672

         130000000      0.0390923686        -101.271822    5.63910998e-005        -54.1663778      0.00938473815        -77.2049036     2.2374222e-005        -22.7608627
                  5.63910998e-005        -54.1663778       0.0391699474        -115.140424    4.36132532e-005         24.8630576       0.0110176606        -23.7653569
                    0.00938473815        -77.2049036    4.36132532e-005         24.8630576       0.0372384409        -112.464262    3.79784265e-005        -43.4261545
                   2.2374222e-005        -22.7608627       0.0110176606        -23.7653569    3.79784265e-005        -43.4261545       0.0431569326        -124.522268

         140000000      0.0323965415        -97.0687912    2.48687532e-005        -7.87121661       0.0176410673        -10.9256051    1.83010929e-005         177.751989
                  2.48687532e-005        -7.87121661       0.0277259296        -112.760664    8.91611718e-005        -18.4504341       0.0259266441        -4.50188079
                     0.0176410673        -10.9256051    8.91611718e-005        -18.4504341       0.0277037677        -108.131202    4.73527713e-005        -149.860879
                  1.83010929e-005         177.751989       0.0259266441        -4.50188079    4.73527713e-005        -149.860879       0.0310233446        -128.439072

         150000000      0.0294282543        -85.3344976    9.28616172e-006        -174.848975       0.0321022314        -13.6398338    1.49310344e-005          107.33464
                  9.28616172e-006        -174.848975       0.0225972266        -95.7353274    6.15414402e-005         -65.652105       0.0394077409        -13.9310931
                     0.0321022314        -13.6398338    6.15414402e-005         -65.652105       0.0230979888        -91.7163466    1.08163162e-005          27.726951
                  1.49310344e-005          107.33464       0.0394077409        -13.9310931    1.08163162e-005          27.726951       0.0211632197        -119.540346

         160000000      0.0340409821        -76.1622466    1.84912762e-005         -45.079786       0.0429587195        -26.1358331    3.67251489e-005         164.935603
                  1.84912762e-005         -45.079786       0.0262076952        -78.5827084    2.99465171e-005        -105.177382       0.0482002778        -27.8013603
                     0.0429587195        -26.1358331    2.99465171e-005        -105.177382       0.0251796275         -75.489491    2.48560319e-005         47.4969785
                  3.67251489e-005         164.935603       0.0482002778        -27.8013603    2.48560319e-005         47.4969785       0.0189826582        -94.8108202

         170000000       0.041159801        -76.2859546    3.71910727e-005         146.659444       0.0496499594        -40.7221236    3.91144087e-005        -139.084578
                  3.71910727e-005         146.659444       0.0347401286         -76.295769    5.61594227e-005        -68.6501697       0.0520785118        -42.9712067
                     0.0496499594        -40.7221236    5.61594227e-005        -68.6501697       0.0320334828        -68.6829214    5.95620891e-005        -64.3775102
                  3.91144087e-005        -139.084578       0.0520785118        -42.9712067    5.95620891e-005        -64.3775102       0.0247054046        -79.4220614

         180000000       0.048270222        -80.6113898    4.40034602e-005        -153.149253       0.0519046142        -55.9499896    3.43901052e-005        -91.2840303
                  4.40034602e-005        -153.149253       0.0435345131        -82.2450462    4.58602029e-005        -129.941453       0.0511934155        -58.3260852
                     0.0519046142        -55.9499896    4.58602029e-005        -129.941453       0.0409144134        -71.7586564    7.32393324e-005         -34.393014
                  3.43901052e-005        -91.2840303       0.0511934155        -58.3260852    7.32393324e-005         -34.393014       0.0325773842         -78.863653

         190000000      0.0556699554        -88.1727482    3.00975984e-005        -68.0972427       0.0503083358        -71.2256064    3.36814596e-005        -170.067512
                  3.00975984e-005        -68.0972427       0.0508197193        -91.9792954    5.23305419e-005        -75.9135436       0.0463566667        -73.5245754
                     0.0503083358        -71.2256064    5.23305419e-005        -75.9135436       0.0492231267        -79.8192906    3.44223727e-005        -74.8329281
                  3.36814596e-005        -170.067512       0.0463566667        -73.5245754    3.44223727e-005        -74.8329281       0.0398618621           -85.1178

         200000000      0.0625775201        -98.9153574    2.10527219e-005         39.3710751        0.045680523        -86.2468386    7.78799992e-005        -111.679421
                  2.10527219e-005         39.3710751       0.0563515073         -102.63356     3.2236294e-005          -87.87889       0.0385995999        -87.9991255
                      0.045680523        -86.2468386     3.2236294e-005          -87.87889       0.0564519848         -91.218402    9.93801732e-005        -112.978864
                  7.78799992e-005        -111.679421       0.0385995999        -87.9991255    9.93801732e-005        -112.978864       0.0454876399        -93.8755702

         210000000      0.0656496666        -111.032854    4.78060682e-005        -132.736733       0.0389520832        -100.976889     5.8873953e-005         154.587586
                  4.78060682e-005        -132.736733       0.0597007676        -113.847882    3.56859588e-005        -53.2760059       0.0291713248        -101.190286
                     0.0389520832        -100.976889    3.56859588e-005        -53.2760059          0.0620357        -104.263732    4.87571882e-005         123.834225
                   5.8873953e-005         154.587586       0.0291713248        -101.190286    4.87571882e-005         123.834225       0.0499696122        -104.479328

         220000000      0.0676463475        -123.778986    3.72136183e-005        -2.07733919       0.0313132934        -114.962894    6.02338827e-005         79.0237063
                  3.72136183e-005        -2.07733919       0.0619433153        -125.359336     3.1452826e-005         179.522578       0.0196487666        -110.762068
                     0.0313132934        -114.962894     3.1452826e-005         179.522578       0.0656743615        -119.178394    2.76646879e-005         104.706472
                  6.02338827e-005         79.0237063       0.0196487666        -110.762068    2.76646879e-005         104.706472       0.0524019987         -116.50805

         230000000      0.0671016006        -137.680548    4.81339207e-005        -40.5513302       0.0237222386        -128.269244    2.72424574e-005         43.0304892
                  4.81339207e-005        -40.5513302       0.0629542749        -138.526918    4.82542546e-005         90.8729611       0.0114124207        -112.101224
                     0.0237222386        -128.269244    4.82542546e-005         90.8729611       0.0665427788        -135.356298    3.11374881e-005        -13.4502199
