! TE Connectivity
! G17G18-G14G15_NEXT
!!
!! PART DESCRIPTION: Whisper 27in Megtron 6 HVLP-HVLP-HVLP Channel Model, bulkhead 2.92mm test points
!! 
!! MODEL DESCRIPTION: System 4-port S-parameter
!! MODEL STATUS: Measured
!! MODEL GEOMETRY: Channel Model
!! MODEL FREQUENCY RANGE: DC to 40 GHz in 10 MHz frequency steps
!! MODEL EDGE RATE LIMITATION: 12.5 ps (Using conservative 0.5/Fmax rule of thumb)
!! 
!! TIME-DOMAIN TRANSFORM CAUTIONS: 
!! 1.) Do not simulate transient edge rates faster than the number listed above.  Edge
!!     rates faster than this number contain significant spectral content at frequencies
!!     above the model's highest frequency.
!! 2.) Even when simulating edge rates that are slower than the number listed above, be
!!     aware that the best time resolution possible with a direct iFFT is (1 / 2Fmax).
!!     As a result, time resolution is typically not adequate for most time-domain
!!     simulations unless tricks such as frequency-domain zero-padding and windowing are
!!     used to minimize leakage and aliasing. 
!! 3.) Because the model has a uniform frequency step, a direct iFFT will result in an
!!     impulse that that has a time length given by either (1 / Fstep) or (1 / 2Fstep),
!!     depending on the transform being used.  Care has been taken in selecting the
!!     frequency step to ensure a settled impulse response for the model.  Therefore,
!!     convolution with the model's impulse response should present no issues.  However,
!!     if directly concatenating s-parameter models in the frequency domain a user must
!!     either interpolate necessary interim frequencies or complete impulse response 
!!     zero-padding.  Impulse response zero-padding is more difficult, but more accurate. 
!!    
!! 
!! PORT DEFINITIONS: 
!! Port   1  ----->  Side A     G17            G14     Side B  <-----  Port   2
!! Port   3  ----->  Side A     G18            G15     Side B  <-----  Port   4
!! 
!!!!!!!!!!!!!!!!!!!!!!!!!!!!!!!!!!!!!!!!!!!!!!!!!!!!!!!!!!!!!!!!!!!!!!!!!!!!!!!!!!!!!!!!!!!!!!!!!!!!!!!!!!!!!!!!!!!!!!!!
!!!!!!!!!!!!!!!!!!!!!!!!!!!!!!!!!!!!!!!!!!!!!!!!!!!!!
! Point-to-Point link (differential)                !
! Connectors:                                       !
!   1: STRADA Whisper 3.9mm                         !
! Materials:                                        !
!  Backplane: Megtron-6 HVLP			    !
!  Daughtercard: Megtron-6 HVLP		            !
! Stack-up:					    !
!  Backplane: 20 layers, 190mil thick	            !
!  Daughtercard: 14 layers, 110mil thick	    !
! Trace Length:  		                    !
!  Backplane: 17in                                !
!  Daughtercards: 5in                               !
! Trace Width:                                      !
!  Backplane: 5.75-6.25-5.75 mils                   !
!  Daughtercards: 6-9-6 mils                        !
! Geometry:                                         !
!  Backplane: Stripline				    !
!  Daughtercards: Stripline                         !
! Layer Connections:                          	    !
!  Backplane: Layer 16, counterbored(1-6mil stub)   !
!  Daughtercard: Layer 9, counterbored(1-6mil stub) !
! Freq. Range: 0 GHz - 40 GHz                	    !
! Note1: non-mixed-mode s-parameters          	    ! 
! Note2: channel includes 2.92mm test points   	    !
!!!!!!!!!!!!!!!!!!!!!!!!!!!!!!!!!!!!!!!!!!!!!!!!!!!!!
!
! Created Thu Jul 21 15:01:57 2016
# hz S ma R 50
! 4 Port Network Data from SP1.SP block
! freq  magS11  angS11  magS12  angS12  magS13  angS13  magS14  angS14  
!       magS21  angS21  magS22  angS22  magS23  angS23  magS24  angS24  
!       magS31  angS31  magS32  angS32  magS33  angS33  magS34  angS34  
!       magS41  angS41  magS42  angS42  magS43  angS43  magS44  angS44  
!     
                 0      0.0302230686   -1.31541775e-027     0.000347755558                180      0.00155237784    1.37643379e-026     0.000184498998                180
                   0.000347755558                180       0.0246848161   -1.57697701e-028     0.000267989564   -8.82176698e-023      0.00185617096    1.01655783e-027
                    0.00155237784    1.37643379e-026     0.000267989564   -8.82176698e-023       0.0295767475   -1.39990396e-035     0.000304147236   -4.12391323e-023
                   0.000184498998                180      0.00185617096    1.01655794e-027     0.000304147236   -4.12391323e-023        0.026533198    1.16754657e-028

          10000000      0.0583861797         25.7819558      0.00037070214         25.0784633       0.0328780951         67.0803894      0.00012705964         56.0148708
                    0.00037070214         25.0784633       0.0587827171          28.217477     0.000275285906        -31.1383223       0.0327334925          67.606119
                     0.0328780951         67.0803894     0.000275285906        -31.1383223       0.0609288745         24.6727934       0.0002536021        -140.980979
                    0.00012705964         56.0148708       0.0327334925          67.606119       0.0002536021        -140.980979       0.0584213056         26.7355554

          20000000      0.0792356961          16.734608    9.88828164e-005        -159.396735       0.0617958564         50.0565928    5.13428517e-005         58.4892374
                  9.88828164e-005        -159.396735       0.0774693175          16.368342    5.60257999e-005        -1.73227752       0.0621234765         50.2794242
                     0.0617958564         50.0565928    5.60257999e-005        -1.73227752       0.0788266698         15.6757712     0.000107725325         46.0282956
                  5.13428517e-005         58.4892374       0.0621234765         50.2794242     0.000107725325         46.0282956       0.0773897566         15.3063502

          30000000      0.0974135366          3.5079769     0.000155566567        -1.05077154       0.0855016265         32.2239606    9.85748914e-005        -93.8884328
                   0.000155566567        -1.05077154       0.0959878826         3.22541852    6.98762905e-005        -112.393049       0.0860667408         32.5342877
                     0.0855016265         32.2239606    6.98762905e-005        -112.393049       0.0961275696         2.37641468    7.28133174e-005        -73.4545812
                  9.85748914e-005        -93.8884328       0.0860667408         32.5342877    7.28133174e-005        -73.4545812        0.095279334         1.64416398

          40000000       0.107508586        -10.9256038    3.25693206e-005        -146.933358        0.102589377         14.4926183    8.19481439e-005         33.9750309
                  3.25693206e-005        -146.933358        0.107528466        -11.4208158    3.26980766e-005         178.121896         0.10353847         14.8485713
                      0.102589377         14.4926183    3.26980766e-005         178.121896        0.106755289        -11.4803278    6.37779359e-005         70.6616738
                  8.19481439e-005         33.9750309         0.10353847         14.8485713    6.37779359e-005         70.6616738        0.105171653        -12.8341366

          50000000       0.113755706        -25.2632356    2.13461305e-005        -157.249868        0.112568611        -3.01820355    4.64844421e-005         72.0668143
                  2.13461305e-005        -157.249868        0.113691446        -25.9484866     9.1745904e-005         114.133539        0.113583693        -2.55029079
                      0.112568611        -3.01820355     9.1745904e-005         114.133539         0.11208594        -25.7484934     3.2592462e-005         164.406841
                  4.64844421e-005         72.0668143        0.113583693        -2.55029079     3.2592462e-005         164.406841        0.110732891        -27.2068632

          60000000       0.114142395        -39.1499086    3.47705866e-005        -68.0061108        0.115165255        -20.7488031     0.000154783875       -0.940784695
                  3.47705866e-005        -68.0061108        0.113030638        -39.6979624    3.73277308e-005        -141.113984        0.116431018        -20.1837363
                      0.115165255        -20.7488031    3.73277308e-005        -141.113984        0.112016211        -39.7372994    9.63127998e-005         12.9760054
                   0.000154783875       -0.940784695        0.116431018        -20.1837363    9.63127998e-005         12.9760054        0.109798051        -41.1085412

          70000000       0.110826665        -53.5108456    2.44283916e-005          93.593033        0.110175555        -38.0246451    8.72327911e-005        -62.5296421
                  2.44283916e-005          93.593033         0.10787643        -53.2136994    9.81312509e-005         23.2821584        0.111662895         -37.396406
                      0.110175555        -38.0246451    9.81312509e-005         23.2821584        0.109449471        -54.0975414    5.89976581e-005         168.366475
                  8.72327911e-005        -62.5296421        0.111662895         -37.396406    5.89976581e-005         168.366475        0.106452574        -55.1364972

          80000000       0.102779275        -66.6620996     2.0293513e-005        -22.5599704       0.0984983327        -54.9783649     7.0405485e-005         -172.10902
                   2.0293513e-005        -22.5599704       0.0996177902        -65.6393184    6.38662156e-005        -14.5557227        0.100097509        -54.3383522
                     0.0984983327        -54.9783649    6.38662156e-005        -14.5557227        0.103208544        -67.8092636    4.57747809e-005        -83.2634237
                   7.0405485e-005         -172.10902        0.100097509        -54.3383522    4.57747809e-005        -83.2634237       0.0983219991        -68.2717872

          90000000      0.0923104325        -79.2101324    5.65851511e-005        -179.267241       0.0815454314         -71.532528    1.03110472e-005         170.082633
                  5.65851511e-005        -179.267241       0.0888432095         -77.154651    2.36600596e-005         109.470037       0.0832887334        -70.8087523
                     0.0815454314         -71.532528    2.36600596e-005         109.470037       0.0940708639        -81.5915796    1.87998117e-005         64.5932759
                  1.03110472e-005         170.082633       0.0832887334        -70.8087523    1.87998117e-005         64.5932759       0.0890334666         -80.727245

         100000000      0.0808022897        -91.0254222    2.94306504e-005        -142.180408        0.060704132        -86.9579702    7.21836275e-005         52.4454002
                  2.94306504e-005        -142.180408       0.0768609275        -88.7728584    1.65188755e-005         93.0097439       0.0624636112        -86.1340761
                      0.060704132        -86.9579702    1.65188755e-005         93.0097439       0.0829558203        -94.2659248    1.42094916e-005         76.5379098
                  7.21836275e-005         52.4454002       0.0624636112        -86.1340761    1.42094916e-005         76.5379098       0.0784317697        -92.4303828

         110000000      0.0671504915        -101.884724    7.49593736e-006         25.7760569       0.0380778836        -99.7219937    9.46267526e-005         19.8545793
                  7.49593736e-006         25.7760569       0.0644410193        -98.8814146    5.59978269e-005        -83.6124278       0.0398336753        -98.7237758
                     0.0380778836        -99.7219937    5.59978269e-005        -83.6124278       0.0704894525        -106.754534    8.05771692e-005         98.4535155
                  9.46267526e-005         19.8545793       0.0398336753        -98.7237758    8.05771692e-005         98.4535155       0.0668244036        -103.720454

         120000000      0.0525219053         -109.32782    3.72987913e-005        -7.02243903       0.0164516798        -98.5408081     0.000101855738         48.8414724
                  3.72987913e-005        -7.02243903       0.0508534558        -108.801968    3.61803432e-005         49.2560149       0.0181439069        -98.9277057
                     0.0164516798        -98.5408081    3.61803432e-005         49.2560149       0.0562186234        -116.956252    3.24007881e-005         41.3604292
                   0.000101855738         48.8414724       0.0181439069        -98.9277057    3.24007881e-005         41.3604292       0.0548998441        -114.483232

         130000000      0.0400020688        -111.829334    7.16720949e-005         36.5539248       0.0114609021        -16.9782143     0.000168262799         4.32540718
                  7.16720949e-005         36.5539248       0.0382864226        -114.294014    1.97628339e-005        -76.0930681       0.0109361479        -24.1408136
                     0.0114609021        -16.9782143    1.97628339e-005        -76.0930681       0.0427687808        -124.084218    5.63222456e-005          52.288963
                   0.000168262799         4.32540718       0.0109361479        -24.1408136    5.63222456e-005          52.288963       0.0421645986        -123.176138

         140000000      0.0306360914        -106.392716    3.45398055e-005         56.4881912       0.0270430846        -3.44717483     0.000265086228        0.184626162
                  3.45398055e-005         56.4881912       0.0269649282        -111.904912     6.3527757e-005         38.1555375       0.0258727739        -4.52556451
                     0.0270430846        -3.44717483     6.3527757e-005         38.1555375       0.0307837643        -125.865202    1.91084171e-005         97.3696718
                   0.000265086228        0.184626162       0.0258727739        -4.52556451    1.91084171e-005         97.3696718        0.030063938        -126.852732

         150000000      0.0267579153        -90.5168296    3.84731545e-005        -85.4348261       0.0403264425         -13.974148     0.000192138205        -14.6058955
                  3.84731545e-005        -85.4348261       0.0218589801        -94.6457498    2.78367142e-005        -141.320365       0.0392339978        -14.0179008
                     0.0403264425         -13.974148    2.78367142e-005        -141.320365       0.0217660699        -115.299306     9.4561061e-005         20.1623726
                   0.000192138205        -14.6058955       0.0392339978        -14.0179008     9.4561061e-005         20.1623726       0.0201767558        -118.194754

         160000000      0.0318998047        -77.7005216    4.67250074e-005        -35.3874693       0.0489737752        -28.2859376      0.00026256837         -40.855906
                  4.67250074e-005        -35.3874693       0.0251018622        -76.9736528    2.24639393e-005        -26.3275361       0.0480319717        -27.9430544
                     0.0489737752        -28.2859376    2.24639393e-005        -26.3275361       0.0193954733        -94.3370284    4.23638806e-005        -69.5204654
                    0.00026256837         -40.855906       0.0480319717        -27.9430544    4.23638806e-005        -69.5204654       0.0177546672        -93.5162302

         170000000       0.040002931        -77.0498848    6.00758522e-005        -49.2223746       0.0526442569        -43.6199092     0.000255126218        -51.3667044
                  6.00758522e-005        -49.2223746       0.0333650653        -74.6872858    6.96958865e-005        -12.4496922       0.0519390359        -43.1081599
                     0.0526442569        -43.6199092    6.96958865e-005        -12.4496922       0.0239401753        -78.3266702     0.000173864036         -76.767323
                   0.000255126218        -51.3667044       0.0519390359        -43.1081599     0.000173864036         -76.767323       0.0229998148        -76.7135246

         180000000      0.0480652984        -81.8205796    3.62359407e-005        -94.8861569       0.0515455724        -59.1560743     0.000304937678        -76.6734959
                  3.62359407e-005        -94.8861569       0.0419671955        -80.7336852    5.25639858e-005        -119.089181       0.0510561317         -58.521597
                     0.0515455724        -59.1560743    5.25639858e-005        -119.089181       0.0318206553        -77.0134702    8.26070788e-005        -97.5887775
                   0.000304937678        -76.6734959       0.0510561317         -58.521597    8.26070788e-005        -97.5887775       0.0306428126          -76.11317

         190000000      0.0559125718        -90.0224492    9.57442315e-005        -105.854406       0.0465807914        -74.3999286     0.000284001642        -86.1376656
                  9.57442315e-005        -105.854406       0.0490853695        -90.6322254    5.69710711e-005        -117.396233       0.0462597449        -73.7266039
                     0.0465807914        -74.3999286    5.69710711e-005        -117.396233       0.0396104418        -83.7979758     6.2419893e-005        -144.223295
                   0.000284001642        -86.1376656       0.0462597449        -73.7266039     6.2419893e-005        -144.223295       0.0378779523        -82.5008326

         200000000      0.0627433922        -101.192232    4.28060085e-005        -105.159253       0.0386972136        -89.0295262     0.000273426472         -99.418914
                  4.28060085e-005        -105.159253       0.0546610021         -101.51007    1.41827115e-005        -101.945349       0.0384842962        -88.1489488
                     0.0386972136        -89.0295262    1.41827115e-005        -101.945349       0.0462198416        -94.6504196    5.68563574e-005        -107.682348
                   0.000273426472         -99.418914       0.0384842962        -88.1489488    5.68563574e-005        -107.682348       0.0435290521         -91.920827

         210000000      0.0661487394        -113.524394    5.08089046e-005         158.949062        0.029259532        -102.176589      0.00021946174        -107.111393
                  5.08089046e-005         158.949062       0.0580447259        -113.082172    3.30562436e-005         86.2697229       0.0290857136          -101.1241
                      0.029259532        -102.176589    3.30562436e-005         86.2697229       0.0515967885         -107.71794    6.05912207e-005        -104.398519
                    0.00021946174        -107.111393       0.0290857136          -101.1241    6.05912207e-005        -104.398519       0.0481538739        -103.190138

         220000000      0.0688117498        -126.762416    5.63577382e-005        -135.592423       0.0196750681        -112.183291     0.000178695085        -147.320792
                  5.63577382e-005        -135.592423       0.0604060369        -125.188064    2.84779149e-005         168.396937       0.0195448513        -110.875619
                     0.0196750681        -112.183291    2.84779149e-005         168.396937       0.0551241101        -122.669192    9.12668566e-005        -102.989085
                   0.000178695085        -147.320792       0.0195448513        -110.875619    9.12668566e-005        -102.989085       0.0507396014         -115.89966

         230000000      0.0689034205         -141.15305    6.12037539e-005           124.2983       0.0113795758        -114.969721     0.000119161329        -146.546494
                  6.12037539e-005           124.2983        0.061543795        -138.798958    2.26429559e-005        -67.1038623       0.0113724418        -112.210448
                     0.0113795758        -114.969721    2.26429559e-005        -67.1038623       0.0567731398        -139.114388    2.49207877e-006         16.2147892
