! TE Connectivity
! G11G12-G14G15_FEXT
!!
!! PART DESCRIPTION: Whisper 27in Megtron 6 HVLP-HVLP-HVLP Channel Model, bulkhead 2.92mm test points
!! 
!! MODEL DESCRIPTION: System 4-port S-parameter
!! MODEL STATUS: Measured
!! MODEL GEOMETRY: Channel Model
!! MODEL FREQUENCY RANGE: DC to 40 GHz in 10 MHz frequency steps
!! MODEL EDGE RATE LIMITATION: 12.5 ps (Using conservative 0.5/Fmax rule of thumb)
!! 
!! TIME-DOMAIN TRANSFORM CAUTIONS: 
!! 1.) Do not simulate transient edge rates faster than the number listed above.  Edge
!!     rates faster than this number contain significant spectral content at frequencies
!!     above the model's highest frequency.
!! 2.) Even when simulating edge rates that are slower than the number listed above, be
!!     aware that the best time resolution possible with a direct iFFT is (1 / 2Fmax).
!!     As a result, time resolution is typically not adequate for most time-domain
!!     simulations unless tricks such as frequency-domain zero-padding and windowing are
!!     used to minimize leakage and aliasing. 
!! 3.) Because the model has a uniform frequency step, a direct iFFT will result in an
!!     impulse that that has a time length given by either (1 / Fstep) or (1 / 2Fstep),
!!     depending on the transform being used.  Care has been taken in selecting the
!!     frequency step to ensure a settled impulse response for the model.  Therefore,
!!     convolution with the model's impulse response should present no issues.  However,
!!     if directly concatenating s-parameter models in the frequency domain a user must
!!     either interpolate necessary interim frequencies or complete impulse response 
!!     zero-padding.  Impulse response zero-padding is more difficult, but more accurate. 
!!    
!! 
!! PORT DEFINITIONS: 
!! Port   1  ----->  Side A     G11            G14     Side B  <-----  Port   2
!! Port   3  ----->  Side A     G12            G15     Side B  <-----  Port   4
!! 
!!!!!!!!!!!!!!!!!!!!!!!!!!!!!!!!!!!!!!!!!!!!!!!!!!!!!!!!!!!!!!!!!!!!!!!!!!!!!!!!!!!!!!!!!!!!!!!!!!!!!!!!!!!!!!!!!!!!!!!!
!!!!!!!!!!!!!!!!!!!!!!!!!!!!!!!!!!!!!!!!!!!!!!!!!!!!!
! Point-to-Point link (differential)                !
! Connectors:                                       !
!   1: STRADA Whisper 3.9mm                         !
! Materials:                                        !
!  Backplane: Megtron-6 HVLP			    !
!  Daughtercard: Megtron-6 HVLP		            !
! Stack-up:					    !
!  Backplane: 20 layers, 190mil thick	            !
!  Daughtercard: 14 layers, 110mil thick	    !
! Trace Length:  		                    !
!  Backplane: 17in                                !
!  Daughtercards: 5in                               !
! Trace Width:                                      !
!  Backplane: 5.75-6.25-5.75 mils                   !
!  Daughtercards: 6-9-6 mils                        !
! Geometry:                                         !
!  Backplane: Stripline				    !
!  Daughtercards: Stripline                         !
! Layer Connections:                          	    !
!  Backplane: Layer 16, counterbored(1-6mil stub)   !
!  Daughtercard: Layer 9, counterbored(1-6mil stub) !
! Freq. Range: 0 GHz - 40 GHz                	    !
! Note1: non-mixed-mode s-parameters          	    ! 
! Note2: channel includes 2.92mm test points   	    !
!!!!!!!!!!!!!!!!!!!!!!!!!!!!!!!!!!!!!!!!!!!!!!!!!!!!!
!
! Created Thu Jul 21 14:47:32 2016
# hz S ma R 50
! 4 Port Network Data from SP1.SP block
! freq  magS11  angS11  magS12  angS12  magS13  angS13  magS14  angS14  
!       magS21  angS21  magS22  angS22  magS23  angS23  magS24  angS24  
!       magS31  angS31  magS32  angS32  magS33  angS33  magS34  angS34  
!       magS41  angS41  magS42  angS42  magS43  angS43  magS44  angS44  
!     
                 0      0.0290568631   -1.14310951e-027    6.48377724e-005                180      0.00183520298   -9.29808257e-027     0.000421666367                180
                  6.48377724e-005                180       0.0283572238   -1.26393074e-029    2.54469152e-005   -8.75888135e-022      0.00173089536   -2.89142635e-027
                    0.00183520298   -9.29808253e-027    2.54469152e-005   -8.75888135e-022       0.0281243358    -3.1089177e-028     0.000262658692                180
                   0.000421666367                180      0.00173089536    -2.8914264e-027     0.000262658692                180       0.0283288639   -2.31984632e-027

          10000000      0.0529263176         21.0842392     0.000228241536        0.137983641       0.0340417958         67.1580687     0.000269693849         69.1884621
                   0.000228241536        0.137983641       0.0563738589         26.2342142     0.000103284823        -147.195739       0.0327986467         67.3152285
                     0.0340417958         67.1580687     0.000103284823        -147.195739        0.055004247         20.5669698     0.000118319068            82.6926
                   0.000269693849         69.1884621       0.0327986467         67.3152285     0.000118319068            82.6926       0.0553927167         26.8789248

          20000000       0.067212198         10.9682626    8.07548021e-005         136.359041       0.0645675686         50.2523223     0.000138186702         90.3386862
                  8.07548021e-005         136.359041       0.0768004351         16.9332588    8.68841088e-005         125.745605       0.0619412399         50.1667548
                     0.0645675686         50.2523223    8.68841088e-005         125.745605       0.0674040897         9.97569054     0.000123967679         122.624552
                   0.000138186702         90.3386862       0.0619412399         50.1667548     0.000123967679         122.624552       0.0764130143         15.2582092

          30000000      0.0795769203         -2.1957409    1.46810372e-005        -11.7163274       0.0896311682           32.21318    2.06096741e-005         -176.66869
                  1.46810372e-005        -11.7163274       0.0969033433         3.27067462     0.000106315156         -159.18411       0.0858900846         32.4165762
                     0.0896311682           32.21318     0.000106315156         -159.18411       0.0795095377        -3.92538222    7.07225627e-005         2.06840013
                  2.06096741e-005         -176.66869       0.0858900846         32.4165762    7.07225627e-005         2.06840013       0.0947329722         2.72030688

          40000000      0.0851212446        -16.8123734    3.99249915e-005          132.65757        0.107897432         14.3539074    3.51720392e-005         113.899834
                  3.99249915e-005          132.65757        0.108829955        -11.6530958    3.39142337e-005         150.771029         0.10347882         14.7444684
                      0.107897432         14.3539074    3.39142337e-005         150.771029       0.0853307699        -17.8540332    8.08993182e-005        -166.855992
                  3.51720392e-005         113.899834         0.10347882         14.7444684    8.08993182e-005        -166.855992         0.10581493        -11.4716538

          50000000      0.0871585811        -30.6892708    4.10191749e-005        -18.2070482        0.118575366        -3.31996637    5.15214983e-005        -176.897854
                  4.10191749e-005        -18.2070482        0.114932125        -26.6450524    6.28020121e-005         153.775597        0.113583616         -2.8007426
                      0.118575366        -3.31996637    6.28020121e-005         153.775597       0.0863544656        -32.1718544    4.78074437e-005         151.486784
                  5.15214983e-005        -176.897854        0.113583616         -2.8007426    4.78074437e-005         151.486784        0.111925731        -25.7279724

          60000000      0.0837854658         -43.743702    7.46980675e-005         150.931572        0.121575735        -21.1540792    3.37635923e-005         117.787534
                  7.46980675e-005         150.931572        0.114289499        -39.9438766     0.000105157996         166.352263        0.116353285        -20.5119462
                      0.121575735        -21.1540792     0.000105157996         166.352263       0.0825625859        -45.4351536    7.12480212e-005         163.294787
                  3.37635923e-005         117.787534        0.116353285        -20.5119462    7.12480212e-005         163.294787        0.112701522        -39.4730364

          70000000      0.0776088722         -56.897145    2.03268703e-005         101.239869        0.116747186        -38.6260679    6.10391459e-005         98.0208696
                  2.03268703e-005         101.239869        0.109369762        -53.3660506     0.000124100858         127.151116        0.111547491        -37.8425993
                      0.116747186        -38.6260679     0.000124100858         127.151116       0.0770207546        -59.1061178     3.6476653e-005         20.0012006
                  6.10391459e-005         98.0208696        0.111547491        -37.8425993     3.6476653e-005         20.0012006        0.108950171        -52.8217926

          80000000       0.067888241        -68.1173634    2.74991419e-005         129.880859        0.105002469        -55.7365987    3.09129572e-005        -166.930168
                  2.74991419e-005         129.880859        0.100744849        -66.2390114     0.000227770527         95.0029439        0.100114317        -54.8899464
                      0.105002469        -55.7365987     0.000227770527         95.0029439        0.068694339        -71.6203696    7.24223273e-005         25.4672086
                  3.09129572e-005        -166.930168        0.100114317        -54.8899464    7.24223273e-005         25.4672086        0.101094459        -66.1638924

          90000000      0.0572174226        -77.1517602    1.80755682e-005         171.015285       0.0875518032        -72.4262494    3.63149276e-005         102.178689
                  1.80755682e-005         171.015285       0.0897331758        -77.6947822     0.000131639297         82.9576167        0.083100343        -71.3858153
                     0.0875518032        -72.4262494     0.000131639297         82.9576167        0.058371046        -83.2764636     0.000113202362         94.8820607
                  3.63149276e-005         102.178689        0.083100343        -71.3858153     0.000113202362         94.8820607        0.090665944        -77.9386932

         100000000      0.0472915641         -84.022536    3.12425171e-005        -101.388948       0.0661658028        -88.0344567    4.97592883e-005        -10.7359537
                  3.12425171e-005        -101.388948       0.0772998448        -88.3901756     0.000163963481         71.7929615       0.0623475678        -86.9329853
                     0.0661658028        -88.0344567     0.000163963481         71.7929615       0.0478920858        -92.1828986    3.65085542e-005         11.5748995
                  4.97592883e-005        -10.7359537       0.0623475678        -86.9329853    3.65085542e-005         11.5748995       0.0783198183        -88.6547098

         110000000      0.0375515331         -87.850677    7.63093794e-005        -74.5191507       0.0428798508        -101.151828    4.31295823e-005        -131.977641
                  7.63093794e-005        -74.5191507       0.0647857521        -97.2053046     0.000197831961         42.7938512       0.0396091972        -99.6972772
                     0.0428798508        -101.151828     0.000197831961         42.7938512       0.0380996361        -98.9510814    5.82894225e-005         45.3729429
                  4.31295823e-005        -131.977641       0.0396091972        -99.6972772    5.82894225e-005         45.3729429       0.0659186501        -97.0876828

         120000000      0.0300812514        -84.3706126    4.74695093e-005         82.7265461       0.0202756779        -103.699149    2.07490537e-005         46.5985125
                  4.74695093e-005         82.7265461       0.0535651393         -103.73379     0.000185786562         15.4810412       0.0179383626        -99.6829524
                     0.0202756779        -103.699149     0.000185786562         15.4810412       0.0288552819        -99.4312808     0.000111245056          54.716146
                  2.07490537e-005         46.5985125       0.0179383626        -99.6829524     0.000111245056          54.716146       0.0546283069         -103.20113

         130000000      0.0273351619        -77.0081618    4.10182414e-005         19.3696664       0.0104158797        -34.7492822    3.56641718e-005        -99.3445939
                  4.10182414e-005         19.3696664       0.0435393934        -106.895076      0.00017993479         11.2486526       0.0110932031         -24.016261
                     0.0104158797        -34.7492822      0.00017993479         11.2486526       0.0234436813          -92.96488    2.11087228e-005         -44.533594
                  3.56641718e-005        -99.3445939       0.0110932031         -24.016261    2.11087228e-005         -44.533594       0.0461572558        -105.902946

         140000000      0.0280576229         -71.665124    2.46873485e-005        -46.3474236       0.0250740207        -8.25812192     1.9327193e-005         145.695268
                  2.46873485e-005        -46.3474236       0.0363616914        -104.066832     0.000184436329         1.71302962       0.0261850967        -5.65480036
                     0.0250740207        -8.25812192     0.000184436329         1.71302962       0.0215817682        -83.3287158    6.39527097e-005        -11.4477602
                   1.9327193e-005         145.695268       0.0261850967        -5.65480036    6.39527097e-005        -11.4477602       0.0413237548        -106.307454

         150000000      0.0307781577        -68.8967186    5.83411706e-005        -73.2620492       0.0390291263        -17.1438486    5.47604317e-005         8.97458802
                  5.83411706e-005        -73.2620492       0.0344483004        -97.0887296     0.000208707844        -18.4648715        0.039446742        -15.5551399
                     0.0390291263        -17.1438486     0.000208707844        -18.4648715       0.0229753329         -75.454423     2.7959614e-005         7.95749617
                  5.47604317e-005         8.97458802        0.039446742        -15.5551399     2.7959614e-005         7.95749617       0.0395088673        -104.185274

         160000000      0.0351829452        -72.1576102    7.84651203e-006        -31.2171579       0.0484696516        -30.9043875    2.26065952e-005        -34.9970558
                  7.84651203e-006        -31.2171579       0.0377580508        -91.6776914     0.000248651674        -43.5539924       0.0482278895        -29.7495403
                     0.0484696516        -30.9043875     0.000248651674        -43.5539924       0.0250638253        -73.9444632    5.67955893e-005        -6.93848844
                  2.26065952e-005        -34.9970558       0.0482278895        -29.7495403    5.67955893e-005        -6.93848844       0.0405124419        -105.473736

         170000000      0.0387574644        -78.9873228    7.70657252e-005        -33.8215954       0.0529407941        -46.1635393     3.5046672e-005        -79.6393706
                  7.70657252e-005        -33.8215954       0.0440106532         -91.748214      0.00027143966        -55.9948207       0.0520277657        -45.2458581
                     0.0529407941        -46.1635393      0.00027143966        -55.9948207       0.0275920417        -74.6598212    7.39054147e-005        -116.322435
                   3.5046672e-005        -79.6393706       0.0520277657        -45.2458581    7.39054147e-005        -116.322435       0.0425712362        -107.842306

         180000000      0.0410688298        -85.9199256    6.20167566e-005        -95.5649285       0.0527129391        -61.8746195    2.62669643e-005        -133.016562
                  6.20167566e-005        -95.5649285        0.050933433        -96.7674352     0.000268957653        -84.3572736       0.0510137968        -61.1727603
                     0.0527129391        -61.8746195     0.000268957653        -84.3572736       0.0306440501        -78.2263518    7.67122134e-005         -90.570444
                  2.62669643e-005        -133.016562       0.0510137968        -61.1727603    7.67122134e-005         -90.570444        0.045052298        -112.442008

         190000000      0.0429325714        -93.6557744    3.59617214e-005        -140.265252       0.0486060857        -77.4506986    3.06496011e-005        -146.466811
                  3.59617214e-005        -140.265252       0.0568475344        -103.957462     0.000249056552        -101.726499       0.0460278831        -77.0266264
                     0.0486060857        -77.4506986     0.000249056552        -101.726499       0.0333382143        -84.1621214    2.13468806e-005         173.125723
                  3.06496011e-005        -146.466811       0.0460278831        -77.0266264    2.13468806e-005         173.125723        0.046382471         -118.03817

         200000000      0.0443227271        -102.475256    2.87897043e-005        -143.248362       0.0415370434        -92.7696469    2.98799264e-005        -148.611567
                  2.87897043e-005        -143.248362       0.0604547275        -112.162794     0.000283712459        -105.182056       0.0380272493        -92.5772169
                     0.0415370434        -92.7696469     0.000283712459        -105.182056       0.0358154658        -92.1563022    2.60954751e-005         146.563961
                  2.98799264e-005        -148.611567       0.0380272493        -92.5772169    2.60954751e-005         146.563961       0.0474307692        -124.108732

         210000000      0.0435280735        -111.339756    6.58087301e-005         169.303168       0.0328332307        -107.062446    2.28404149e-005          142.19964
                  6.58087301e-005         169.303168       0.0626960896        -120.539984      0.00031396319        -137.918552       0.0283142337        -107.297864
                     0.0328332307        -107.062446      0.00031396319        -137.918552       0.0377463898          -101.7485    6.65623557e-005        -97.9595029
                  2.28404149e-005          142.19964       0.0283142337        -107.297864    6.65623557e-005        -97.9595029       0.0477679833        -130.148042

         220000000      0.0430339904        -120.856878    7.16309068e-005        -116.044235       0.0238501244        -120.179682     4.6737546e-005         135.133848
                  7.16309068e-005        -116.044235       0.0636081463        -129.699086     0.000271018849        -143.549905       0.0184257799        -119.801081
                     0.0238501244        -120.179682     0.000271018849        -143.549905       0.0389521991        -113.893404     3.6912068e-005        -164.066724
                   4.6737546e-005         135.133848       0.0184257799        -119.801081     3.6912068e-005        -164.066724       0.0485804796        -136.012404

         230000000      0.0409911153         -131.50471    7.61846571e-005        -177.037082       0.0158224678        -131.040001    4.20994529e-005         133.639134
                  7.61846571e-005        -177.037082       0.0636458698        -139.611458     0.000331328404        -165.986821      0.00954609808        -126.189693
                     0.0158224678        -131.040001     0.000331328404        -165.986821       0.0386357314        -127.725696    6.71557856e-005        -170.306994
