! TE Connectivity
! H11H12-G14G15_FEXT
!!
!! PART DESCRIPTION: Whisper 27in Megtron 6 HVLP-HVLP-HVLP Channel Model, bulkhead 2.92mm test points
!! 
!! MODEL DESCRIPTION: System 4-port S-parameter
!! MODEL STATUS: Measured
!! MODEL GEOMETRY: Channel Model
!! MODEL FREQUENCY RANGE: DC to 40 GHz in 10 MHz frequency steps
!! MODEL EDGE RATE LIMITATION: 12.5 ps (Using conservative 0.5/Fmax rule of thumb)
!! 
!! TIME-DOMAIN TRANSFORM CAUTIONS: 
!! 1.) Do not simulate transient edge rates faster than the number listed above.  Edge
!!     rates faster than this number contain significant spectral content at frequencies
!!     above the model's highest frequency.
!! 2.) Even when simulating edge rates that are slower than the number listed above, be
!!     aware that the best time resolution possible with a direct iFFT is (1 / 2Fmax).
!!     As a result, time resolution is typically not adequate for most time-domain
!!     simulations unless tricks such as frequency-domain zero-padding and windowing are
!!     used to minimize leakage and aliasing. 
!! 3.) Because the model has a uniform frequency step, a direct iFFT will result in an
!!     impulse that that has a time length given by either (1 / Fstep) or (1 / 2Fstep),
!!     depending on the transform being used.  Care has been taken in selecting the
!!     frequency step to ensure a settled impulse response for the model.  Therefore,
!!     convolution with the model's impulse response should present no issues.  However,
!!     if directly concatenating s-parameter models in the frequency domain a user must
!!     either interpolate necessary interim frequencies or complete impulse response 
!!     zero-padding.  Impulse response zero-padding is more difficult, but more accurate. 
!!    
!! 
!! PORT DEFINITIONS: 
!! Port   1  ----->  Side A     H11            G14     Side B  <-----  Port   2
!! Port   3  ----->  Side A     H12            G15     Side B  <-----  Port   4
!! 
!!!!!!!!!!!!!!!!!!!!!!!!!!!!!!!!!!!!!!!!!!!!!!!!!!!!!!!!!!!!!!!!!!!!!!!!!!!!!!!!!!!!!!!!!!!!!!!!!!!!!!!!!!!!!!!!!!!!!!!!
!!!!!!!!!!!!!!!!!!!!!!!!!!!!!!!!!!!!!!!!!!!!!!!!!!!!!
! Point-to-Point link (differential)                !
! Connectors:                                       !
!   1: STRADA Whisper 3.9mm                         !
! Materials:                                        !
!  Backplane: Megtron-6 HVLP			    !
!  Daughtercard: Megtron-6 HVLP		            !
! Stack-up:					    !
!  Backplane: 20 layers, 190mil thick	            !
!  Daughtercard: 14 layers, 110mil thick	    !
! Trace Length:  		                    !
!  Backplane: 17in                                !
!  Daughtercards: 5in                               !
! Trace Width:                                      !
!  Backplane: 5.75-6.25-5.75 mils                   !
!  Daughtercards: 6-9-6 mils                        !
! Geometry:                                         !
!  Backplane: Stripline				    !
!  Daughtercards: Stripline                         !
! Layer Connections:                          	    !
!  Backplane: Layer 16, counterbored(1-6mil stub)   !
!  Daughtercard: Layer 9, counterbored(1-6mil stub) !
! Freq. Range: 0 GHz - 40 GHz                	    !
! Note1: non-mixed-mode s-parameters          	    ! 
! Note2: channel includes 2.92mm test points   	    !
!!!!!!!!!!!!!!!!!!!!!!!!!!!!!!!!!!!!!!!!!!!!!!!!!!!!!
!
! Created Thu Jul 21 14:49:16 2016
# hz S ma R 50
! 4 Port Network Data from SP1.SP block
! freq  magS11  angS11  magS12  angS12  magS13  angS13  magS14  angS14  
!       magS21  angS21  magS22  angS22  magS23  angS23  magS24  angS24  
!       magS31  angS31  magS32  angS32  magS33  angS33  magS34  angS34  
!       magS41  angS41  magS42  angS42  magS43  angS43  magS44  angS44  
!     
                 0      0.0302115932    4.92392658e-029      0.00017506985                180      0.00166040281    3.20584991e-027     0.000235619322   -5.05683656e-023
                    0.00017506985                180       0.0283572238   -9.66748699e-029    6.34857082e-005   -1.87074554e-022      0.00173089536    4.29691836e-027
                    0.00166040281    3.20584991e-027    6.34857082e-005   -1.87074554e-022       0.0315191067   -3.26556694e-036     0.000369837354    3.11476308e-031
                   0.000235619322   -5.05683656e-023      0.00173089536    4.29691836e-027     0.000369837354    3.11476308e-031       0.0283288639   -5.09300069e-036

          10000000      0.0582621972         26.9799804      0.00025251424         131.731134       0.0328055345         67.1868015     0.000263351595        -160.557972
                    0.00025251424         131.731134       0.0563738589         26.2342142     0.000187745181        -43.2077461       0.0327986467         67.3152285
                     0.0328055345         67.1868015     0.000187745181        -43.2077461       0.0626420633         23.9046818     0.000224909198         -126.57633
                   0.000263351595        -160.557972       0.0327986467         67.3152285     0.000224909198         -126.57633       0.0553927167         26.8789248

          20000000      0.0808582197         18.0290778     0.000142872227        -29.0980634       0.0617256798         49.9704451     0.000146734539        -64.5090658
                   0.000142872227        -29.0980634       0.0768004351         16.9332588      0.00016520788         139.802394       0.0619412399         50.1667548
                     0.0617256798         49.9704451      0.00016520788         139.802394       0.0807435477         14.9784966     0.000114458588         49.1048134
                   0.000146734539        -64.5090658       0.0619412399         50.1667548     0.000114458588         49.1048134       0.0764130143         15.2582092

          30000000       0.100137457          4.3264034    3.41469904e-005         161.345686       0.0855325281          32.326946    7.55679264e-005         137.324313
                  3.41469904e-005         161.345686       0.0969033433         3.27067462    9.46363557e-005         -154.89746       0.0858900846         32.4165762
                     0.0855325281          32.326946    9.46363557e-005         -154.89746       0.0980564374         1.61100524    2.58324878e-005         130.325149
                  7.55679264e-005         137.324313       0.0858900846         32.4165762    2.58324878e-005         130.325149       0.0947329722         2.72030688

          40000000       0.111675434        -9.58826254    2.45991483e-005         114.474779        0.103001918         14.5557433     0.000100681567          178.32663
                  2.45991483e-005         114.474779        0.108829955        -11.6530958    1.90336876e-005        -159.332569         0.10347882         14.7444684
                      0.103001918         14.5557433    1.90336876e-005        -159.332569        0.107916201        -12.6021016    7.42682993e-005         116.877912
                   0.000100681567          178.32663         0.10347882         14.7444684    7.42682993e-005         116.877912         0.10581493        -11.4716538

          50000000       0.116670293        -24.7683338    2.88252777e-005        -50.7867447        0.113159356        -2.99652288    4.07789382e-005          87.163092
                  2.88252777e-005        -50.7867447        0.114932125        -26.6450524    5.16803282e-005          112.86739        0.113583616         -2.8007426
                      0.113159356        -2.99652288    5.16803282e-005          112.86739        0.112239711        -26.6762664    3.24213333e-005        -33.8990029
                  4.07789382e-005          87.163092        0.113583616         -2.8007426    3.24213333e-005        -33.8990029        0.111925731        -25.7279724

          60000000       0.114071665        -38.7647196    5.46959265e-005         19.9538198        0.116216839        -20.6755649    8.18510922e-005        -97.5794002
                  5.46959265e-005         19.9538198        0.114289499        -39.9438766    2.40483696e-005         6.67681206        0.116353285        -20.5119462
                      0.116216839        -20.6755649    2.40483696e-005         6.67681206        0.111100722        -40.5615292     0.000116902601          19.676187
                  8.18510922e-005        -97.5794002        0.116353285        -20.5119462     0.000116902601          19.676187        0.112701522        -39.4730364

          70000000       0.106652261        -52.5392644    4.85354456e-005        -53.5574419        0.111729342        -38.0662239    3.21463723e-005        -128.284701
                  4.85354456e-005        -53.5574419        0.109369762        -53.3660506    1.72712185e-005        -132.133339        0.111547491        -37.8425993
                      0.111729342        -38.0662239    1.72712185e-005        -132.133339        0.104324537         -54.504726    4.06047666e-005        -15.5372055
                  3.21463723e-005        -128.284701        0.111547491        -37.8425993    4.06047666e-005        -15.5372055        0.108950171        -52.8217926

          80000000      0.0941747671        -65.2740908    3.22664876e-005         39.8733364        0.100649557         -55.132155    1.95201284e-005         143.489585
                  3.22664876e-005         39.8733364        0.100744849        -66.2390114    9.51867542e-005         67.1890606        0.100114317        -54.8899464
                      0.100649557         -55.132155    9.51867542e-005         67.1890606       0.0942110515        -67.9577916     0.000111885321         11.5926831
                  1.95201284e-005         143.489585        0.100114317        -54.8899464     0.000111885321         11.5926831        0.101094459        -66.1638924

          90000000      0.0788156461        -76.9471604    1.06930741e-005         23.5187857       0.0841553616        -71.8644808    5.97341177e-005         3.91691511
                  1.06930741e-005         23.5187857       0.0897331758        -77.6947822    9.92605594e-005         37.8704173        0.083100343        -71.3858153
                     0.0841553616        -71.8644808    9.92605594e-005         37.8704173       0.0791081234        -80.8845994    2.43121414e-005         6.04794495
                  5.97341177e-005         3.91691511        0.083100343        -71.3858153    2.43121414e-005         6.04794495        0.090665944        -77.9386932

         100000000      0.0618728291        -86.0378998    2.21956638e-005         97.8279911       0.0636545447        -87.4995511    1.91254246e-005         162.344646
                  2.21956638e-005         97.8279911       0.0772998448        -88.3901756    7.25580435e-005        -155.725701       0.0623475678        -86.9329853
                     0.0636545447        -87.4995511    7.25580435e-005        -155.725701       0.0632273836        -91.8646444    3.12003521e-005        -64.1199638
                  1.91254246e-005         162.344646       0.0623475678        -86.9329853    3.12003521e-005        -64.1199638       0.0783198183        -88.6547098

         110000000      0.0458949565        -91.3883488    7.23457172e-005        -134.077753       0.0411665152        -100.766091    4.19177058e-005         -41.786431
                  7.23457172e-005        -134.077753       0.0647857521        -97.2053046    3.88696668e-005         122.957151       0.0396091972        -99.6972772
                     0.0411665152        -100.766091    3.88696668e-005         122.957151         0.04726386        -99.4659342    7.57555532e-005         64.4217116
                  4.19177058e-005         -41.786431       0.0396091972        -99.6972772    7.57555532e-005         64.4217116       0.0659186501        -97.0876828

         120000000      0.0323673271        -86.8418144     0.000113647573         -42.015638       0.0194619257        -103.125398    5.90990224e-005         16.6294359
                   0.000113647573         -42.015638       0.0535651393         -103.73379    6.41141013e-005        -56.0415748       0.0179383626        -99.6829524
                     0.0194619257        -103.125398    6.41141013e-005        -56.0415748       0.0333389851        -100.323386    6.69325128e-005        -67.2356626
                  5.90990224e-005         16.6294359       0.0179383626        -99.6829524    6.69325128e-005        -67.2356626       0.0546283069         -103.20113

         130000000      0.0265655669         -70.130461    2.47075524e-005         49.0165275      0.00995197816         -33.226713    1.84009709e-005        -163.921628
                  2.47075524e-005         49.0165275       0.0435393934        -106.895076    5.14161942e-005         49.1314787       0.0110932031         -24.016261
                    0.00995197816         -33.226713    5.14161942e-005         49.1314787       0.0253925973        -90.7255416    4.37264603e-006         115.070902
                  1.84009709e-005        -163.921628       0.0110932031         -24.016261    4.37264603e-006         115.070902       0.0461572558        -105.902946

         140000000      0.0301691442        -54.5031364    3.13155085e-005        -117.858008       0.0243527944        -7.46927564    4.32692259e-005        -1.79131679
                  3.13155085e-005        -117.858008       0.0363616914        -104.066832    6.33232917e-005         -20.983966       0.0261850967        -5.65480036
                     0.0243527944        -7.46927564    6.33232917e-005         -20.983966       0.0237941426        -76.8756874    5.31267211e-005        -21.7251051
                  4.32692259e-005        -1.79131679       0.0261850967        -5.65480036    5.31267211e-005        -21.7251051       0.0413237548        -106.307454

         150000000      0.0378290607        -52.8032232     3.7421991e-005        -64.4064156       0.0377782566        -16.3960336     1.4737592e-005         148.245982
                   3.7421991e-005        -64.4064156       0.0344483004        -97.0887296    6.48692211e-005         37.9770508        0.039446742        -15.5551399
                     0.0377782566        -16.3960336    6.48692211e-005         37.9770508       0.0267590366        -71.2504052     6.6694324e-005        -61.1672532
                   1.4737592e-005         148.245982        0.039446742        -15.5551399     6.6694324e-005        -61.1672532       0.0395088673        -104.185274

         160000000      0.0457451617        -58.7254128    1.55666426e-005         53.3981142       0.0468817347        -30.4327521    6.72749267e-005         86.3171801
                  1.55666426e-005         53.3981142       0.0377580508        -91.6776914    2.22841565e-005        -153.167483       0.0482278895        -29.7495403
                     0.0468817347        -30.4327521    2.22841565e-005        -153.167483       0.0290244701        -73.2720598    2.96180412e-005          12.542416
                  6.72749267e-005         86.3171801       0.0482278895        -29.7495403    2.96180412e-005          12.542416       0.0405124419        -105.473736

         170000000      0.0513116382        -68.3724172    2.36410517e-005        -93.0395997       0.0511439078        -45.6991037    7.41220894e-005        -54.9164072
                  2.36410517e-005        -93.0395997       0.0440106532         -91.748214    2.09824427e-005        -100.913765       0.0520277657        -45.2458581
                     0.0511439078        -45.6991037    2.09824427e-005        -100.913765       0.0310535836        -76.1459932    7.18205341e-005        -94.9395019
                  7.41220894e-005        -54.9164072       0.0520277657        -45.2458581    7.18205341e-005        -94.9395019       0.0425712362        -107.842306

         180000000      0.0537665225         -79.033298    2.82806686e-005      -0.0592615189        0.050843663         -61.369712    5.39022205e-005        -148.420345
                  2.82806686e-005      -0.0592615189        0.050933433        -96.7674352    3.42145095e-005        -58.2249437       0.0510137968        -61.1727603
                      0.050843663         -61.369712    3.42145095e-005        -58.2249437       0.0318158698        -80.8459898    4.29158775e-005        -104.565545
                  5.39022205e-005        -148.420345       0.0510137968        -61.1727603    4.29158775e-005        -104.565545        0.045052298        -112.442008

         190000000      0.0534452569        -89.7184392    3.37710337e-005        -36.8368332       0.0466997702        -76.9868707    5.87699021e-006        -125.800074
                  3.37710337e-005        -36.8368332       0.0568475344        -103.957462    4.20903178e-005        -131.527569       0.0460278831        -77.0266264
                     0.0466997702        -76.9868707    4.20903178e-005        -131.527569        0.033004688         -85.169461    4.88763907e-005        -68.4984404
                  5.87699021e-006        -125.800074       0.0460278831        -77.0266264    4.88763907e-005        -68.4984404        0.046382471         -118.03817

         200000000      0.0507542941        -99.3392422    2.29038821e-005        -54.6814126       0.0396802033        -92.1738248    3.20077605e-005         8.54735017
                  2.29038821e-005        -54.6814126       0.0604547275        -112.162794    7.34712478e-006        -161.958308       0.0380272493        -92.5772169
                     0.0396802033        -92.1738248    7.34712478e-006        -161.958308       0.0339974633        -89.7834904    2.56606361e-005         178.475424
                  3.20077605e-005         8.54735017       0.0380272493        -92.5772169    2.56606361e-005         178.475424       0.0474307692        -124.108732

         210000000      0.0467343994        -107.179576    3.94826081e-005        -11.4156536       0.0310555427        -106.254522    6.82400376e-005         100.025823
                  3.94826081e-005        -11.4156536       0.0626960896        -120.539984    7.71822499e-005         -117.90844       0.0283142337        -107.297864
                     0.0310555427        -106.254522    7.71822499e-005         -117.90844        0.034659436        -95.8879978     5.3066429e-005        -92.1738013
                  6.82400376e-005         100.025823       0.0283142337        -107.297864     5.3066429e-005        -92.1738013       0.0477679833        -130.148042

         220000000      0.0425081536        -113.698636    1.16588857e-005        -31.2407262       0.0221447139        -118.597659    2.22188598e-005        -68.9543645
                  1.16588857e-005        -31.2407262       0.0636081463        -129.699086    7.07658423e-005         115.618077       0.0184257799        -119.801081
                     0.0221447139        -118.597659    7.07658423e-005         115.618077       0.0345860735        -104.194588    4.97346198e-005        -114.112966
                  2.22188598e-005        -68.9543645       0.0184257799        -119.801081    4.97346198e-005        -114.112966       0.0485804796        -136.012404

         230000000      0.0391944403        -119.596614    2.63904433e-005         174.730811       0.0142047632        -126.697365    3.13868273e-005        -146.926594
                  2.63904433e-005         174.730811       0.0636458698        -139.611458    3.33224678e-005         141.199396      0.00954609808        -126.189693
                     0.0142047632        -126.697365    3.33224678e-005         141.199396       0.0334663667        -114.957728    2.59027065e-005         93.5305621
