! TE Connectivity
! H17H18-G14G15_NEXT
!!
!! PART DESCRIPTION: Whisper 27in Megtron 6 HVLP-HVLP-HVLP Channel Model, bulkhead 2.92mm test points
!! 
!! MODEL DESCRIPTION: System 4-port S-parameter
!! MODEL STATUS: Measured
!! MODEL GEOMETRY: Channel Model
!! MODEL FREQUENCY RANGE: DC to 40 GHz in 10 MHz frequency steps
!! MODEL EDGE RATE LIMITATION: 12.5 ps (Using conservative 0.5/Fmax rule of thumb)
!! 
!! TIME-DOMAIN TRANSFORM CAUTIONS: 
!! 1.) Do not simulate transient edge rates faster than the number listed above.  Edge
!!     rates faster than this number contain significant spectral content at frequencies
!!     above the model's highest frequency.
!! 2.) Even when simulating edge rates that are slower than the number listed above, be
!!     aware that the best time resolution possible with a direct iFFT is (1 / 2Fmax).
!!     As a result, time resolution is typically not adequate for most time-domain
!!     simulations unless tricks such as frequency-domain zero-padding and windowing are
!!     used to minimize leakage and aliasing. 
!! 3.) Because the model has a uniform frequency step, a direct iFFT will result in an
!!     impulse that that has a time length given by either (1 / Fstep) or (1 / 2Fstep),
!!     depending on the transform being used.  Care has been taken in selecting the
!!     frequency step to ensure a settled impulse response for the model.  Therefore,
!!     convolution with the model's impulse response should present no issues.  However,
!!     if directly concatenating s-parameter models in the frequency domain a user must
!!     either interpolate necessary interim frequencies or complete impulse response 
!!     zero-padding.  Impulse response zero-padding is more difficult, but more accurate. 
!!    
!! 
!! PORT DEFINITIONS: 
!! Port   1  ----->  Side A     H17            G14     Side B  <-----  Port   2
!! Port   3  ----->  Side A     H18            G15     Side B  <-----  Port   4
!! 
!!!!!!!!!!!!!!!!!!!!!!!!!!!!!!!!!!!!!!!!!!!!!!!!!!!!!!!!!!!!!!!!!!!!!!!!!!!!!!!!!!!!!!!!!!!!!!!!!!!!!!!!!!!!!!!!!!!!!!!!
!!!!!!!!!!!!!!!!!!!!!!!!!!!!!!!!!!!!!!!!!!!!!!!!!!!!!
! Point-to-Point link (differential)                !
! Connectors:                                       !
!   1: STRADA Whisper 3.9mm                         !
! Materials:                                        !
!  Backplane: Megtron-6 HVLP			    !
!  Daughtercard: Megtron-6 HVLP		            !
! Stack-up:					    !
!  Backplane: 20 layers, 190mil thick	            !
!  Daughtercard: 14 layers, 110mil thick	    !
! Trace Length:  		                    !
!  Backplane: 17in                                !
!  Daughtercards: 5in                               !
! Trace Width:                                      !
!  Backplane: 5.75-6.25-5.75 mils                   !
!  Daughtercards: 6-9-6 mils                        !
! Geometry:                                         !
!  Backplane: Stripline				    !
!  Daughtercards: Stripline                         !
! Layer Connections:                          	    !
!  Backplane: Layer 16, counterbored(1-6mil stub)   !
!  Daughtercard: Layer 9, counterbored(1-6mil stub) !
! Freq. Range: 0 GHz - 40 GHz                	    !
! Note1: non-mixed-mode s-parameters          	    ! 
! Note2: channel includes 2.92mm test points   	    !
!!!!!!!!!!!!!!!!!!!!!!!!!!!!!!!!!!!!!!!!!!!!!!!!!!!!!
!
! Created Thu Jul 21 15:04:10 2016
# hz S ma R 50
! 4 Port Network Data from SP1.SP block
! freq  magS11  angS11  magS12  angS12  magS13  angS13  magS14  angS14  
!       magS21  angS21  magS22  angS22  magS23  angS23  magS24  angS24  
!       magS31  angS31  magS32  angS32  magS33  angS33  magS34  angS34  
!       magS41  angS41  magS42  angS42  magS43  angS43  magS44  angS44  
!     
                 0      0.0293905365   -2.93500012e-037    9.23702916e-005    -2.9017141e-023      0.00187792334    2.37085138e-028    6.85455137e-005    3.79927019e-031
                  9.23702916e-005    -2.9017141e-023       0.0246848161    1.18673184e-029    3.94321118e-005                180      0.00185617096     3.7378756e-028
                    0.00187792334     2.3708514e-028    3.94321118e-005                180       0.0320648728    2.46411191e-029     0.000182215097   -1.47533755e-023
                  6.85455137e-005    3.79927019e-031      0.00185617096    3.73787555e-028     0.000182215097   -1.47533755e-023        0.026533198   -5.08130751e-037

          10000000       0.057621321         26.5745714    5.76698319e-005        -139.091013       0.0329918012         67.0014868     0.000141215715        -31.0306597
                  5.76698319e-005        -139.091013       0.0587827171          28.217477     0.000122461091         14.6231475       0.0327334925          67.606119
                     0.0329918012         67.0014868     0.000122461091         14.6231475       0.0614182809          23.171413     0.000197232446        -144.819231
                   0.000141215715        -31.0306597       0.0327334925          67.606119     0.000197232446        -144.819231       0.0584213056         26.7355554

          20000000      0.0787003436          16.486188    4.72222116e-005         45.0648167       0.0622918994         50.0394589     0.000144693883         100.583653
                  4.72222116e-005         45.0648167       0.0774693175          16.368342    7.71968367e-005         70.5351521       0.0621234765         50.2794242
                     0.0622918994         50.0394589    7.71968367e-005         70.5351521       0.0792386247         14.3912576      9.268334e-005        -109.687692
                   0.000144693883         100.583653       0.0621234765         50.2794242      9.268334e-005        -109.687692       0.0773897566         15.3063502

          30000000      0.0960870835         2.81594328    4.88147197e-005        -170.002198       0.0863672818         32.3436264    3.26474739e-005        -113.152392
                  4.88147197e-005        -170.002198       0.0959878826         3.22541852    2.36182714e-005        -84.2586798       0.0860667408         32.5342877
                     0.0863672818         32.3436264    2.36182714e-005        -84.2586798       0.0953506071        0.862503944    5.70248693e-005         73.5548158
                  3.26474739e-005        -113.152392       0.0860667408         32.5342877    5.70248693e-005         73.5548158        0.095279334         1.64416398

          40000000       0.104867171        -11.0077068    5.25411529e-005         -54.651389        0.103890046         14.5100604     9.2348865e-005         86.8350747
                  5.25411529e-005         -54.651389        0.107528466        -11.4208158    5.02860518e-005         95.3133565         0.10353847         14.8485713
                      0.103890046         14.5100604    5.02860518e-005         95.3133565        0.104194645        -13.4799074    8.84987547e-005        -20.8979718
                   9.2348865e-005         86.8350747         0.10353847         14.8485713    8.84987547e-005        -20.8979718        0.105171653        -12.8341366

          50000000       0.107721227        -26.2554192    6.80849945e-005         40.1159913        0.114274098        -2.96568379    6.41924702e-005        -61.1241732
                  6.80849945e-005         40.1159913        0.113691446        -25.9484866      2.151671e-005        -70.7398635        0.113583693        -2.55029079
                      0.114274098        -2.96568379      2.151671e-005        -70.7398635        0.107299177         -27.963346    6.32784969e-005         146.457082
                  6.41924702e-005        -61.1241732        0.113583693        -2.55029079    6.32784969e-005         146.457082        0.110732891        -27.2068632

          60000000       0.102728047        -40.1545658      0.00012362611         157.410176        0.117285256        -20.6944181    9.87721509e-005          151.31323
                    0.00012362611         157.410176        0.113030638        -39.6979624     5.8719688e-006        -6.45279305        0.116431018        -20.1837363
                      0.117285256        -20.6944181     5.8719688e-006        -6.45279305        0.104597145        -42.0335328    6.44310288e-005        -49.3818392
                  9.87721509e-005          151.31323        0.116431018        -20.1837363    6.44310288e-005        -49.3818392        0.109798051        -41.1085412

          70000000      0.0937444727        -53.6788432    2.75446409e-005         107.487485        0.112802576        -38.0283504    3.55492145e-005         69.3196978
                  2.75446409e-005         107.487485         0.10787643        -53.2136994    1.40622747e-005          68.431942        0.111662895         -37.396406
                      0.112802576        -38.0283504    1.40622747e-005          68.431942        0.096311948        -55.9669632    1.25341214e-005         -156.23083
                  3.55492145e-005         69.3196978        0.111662895         -37.396406    1.25341214e-005         -156.23083        0.106452574        -55.1364972

          80000000       0.080325217        -65.9469028    2.69980839e-005        -34.5717566        0.101586358        -55.1991042     2.5390593e-005          129.21834
                  2.69980839e-005        -34.5717566       0.0996177902        -65.6393184    7.35854337e-005        -95.5885231        0.100097509        -54.3383522
                      0.101586358        -55.1991042    7.35854337e-005        -95.5885231       0.0848390606        -69.2507514    9.43597031e-005         -59.431209
                   2.5390593e-005          129.21834        0.100097509        -54.3383522    9.43597031e-005         -59.431209       0.0983219991        -68.2717872

          90000000        0.06460074        -76.3403234    5.84600804e-005         143.023557       0.0847905668         -71.886796    4.82899843e-005        -94.8531476
                  5.84600804e-005         143.023557       0.0888432095         -77.154651      0.00010346717         82.3863118       0.0832887334        -70.8087523
                     0.0847905668         -71.886796      0.00010346717         82.3863118       0.0691638294        -81.4640804    3.84442083e-005         165.364257
                  4.82899843e-005        -94.8531476       0.0832887334        -70.8087523    3.84442083e-005         165.364257       0.0890334666         -80.727245

         100000000      0.0482762118        -82.4566414    2.12035881e-005         156.394498        0.064053815        -87.6135393    4.56682413e-005          127.58862
                  2.12035881e-005         156.394498       0.0768609275        -88.7728584    6.65754124e-005         38.8477467       0.0624636112        -86.1340761
                      0.064053815        -87.6135393    6.65754124e-005         38.8477467       0.0534042854         -91.292604    5.53474499e-005         179.023075
                  4.56682413e-005          127.58862       0.0624636112        -86.1340761    5.53474499e-005         179.023075       0.0784317697        -92.4303828

         110000000      0.0346627967        -81.3824896    2.77020764e-005         73.1088439       0.0413414435        -100.822223    7.19461123e-005        -123.057046
                  2.77020764e-005         73.1088439       0.0644410193        -98.8814146    4.96618164e-005        -128.901273       0.0398336753        -98.7237758
                     0.0413414435        -100.822223    4.96618164e-005        -128.901273       0.0384004259        -95.8397222     0.000139393082         56.7889907
                  7.19461123e-005        -123.057046       0.0398336753        -98.7237758     0.000139393082         56.7889907       0.0668244036        -103.720454

         120000000      0.0269475198         -66.902464    1.73520125e-005        -12.4912093       0.0193712302          -103.2857    4.09403471e-005         94.4838597
                  1.73520125e-005        -12.4912093       0.0508534558        -108.801968    3.20282932e-005         24.8664392       0.0181439069        -98.9277057
                     0.0193712302          -103.2857    3.20282932e-005         24.8664392       0.0264963814        -90.7379554    6.29260401e-005         68.9399866
                  4.09403471e-005         94.4838597       0.0181439069        -98.9277057    6.29260401e-005         68.9399866       0.0548998441        -114.483232

         130000000      0.0283348012        -51.0449098    4.83699869e-005         70.1301061       0.0100357145        -31.5038253    4.63440942e-005         48.5873625
                  4.83699869e-005         70.1301061       0.0382864226        -114.294014    7.71718694e-005        -27.3603755       0.0109361479        -24.1408136
                     0.0100357145        -31.5038253    7.71718694e-005        -27.3603755       0.0221249774         -73.786297    4.89679003e-005         50.9786492
                  4.63440942e-005         48.5873625       0.0109361479        -24.1408136    4.89679003e-005         50.9786492       0.0421645986        -123.176138

         140000000      0.0347043445         -46.650391    2.81840355e-005         55.6390955       0.0247426116        -6.71313814    4.90530024e-005        -31.6868324
                  2.81840355e-005         55.6390955       0.0269649282        -111.904912    7.37290801e-005        -67.8263793       0.0258727739        -4.52556451
                     0.0247426116        -6.71313814    7.37290801e-005        -67.8263793       0.0238111022        -61.1570908    4.98381782e-005        -148.656831
                  4.90530024e-005        -31.6868324       0.0258727739        -4.52556451    4.98381782e-005        -148.656831        0.030063938        -126.852732

         150000000      0.0404905432         -52.087511    4.20794623e-005         72.0172115       0.0383756796        -15.9726719    3.81773788e-005         56.6074725
                  4.20794623e-005         72.0172115       0.0218589801        -94.6457498    1.78128433e-005        -92.8070083       0.0392339978        -14.0179008
                     0.0383756796        -15.9726719    1.78128433e-005        -92.8070083       0.0277984941        -60.5792704    9.35555094e-005         17.3468053
                  3.81773788e-005         56.6074725       0.0392339978        -14.0179008    9.35555094e-005         17.3468053       0.0201767558        -118.194754

         160000000      0.0443275433        -61.0691128    3.14253728e-006         45.2734587       0.0475458217        -29.9827787     1.8435936e-005        -45.8441304
                  3.14253728e-006         45.2734587       0.0251018622        -76.9736528    2.25947886e-005        -152.512042       0.0480319717        -27.9430544
                     0.0475458217        -29.9827787    2.25947886e-005        -152.512042       0.0296868165        -66.6609848     0.000124727068        -6.31062454
                   1.8435936e-005        -45.8441304       0.0480319717        -27.9430544     0.000124727068        -6.31062454       0.0177546672        -93.5162302

         170000000      0.0451740237        -72.1502682     2.5645922e-005        -145.010875       0.0518796423        -45.2424545    3.57208025e-005        -118.171861
                   2.5645922e-005        -145.010875       0.0333650653        -74.6872858    3.24429781e-005        -19.4491646       0.0519390359        -43.1081599
                     0.0518796423        -45.2424545    3.24429781e-005        -19.4491646       0.0301969022        -72.9902536    5.34127296e-005        -129.151029
                  3.57208025e-005        -118.171861       0.0519390359        -43.1081599    5.34127296e-005        -129.151029       0.0229998148        -76.7135246

         180000000       0.042676465        -83.0984546    7.07350975e-006        -130.324124       0.0515825304        -60.9186533     0.000111522188        -77.7603691
                  7.07350975e-006        -130.324124       0.0419671955        -80.7336852     2.2186486e-005         143.477975       0.0510561317         -58.521597
                     0.0515825304        -60.9186533     2.2186486e-005         143.477975       0.0285182818         -80.152489    4.04099969e-005         -18.063094
                   0.000111522188        -77.7603691       0.0510561317         -58.521597    4.04099969e-005         -18.063094       0.0306428126          -76.11317

         190000000      0.0380237022         -93.262102    2.02002276e-005        -11.8419424       0.0474064782        -76.5552194    2.79185937e-005         155.191694
                  2.02002276e-005        -11.8419424       0.0490853695        -90.6322254    1.02084662e-005          74.412941       0.0462597449        -73.7266039
                     0.0474064782        -76.5552194    1.02084662e-005          74.412941        0.026339288        -85.0163304    6.01344105e-005        -17.5548587
                  2.79185937e-005         155.191694       0.0462597449        -73.7266039    6.01344105e-005        -17.5548587       0.0378779523        -82.5008326

         200000000      0.0318020239        -100.800066    1.56185745e-005          50.120665       0.0403082948        -91.6313677    2.24150541e-005        -131.183905
                  1.56185745e-005          50.120665       0.0546610021         -101.51007     2.8062398e-005        -6.06601407       0.0384842962        -88.1489488
                     0.0403082948        -91.6313677     2.8062398e-005        -6.06601407       0.0241060788        -87.1172164    4.96798424e-005         132.476111
                  2.24150541e-005        -131.183905       0.0384842962        -88.1489488    4.96798424e-005         132.476111       0.0435290521         -91.920827

         210000000       0.025516898        -104.085256    3.78474988e-005         85.8988373       0.0315406585        -105.804953    1.54329157e-005        -100.581091
                  3.78474988e-005         85.8988373       0.0580447259        -113.082172    4.93621392e-005         94.5467095       0.0290857136          -101.1241
                     0.0315406585        -105.804953    4.93621392e-005         94.5467095       0.0223746488          -87.11313    9.30774004e-005         149.552716
                  1.54329157e-005        -100.581091       0.0290857136          -101.1241    9.30774004e-005         149.552716       0.0481538739        -103.190138

         220000000       0.020455367        -101.928374    9.03899685e-006        -126.801336       0.0224412202        -117.898589    4.47536317e-005         143.747104
                  9.03899685e-006        -126.801336       0.0604060369        -125.188064    1.62067087e-005        -116.359287       0.0195448513        -110.875619
                     0.0224412202        -117.898589    1.62067087e-005        -116.359287       0.0216079234        -87.8308098    5.44957207e-005        -28.6230549
                  4.47536317e-005         143.747104       0.0195448513        -110.875619    5.44957207e-005        -28.6230549       0.0507396014         -115.89966

         230000000      0.0183179795         -96.348051    5.64436777e-005        -84.2801781       0.0145101858        -125.585336    2.52384832e-005         166.503533
                  5.64436777e-005        -84.2801781        0.061543795        -138.798958    6.76489285e-005        -107.554935       0.0113724418        -112.210448
                     0.0145101858        -125.585336    6.76489285e-005        -107.554935       0.0209264716        -91.8254224     4.5988128e-005        -118.068273
