! TE Connectivity
! G17G18-G14G15_FEXT
!!
!! PART DESCRIPTION: Whisper 27in Megtron 6 HVLP-HVLP-HVLP Channel Model, bulkhead 2.92mm test points
!! 
!! MODEL DESCRIPTION: System 4-port S-parameter
!! MODEL STATUS: Measured
!! MODEL GEOMETRY: Channel Model
!! MODEL FREQUENCY RANGE: DC to 40 GHz in 10 MHz frequency steps
!! MODEL EDGE RATE LIMITATION: 12.5 ps (Using conservative 0.5/Fmax rule of thumb)
!! 
!! TIME-DOMAIN TRANSFORM CAUTIONS: 
!! 1.) Do not simulate transient edge rates faster than the number listed above.  Edge
!!     rates faster than this number contain significant spectral content at frequencies
!!     above the model's highest frequency.
!! 2.) Even when simulating edge rates that are slower than the number listed above, be
!!     aware that the best time resolution possible with a direct iFFT is (1 / 2Fmax).
!!     As a result, time resolution is typically not adequate for most time-domain
!!     simulations unless tricks such as frequency-domain zero-padding and windowing are
!!     used to minimize leakage and aliasing. 
!! 3.) Because the model has a uniform frequency step, a direct iFFT will result in an
!!     impulse that that has a time length given by either (1 / Fstep) or (1 / 2Fstep),
!!     depending on the transform being used.  Care has been taken in selecting the
!!     frequency step to ensure a settled impulse response for the model.  Therefore,
!!     convolution with the model's impulse response should present no issues.  However,
!!     if directly concatenating s-parameter models in the frequency domain a user must
!!     either interpolate necessary interim frequencies or complete impulse response 
!!     zero-padding.  Impulse response zero-padding is more difficult, but more accurate. 
!!    
!! 
!! PORT DEFINITIONS: 
!! Port   1  ----->  Side A     G17            G14     Side B  <-----  Port   2
!! Port   3  ----->  Side A     G18            G15     Side B  <-----  Port   4
!! 
!!!!!!!!!!!!!!!!!!!!!!!!!!!!!!!!!!!!!!!!!!!!!!!!!!!!!!!!!!!!!!!!!!!!!!!!!!!!!!!!!!!!!!!!!!!!!!!!!!!!!!!!!!!!!!!!!!!!!!!!
!!!!!!!!!!!!!!!!!!!!!!!!!!!!!!!!!!!!!!!!!!!!!!!!!!!!!
! Point-to-Point link (differential)                !
! Connectors:                                       !
!   1: STRADA Whisper 3.9mm                         !
! Materials:                                        !
!  Backplane: Megtron-6 HVLP			    !
!  Daughtercard: Megtron-6 HVLP		            !
! Stack-up:					    !
!  Backplane: 20 layers, 190mil thick	            !
!  Daughtercard: 14 layers, 110mil thick	    !
! Trace Length:  		                    !
!  Backplane: 17in                                !
!  Daughtercards: 5in                               !
! Trace Width:                                      !
!  Backplane: 5.75-6.25-5.75 mils                   !
!  Daughtercards: 6-9-6 mils                        !
! Geometry:                                         !
!  Backplane: Stripline				    !
!  Daughtercards: Stripline                         !
! Layer Connections:                          	    !
!  Backplane: Layer 16, counterbored(1-6mil stub)   !
!  Daughtercard: Layer 9, counterbored(1-6mil stub) !
! Freq. Range: 0 GHz - 40 GHz                	    !
! Note1: non-mixed-mode s-parameters          	    ! 
! Note2: channel includes 2.92mm test points   	    !
!!!!!!!!!!!!!!!!!!!!!!!!!!!!!!!!!!!!!!!!!!!!!!!!!!!!!
!
! Created Thu Jul 21 14:58:34 2016
# hz S ma R 50
! 4 Port Network Data from SP1.SP block
! freq  magS11  angS11  magS12  angS12  magS13  angS13  magS14  angS14  
!       magS21  angS21  magS22  angS22  magS23  angS23  magS24  angS24  
!       magS31  angS31  magS32  angS32  magS33  angS33  magS34  angS34  
!       magS41  angS41  magS42  angS42  magS43  angS43  magS44  angS44  
!     
                 0      0.0302230686    1.31137934e-028     0.000421608585   -3.94826977e-023      0.00155237784    2.37815359e-027    8.35410626e-005                180
                   0.000421608585   -3.94826977e-023       0.0286490897    2.05690779e-028     0.000161338411                180      0.00146389246    1.46525933e-027
                    0.00155237784    2.37815357e-027     0.000161338411                180       0.0295767475    -1.7675677e-029     0.000138248341   -1.20549427e-022
                  8.35410626e-005                180      0.00146389246    1.46525929e-027     0.000138248341   -1.20549427e-022       0.0280616405    2.28557515e-029

          10000000      0.0583861797         25.7819558     0.000405964027        -40.1435796       0.0328780951         67.0803894     0.000221997883          2.2072977
                   0.000405964027        -40.1435796       0.0567531685         26.3005714    4.94967372e-005         146.298975       0.0329834736         67.0579044
                     0.0328780951         67.0803894    4.94967372e-005         146.298975       0.0609288745         24.6727934     0.000138995579        -48.3019952
                   0.000221997883          2.2072977       0.0329834736         67.0579044     0.000138995579        -48.3019952       0.0561737947           27.07888

          20000000      0.0792356961          16.734608    6.92825129e-005         79.2021292       0.0617958564         50.0565928    6.67623433e-005        -165.224649
                  6.92825129e-005         79.2021292       0.0774073286          16.783814     0.000100060231        -168.519217       0.0619510266         50.2497163
                     0.0617958564         50.0565928     0.000100060231        -168.519217       0.0788266698         15.6757712    6.50549297e-005        -138.729718
                  6.67623433e-005        -165.224649       0.0619510266         50.2497163    6.50549297e-005        -138.729718       0.0770124396         14.9292712

          30000000      0.0974135366          3.5079769    4.64730208e-005        -70.7803792       0.0855016265         32.2239606     8.1936751e-005        -161.617831
                  4.64730208e-005        -70.7803792       0.0970287443         3.19645494    6.44884412e-005        -76.1272923       0.0859390893         32.3655888
                     0.0855016265         32.2239606    6.44884412e-005        -76.1272923       0.0961275696         2.37641468    6.97075904e-005         150.908028
                   8.1936751e-005        -161.617831       0.0859390893         32.3655888    6.97075904e-005         150.908028       0.0948541339         2.46357304

          40000000       0.107508586        -10.9256038     7.3215932e-005         160.800964        0.102589377         14.4926183     8.0370912e-005        -152.754847
                   7.3215932e-005         160.800964        0.108548893        -11.6594788    4.48774422e-005         162.154342        0.103313232         14.6838702
                      0.102589377         14.4926183    4.48774422e-005         162.154342        0.106755289        -11.4803278    5.62787515e-005        -28.1821186
                   8.0370912e-005        -152.754847        0.103313232         14.6838702    5.62787515e-005        -28.1821186        0.105489225        -11.7263276

          50000000       0.113755706        -25.2632356    9.32412054e-005          128.35484        0.112568611        -3.01820355     0.000117370272         165.232835
                  9.32412054e-005          128.35484        0.114201823        -26.5259664    6.26988545e-005          94.089723        0.113475719        -2.81813341
                      0.112568611        -3.01820355    6.26988545e-005          94.089723         0.11208594        -25.7484934    8.89896463e-005         171.687395
                   0.000117370272         165.232835        0.113475719        -2.81813341    8.89896463e-005         171.687395        0.111102477        -25.7982214

          60000000       0.114142395        -39.1499086    5.98378413e-005        -136.622405        0.115165255        -20.7488031    1.91053028e-005        -83.1279715
                  5.98378413e-005        -136.622405        0.113259445        -39.8301984    2.78482454e-005        -19.0798895        0.116202401        -20.5884533
                      0.115165255        -20.7488031    2.78482454e-005        -19.0798895        0.112016211        -39.7372994    6.15034198e-005         43.2434897
                  1.91053028e-005        -83.1279715        0.116202401        -20.5884533    6.15034198e-005         43.2434897        0.111660773        -39.4442154

          70000000       0.110826665        -53.5108456    3.18653924e-005          -121.8022        0.110175555        -38.0246451     0.000111054835         146.736689
                  3.18653924e-005          -121.8022        0.108244918        -53.1354104    7.98600966e-005         50.8185111        0.111465494        -37.9117216
                      0.110175555        -38.0246451    7.98600966e-005         50.8185111        0.109449471        -54.0975414    5.04302304e-005         53.6779739
                   0.000111054835         146.736689        0.111465494        -37.9117216    5.04302304e-005         53.6779739        0.107822294        -52.7677344

          80000000       0.102779275        -66.6620996    8.06542454e-006         6.42388111       0.0984983327        -54.9783649      0.00014267673          110.60432
                  8.06542454e-006         6.42388111       0.0996433575        -66.0087104    1.28709203e-005         116.655536       0.0999467214        -54.8974503
                     0.0984983327        -54.9783649    1.28709203e-005         116.655536        0.103208544        -67.8092636     0.000115980423         65.6699354
                    0.00014267673          110.60432       0.0999467214        -54.8974503     0.000115980423         65.6699354        0.100098288        -65.9656814

          90000000      0.0923104325        -79.2101324    9.69807788e-005         148.361302       0.0815454314         -71.532528     0.000157381418         83.0059241
                  9.69807788e-005         148.361302       0.0887084393         -77.521251     7.0556065e-005         65.2428534       0.0829967613        -71.4873411
                     0.0815454314         -71.532528     7.0556065e-005         65.2428534       0.0940708639        -81.5915796    5.63042995e-005         87.0414063
                   0.000157381418         83.0059241       0.0829967613        -71.4873411    5.63042995e-005         87.0414063       0.0900131973        -77.6923402

         100000000      0.0808022897        -91.0254222    5.19505412e-005          24.721354        0.060704132        -86.9579702     0.000119368334         77.0691318
                  5.19505412e-005          24.721354       0.0763497944        -88.2180484    5.71758329e-005        -94.5462173       0.0622533839        -86.9726954
                      0.060704132        -86.9579702    5.71758329e-005        -94.5462173       0.0829558203        -94.2659248     3.1573148e-005         161.017042
                   0.000119368334         77.0691318       0.0622533839        -86.9726954     3.1573148e-005         161.017042         0.07807932        -88.3473746

         110000000      0.0671504915        -101.884724    3.00495088e-005          63.600286       0.0380778836        -99.7219937     0.000164190802         48.7056776
                  3.00495088e-005          63.600286        0.063993403        -96.8703514    2.78223883e-005         173.656856       0.0395725605        -99.6649172
                     0.0380778836        -99.7219937    2.78223883e-005         173.656856       0.0704894525        -106.754534     0.000104128306           77.58346
                   0.000164190802         48.7056776       0.0395725605        -99.6649172     0.000104128306           77.58346       0.0660231828        -96.8977188

         120000000      0.0525219053         -109.32782    6.75198487e-005         64.4612006       0.0164516798        -98.5408081     0.000167290562         25.0549721
                  6.75198487e-005         64.4612006       0.0528860509          -103.3214    2.85928762e-005         101.269162       0.0178658433        -99.9640902
                     0.0164516798        -98.5408081    2.85928762e-005         101.269162       0.0562186234        -116.956252    4.28845219e-005        -1.06650058
                   0.000167290562         25.0549721       0.0178658433        -99.9640902    4.28845219e-005        -1.06650058       0.0551429747         -103.22853

         130000000      0.0400020688        -111.829334    5.56022067e-005         24.9763199       0.0114609021        -16.9782143      0.00020292479         16.3474675
                  5.56022067e-005         24.9763199        0.043234384        -106.415996    4.24281834e-005         151.499717       0.0110308083        -24.0972236
                     0.0114609021        -16.9782143    4.24281834e-005         151.499717       0.0427687808        -124.084218    2.18319416e-005        -13.8780187
                    0.00020292479         16.3474675       0.0110308083        -24.0972236    2.18319416e-005        -13.8780187        0.046871735        -106.435768

         140000000      0.0306360914        -106.392716    5.12958309e-005         73.9025128       0.0270430846        -3.44717483     0.000222219895        -9.13879702
                  5.12958309e-005         73.9025128       0.0361332583         -104.37525    4.25045373e-005        -34.3976502       0.0260764239        -5.82313113
                     0.0270430846        -3.44717483    4.25045373e-005        -34.3976502       0.0307837643        -125.865202     9.3267204e-005          76.039775
                   0.000222219895        -9.13879702       0.0260764239        -5.82313113     9.3267204e-005          76.039775        0.041737994        -107.489766

         150000000      0.0267579153        -90.5168296    1.82707547e-005        -73.2217525       0.0403264425         -13.974148     0.000253441703        -13.2886587
                  1.82707547e-005        -73.2217525       0.0338366489        -97.9956052    8.67639435e-005        -89.5043272       0.0394421812        -15.6006256
                     0.0403264425         -13.974148    8.67639435e-005        -89.5043272       0.0217660699        -115.299306    6.47644473e-005        -14.4356033
                   0.000253441703        -13.2886587       0.0394421812        -15.6006256    6.47644473e-005        -14.4356033        0.039427158        -105.619554

         160000000      0.0318998047        -77.7005216    3.08973017e-005        -17.0116676       0.0489737752        -28.2859376     0.000217477636        -45.1844583
                  3.08973017e-005        -17.0116676       0.0363299761        -92.6039672    6.74754174e-005         80.1816024       0.0481812419        -29.8968393
                     0.0489737752        -28.2859376    6.74754174e-005         80.1816024       0.0193954733        -94.3370284    8.81995436e-005         -109.00969
                   0.000217477636        -45.1844583       0.0481812419        -29.8968393    8.81995436e-005         -109.00969       0.0396579823        -106.871386

         170000000       0.040002931        -77.0498848    3.49220589e-005        -41.0572608       0.0526442569        -43.6199092     0.000266919469        -58.2548271
                  3.49220589e-005        -41.0572608       0.0416994965        -92.0809608    4.20948765e-005        -90.8984397       0.0519159307        -45.4096107
                     0.0526442569        -43.6199092    4.20948765e-005        -90.8984397       0.0239401753        -78.3266702     0.000122488747         -96.537778
                   0.000266919469        -58.2548271       0.0519159307        -45.4096107     0.000122488747         -96.537778       0.0411259654        -108.794696

         180000000      0.0480652984        -81.8205796    5.41966947e-005        -76.4171063       0.0515455724        -59.1560743     0.000262442336        -76.7937446
                  5.41966947e-005        -76.4171063       0.0482063111         -96.242425    3.44588503e-005        -30.5532649       0.0509141508        -61.2403889
                     0.0515455724        -59.1560743    3.44588503e-005        -30.5532649       0.0318206553        -77.0134702    9.89163384e-005        -61.1111243
                   0.000262442336        -76.7937446       0.0509141508        -61.2403889    9.89163384e-005        -61.1111243       0.0433422142        -112.590368

         190000000      0.0559125718        -90.0224492    6.20477442e-005        -139.223721       0.0465807914        -74.3999286      0.00023597805        -89.3596586
                  6.20477442e-005        -139.223721       0.0540481687         -103.03118    1.43547397e-005        -30.1445885       0.0459028412        -77.0346456
                     0.0465807914        -74.3999286    1.43547397e-005        -30.1445885       0.0396104418        -83.7979758    6.15197187e-005        -81.3439847
                    0.00023597805        -89.3596586       0.0459028412        -77.0346456    6.15197187e-005        -81.3439847       0.0448093176          -117.5699

         200000000      0.0627433922        -101.192232    6.02718421e-005        -130.753799       0.0386972136        -89.0295262      0.00025211163        -111.544712
                  6.02718421e-005        -130.753799       0.0580232188        -111.281072    2.38097416e-005         144.785358       0.0379999439        -92.5763805
                     0.0386972136        -89.0295262    2.38097416e-005         144.785358       0.0462198416        -94.6504196    5.18318737e-005        -148.063081
                    0.00025211163        -111.544712       0.0379999439        -92.5763805    5.18318737e-005        -148.063081       0.0462984463         -123.31305

         210000000      0.0661487394        -113.524394    6.54866016e-005         134.792555        0.029259532        -102.176589     0.000276862773        -121.681684
                  6.54866016e-005         134.792555       0.0609121884        -120.008184    5.29691289e-005        -126.114893       0.0283919419        -107.154007
                      0.029259532        -102.176589    5.29691289e-005        -126.114893       0.0515967885         -107.71794    5.67925466e-005        -152.670046
                   0.000276862773        -121.681684       0.0283919419        -107.154007    5.67925466e-005        -152.670046       0.0472560378        -129.639462

         220000000      0.0688117498        -126.762416    9.08159207e-005        -151.344328       0.0196750681        -112.183291     0.000296853345        -153.374293
                  9.08159207e-005        -151.344328       0.0623761388        -129.917846     3.7474586e-005        -65.1816355         0.01845367        -119.856466
                     0.0196750681        -112.183291     3.7474586e-005        -65.1816355       0.0551241101        -122.669192    7.38233381e-005         -141.26558
                   0.000296853345        -153.374293         0.01845367        -119.856466    7.38233381e-005         -141.26558       0.0484680611        -136.065914

         230000000      0.0689034205         -141.15305     0.000100589303        -138.455196       0.0113795758        -114.969721      0.00028061192        -162.811014
                   0.000100589303        -138.455196       0.0628631114        -140.708748    4.71175047e-005        -114.035406      0.00960164368        -126.124976
                     0.0113795758        -114.969721    4.71175047e-005        -114.035406       0.0567731398        -139.114388    2.04517075e-005        -157.039493
