! TE Connectivity
! H17H18-G14G15_FEXT
!!
!! PART DESCRIPTION: Whisper 27in Megtron 6 HVLP-HVLP-HVLP Channel Model, bulkhead 2.92mm test points
!! 
!! MODEL DESCRIPTION: System 4-port S-parameter
!! MODEL STATUS: Measured
!! MODEL GEOMETRY: Channel Model
!! MODEL FREQUENCY RANGE: DC to 40 GHz in 10 MHz frequency steps
!! MODEL EDGE RATE LIMITATION: 12.5 ps (Using conservative 0.5/Fmax rule of thumb)
!! 
!! TIME-DOMAIN TRANSFORM CAUTIONS: 
!! 1.) Do not simulate transient edge rates faster than the number listed above.  Edge
!!     rates faster than this number contain significant spectral content at frequencies
!!     above the model's highest frequency.
!! 2.) Even when simulating edge rates that are slower than the number listed above, be
!!     aware that the best time resolution possible with a direct iFFT is (1 / 2Fmax).
!!     As a result, time resolution is typically not adequate for most time-domain
!!     simulations unless tricks such as frequency-domain zero-padding and windowing are
!!     used to minimize leakage and aliasing. 
!! 3.) Because the model has a uniform frequency step, a direct iFFT will result in an
!!     impulse that that has a time length given by either (1 / Fstep) or (1 / 2Fstep),
!!     depending on the transform being used.  Care has been taken in selecting the
!!     frequency step to ensure a settled impulse response for the model.  Therefore,
!!     convolution with the model's impulse response should present no issues.  However,
!!     if directly concatenating s-parameter models in the frequency domain a user must
!!     either interpolate necessary interim frequencies or complete impulse response 
!!     zero-padding.  Impulse response zero-padding is more difficult, but more accurate. 
!!    
!! 
!! PORT DEFINITIONS: 
!! Port   1  ----->  Side A     H17            G14     Side B  <-----  Port   2
!! Port   3  ----->  Side A     H18            G15     Side B  <-----  Port   4
!! 
!!!!!!!!!!!!!!!!!!!!!!!!!!!!!!!!!!!!!!!!!!!!!!!!!!!!!!!!!!!!!!!!!!!!!!!!!!!!!!!!!!!!!!!!!!!!!!!!!!!!!!!!!!!!!!!!!!!!!!!!
!!!!!!!!!!!!!!!!!!!!!!!!!!!!!!!!!!!!!!!!!!!!!!!!!!!!!
! Point-to-Point link (differential)                !
! Connectors:                                       !
!   1: STRADA Whisper 3.9mm                         !
! Materials:                                        !
!  Backplane: Megtron-6 HVLP			    !
!  Daughtercard: Megtron-6 HVLP		            !
! Stack-up:					    !
!  Backplane: 20 layers, 190mil thick	            !
!  Daughtercard: 14 layers, 110mil thick	    !
! Trace Length:  		                    !
!  Backplane: 17in                                !
!  Daughtercards: 5in                               !
! Trace Width:                                      !
!  Backplane: 5.75-6.25-5.75 mils                   !
!  Daughtercards: 6-9-6 mils                        !
! Geometry:                                         !
!  Backplane: Stripline				    !
!  Daughtercards: Stripline                         !
! Layer Connections:                          	    !
!  Backplane: Layer 16, counterbored(1-6mil stub)   !
!  Daughtercard: Layer 9, counterbored(1-6mil stub) !
! Freq. Range: 0 GHz - 40 GHz                	    !
! Note1: non-mixed-mode s-parameters          	    ! 
! Note2: channel includes 2.92mm test points   	    !
!!!!!!!!!!!!!!!!!!!!!!!!!!!!!!!!!!!!!!!!!!!!!!!!!!!!!
!
! Created Thu Jul 21 15:00:29 2016
# hz S ma R 50
! 4 Port Network Data from SP1.SP block
! freq  magS11  angS11  magS12  angS12  magS13  angS13  magS14  angS14  
!       magS21  angS21  magS22  angS22  magS23  angS23  magS24  angS24  
!       magS31  angS31  magS32  angS32  magS33  angS33  magS34  angS34  
!       magS41  angS41  magS42  angS42  magS43  angS43  magS44  angS44  
!     
                 0      0.0293905365   -1.48780641e-028    5.08699824e-005                180      0.00187792334   -4.92172022e-027      0.00012565055                180
                  5.08699824e-005                180       0.0286490897   -4.51710121e-029     4.5159277e-005                180      0.00146389246   -4.17572109e-027
                    0.00187792334   -4.92172021e-027     4.5159277e-005                180       0.0320648728    -6.0926482e-028      0.00032795002                180
                    0.00012565055                180      0.00146389246   -4.17572111e-027      0.00032795002                180       0.0280616405   -1.02895792e-027

          10000000       0.057621321         26.5745714    4.63731151e-005         107.747845       0.0329918012         67.0014868     0.000223591477          38.764984
                  4.63731151e-005         107.747845       0.0567531685         26.3005714     0.000353490206         26.0137494       0.0329834736         67.0579044
                     0.0329918012         67.0014868     0.000353490206         26.0137494       0.0614182809          23.171413    8.57275083e-005         66.6542972
                   0.000223591477          38.764984       0.0329834736         67.0579044    8.57275083e-005         66.6542972       0.0561737947           27.07888

          20000000      0.0787003436          16.486188    8.54947274e-005         63.9632947       0.0622918994         50.0394589     0.000125733729         -40.550684
                  8.54947274e-005         63.9632947       0.0774073286          16.783814     0.000187874872        -9.18338969       0.0619510266         50.2497163
                     0.0622918994         50.0394589     0.000187874872        -9.18338969       0.0792386247         14.3912576     0.000217864418        -160.764406
                   0.000125733729         -40.550684       0.0619510266         50.2497163     0.000217864418        -160.764406       0.0770124396         14.9292712

          30000000      0.0960870835         2.81594328    6.00316507e-005        -143.355743       0.0863672818         32.3436264    8.07971802e-005        -175.729903
                  6.00316507e-005        -143.355743       0.0970287443         3.19645494     0.000105207829         148.750256       0.0859390893         32.3655888
                     0.0863672818         32.3436264     0.000105207829         148.750256       0.0953506071        0.862503944    2.01838527e-005        -29.9859879
                  8.07971802e-005        -175.729903       0.0859390893         32.3655888    2.01838527e-005        -29.9859879       0.0948541339         2.46357304

          40000000       0.104867171        -11.0077068     5.0950322e-005         -68.102084        0.103890046         14.5100604    7.74233878e-005         32.2032106
                   5.0950322e-005         -68.102084        0.108548893        -11.6594788    5.97920918e-005        -16.7430346        0.103313232         14.6838702
                      0.103890046         14.5100604    5.97920918e-005        -16.7430346        0.104194645        -13.4799074    1.47473127e-005         22.1147444
                  7.74233878e-005         32.2032106        0.103313232         14.6838702    1.47473127e-005         22.1147444        0.105489225        -11.7263276

          50000000       0.107721227        -26.2554192    7.28149668e-005         18.6351377        0.114274098        -2.96568379    6.60548289e-005         100.691838
                  7.28149668e-005         18.6351377        0.114201823        -26.5259664    4.91967616e-005        -16.5652971        0.113475719        -2.81813341
                      0.114274098        -2.96568379    4.91967616e-005        -16.5652971        0.107299177         -27.963346     0.000121944524         127.759633
                  6.60548289e-005         100.691838        0.113475719        -2.81813341     0.000121944524         127.759633        0.111102477        -25.7982214

          60000000       0.102728047        -40.1545658     0.000111892507         109.357823        0.117285256        -20.6944181     3.1021911e-005        -31.7072288
                   0.000111892507         109.357823        0.113259445        -39.8301984    6.39286214e-005         138.838203        0.116202401        -20.5884533
                      0.117285256        -20.6944181    6.39286214e-005         138.838203        0.104597145        -42.0335328    5.75448184e-005        -26.7275667
                   3.1021911e-005        -31.7072288        0.116202401        -20.5884533    5.75448184e-005        -26.7275667        0.111660773        -39.4442154

          70000000      0.0937444727        -53.6788432    5.41205094e-005         115.043865        0.112802576        -38.0283504     0.000108537842         76.9234184
                  5.41205094e-005         115.043865        0.108244918        -53.1354104    4.29676752e-005        -134.708758        0.111465494        -37.9117216
                      0.112802576        -38.0283504    4.29676752e-005        -134.708758        0.096311948        -55.9669632    6.06742777e-005         127.439311
                   0.000108537842         76.9234184        0.111465494        -37.9117216    6.06742777e-005         127.439311        0.107822294        -52.7677344

          80000000       0.080325217        -65.9469028    4.31682209e-005          47.619786        0.101586358        -55.1991042    3.40391744e-006        -178.364998
                  4.31682209e-005          47.619786       0.0996433575        -66.0087104    2.20659802e-005        -172.787349       0.0999467214        -54.8974503
                      0.101586358        -55.1991042    2.20659802e-005        -172.787349       0.0848390606        -69.2507514    6.03688445e-005         131.797273
                  3.40391744e-006        -178.364998       0.0999467214        -54.8974503    6.03688445e-005         131.797273        0.100098288        -65.9656814

          90000000        0.06460074        -76.3403234    1.28791003e-005         21.8419474       0.0847905668         -71.886796     0.000103042494        -13.4679761
                  1.28791003e-005         21.8419474       0.0887084393         -77.521251    5.44915592e-005         45.3430909       0.0829967613        -71.4873411
                     0.0847905668         -71.886796    5.44915592e-005         45.3430909       0.0691638294        -81.4640804    4.41075424e-005         64.2690851
                   0.000103042494        -13.4679761       0.0829967613        -71.4873411    4.41075424e-005         64.2690851       0.0900131973        -77.6923402

         100000000      0.0482762118        -82.4566414    1.93751252e-005        -14.0516478        0.064053815        -87.6135393    2.21515724e-005         14.2517829
                  1.93751252e-005        -14.0516478       0.0763497944        -88.2180484    2.61190391e-005         68.6439687       0.0622533839        -86.9726954
                      0.064053815        -87.6135393    2.61190391e-005         68.6439687       0.0534042854         -91.292604    1.65313185e-005         42.9645959
                  2.21515724e-005         14.2517829       0.0622533839        -86.9726954    1.65313185e-005         42.9645959         0.07807932        -88.3473746

         110000000      0.0346627967        -81.3824896    2.70622077e-005         165.508506       0.0413414435        -100.822223    7.89847358e-005         1.39291255
                  2.70622077e-005         165.508506        0.063993403        -96.8703514    9.91821387e-006         66.9941843       0.0395725605        -99.6649172
                     0.0413414435        -100.822223    9.91821387e-006         66.9941843       0.0384004259        -95.8397222    1.47491684e-005        -133.648146
                  7.89847358e-005         1.39291255       0.0395725605        -99.6649172    1.47491684e-005        -133.648146       0.0660231828        -96.8977188

         120000000      0.0269475198         -66.902464    2.95254077e-005         136.575311       0.0193712302          -103.2857    8.20386501e-005         14.7396325
                  2.95254077e-005         136.575311       0.0528860509          -103.3214    9.11304754e-005         102.462889       0.0178658433        -99.9640902
                     0.0193712302          -103.2857    9.11304754e-005         102.462889       0.0264963814        -90.7379554    7.73566528e-005         -175.69521
                  8.20386501e-005         14.7396325       0.0178658433        -99.9640902    7.73566528e-005         -175.69521       0.0551429747         -103.22853

         130000000      0.0283348012        -51.0449098     3.8464298e-005        -95.1093343       0.0100357145        -31.5038253    1.89562978e-005        -145.689601
                   3.8464298e-005        -95.1093343        0.043234384        -106.415996    3.58161749e-005         70.4727516       0.0110308083        -24.0972236
                     0.0100357145        -31.5038253    3.58161749e-005         70.4727516       0.0221249774         -73.786297    4.68036059e-005        -68.5771475
                  1.89562978e-005        -145.689601       0.0110308083        -24.0972236    4.68036059e-005        -68.5771475        0.046871735        -106.435768

         140000000      0.0347043445         -46.650391    2.65623771e-005         11.0353865       0.0247426116        -6.71313814     4.9518612e-005         3.91852266
                  2.65623771e-005         11.0353865       0.0361332583         -104.37525     1.9030949e-005           122.8261       0.0260764239        -5.82313113
                     0.0247426116        -6.71313814     1.9030949e-005           122.8261       0.0238111022        -61.1570908    3.09938155e-005        -177.202735
                   4.9518612e-005         3.91852266       0.0260764239        -5.82313113    3.09938155e-005        -177.202735        0.041737994        -107.489766

         150000000      0.0404905432         -52.087511    1.93193272e-005        -22.3054055       0.0383756796        -15.9726719    5.17949428e-005         105.273689
                  1.93193272e-005        -22.3054055       0.0338366489        -97.9956052    9.04642677e-005        -14.3951199       0.0394421812        -15.6006256
                     0.0383756796        -15.9726719    9.04642677e-005        -14.3951199       0.0277984941        -60.5792704    2.06963722e-005         56.4834811
                  5.17949428e-005         105.273689       0.0394421812        -15.6006256    2.06963722e-005         56.4834811        0.039427158        -105.619554

         160000000      0.0443275433        -61.0691128    1.36897545e-005         21.2208821       0.0475458217        -29.9827787    4.11755753e-005        -76.0912179
                  1.36897545e-005         21.2208821       0.0363299761        -92.6039672    4.90087988e-005         29.8072248       0.0481812419        -29.8968393
                     0.0475458217        -29.9827787    4.90087988e-005         29.8072248       0.0296868165        -66.6609848    4.38361134e-005        -128.395348
                  4.11755753e-005        -76.0912179       0.0481812419        -29.8968393    4.38361134e-005        -128.395348       0.0396579823        -106.871386

         170000000      0.0451740237        -72.1502682    3.05351851e-005        -13.9982699       0.0518796423        -45.2424545    3.81254097e-005        -20.4726546
                  3.05351851e-005        -13.9982699       0.0416994965        -92.0809608    8.23166727e-005         168.378222       0.0519159307        -45.4096107
                     0.0518796423        -45.2424545    8.23166727e-005         168.378222       0.0301969022        -72.9902536    4.28373234e-005          84.120273
                  3.81254097e-005        -20.4726546       0.0519159307        -45.4096107    4.28373234e-005          84.120273       0.0411259654        -108.794696

         180000000       0.042676465        -83.0984546    2.77034453e-005        -94.6115331       0.0515825304        -60.9186533    4.78309434e-005        -132.620714
                  2.77034453e-005        -94.6115331       0.0482063111         -96.242425    7.06905107e-005         23.4759309       0.0509141508        -61.2403889
                     0.0515825304        -60.9186533    7.06905107e-005         23.4759309       0.0285182818         -80.152489    4.79640213e-005         106.176164
                  4.78309434e-005        -132.620714       0.0509141508        -61.2403889    4.79640213e-005         106.176164       0.0433422142        -112.590368

         190000000      0.0380237022         -93.262102    2.94472548e-005        -61.6490445       0.0474064782        -76.5552194    6.62006158e-005        -107.267368
                  2.94472548e-005        -61.6490445       0.0540481687         -103.03118    3.24909886e-005         169.866254       0.0459028412        -77.0346456
                     0.0474064782        -76.5552194    3.24909886e-005         169.866254        0.026339288        -85.0163304    2.35708228e-005         155.643309
                  6.62006158e-005        -107.267368       0.0459028412        -77.0346456    2.35708228e-005         155.643309       0.0448093176          -117.5699

         200000000      0.0318020239        -100.800066    1.84400053e-005          71.189143       0.0403082948        -91.6313677    4.80349027e-005        -137.383559
                  1.84400053e-005          71.189143       0.0580232188        -111.281072    3.62428689e-005        -135.404693       0.0379999439        -92.5763805
                     0.0403082948        -91.6313677    3.62428689e-005        -135.404693       0.0241060788        -87.1172164    5.95511582e-005         -62.528451
                  4.80349027e-005        -137.383559       0.0379999439        -92.5763805    5.95511582e-005         -62.528451       0.0462984463         -123.31305

         210000000       0.025516898        -104.085256    7.80354266e-006         38.5226819       0.0315406585        -105.804953    4.26191666e-005        -104.469436
                  7.80354266e-006         38.5226819       0.0609121884        -120.008184    1.84642018e-005         73.3605318       0.0283919419        -107.154007
                     0.0315406585        -105.804953    1.84642018e-005         73.3605318       0.0223746488          -87.11313    4.31076278e-005        -114.039333
                  4.26191666e-005        -104.469436       0.0283919419        -107.154007    4.31076278e-005        -114.039333       0.0472560378        -129.639462

         220000000       0.020455367        -101.928374    3.60615154e-005        -146.784879       0.0224412202        -117.898589    5.69462945e-005         153.749789
                  3.60615154e-005        -146.784879       0.0623761388        -129.917846    2.87549137e-005         -68.558932         0.01845367        -119.856466
                     0.0224412202        -117.898589    2.87549137e-005         -68.558932       0.0216079234        -87.8308098     1.3342743e-005        -137.979778
                  5.69462945e-005         153.749789         0.01845367        -119.856466     1.3342743e-005        -137.979778       0.0484680611        -136.065914

         230000000      0.0183179795         -96.348051    2.38640506e-005         131.851225       0.0145101858        -125.585336    2.34232061e-005         92.5445436
                  2.38640506e-005         131.851225       0.0628631114        -140.708748    5.21096052e-005        -138.266183      0.00960164368        -126.124976
                     0.0145101858        -125.585336    5.21096052e-005        -138.266183       0.0209264716        -91.8254224    2.24211803e-005         161.447263
