! TE Connectivity
! H14H15-G14G15_NEXT
!!
!! PART DESCRIPTION: Whisper 27in Megtron 6 HVLP-HVLP-HVLP Channel Model, bulkhead 2.92mm test points
!! 
!! MODEL DESCRIPTION: System 4-port S-parameter
!! MODEL STATUS: Measured
!! MODEL GEOMETRY: Channel Model
!! MODEL FREQUENCY RANGE: DC to 40 GHz in 10 MHz frequency steps
!! MODEL EDGE RATE LIMITATION: 12.5 ps (Using conservative 0.5/Fmax rule of thumb)
!! 
!! TIME-DOMAIN TRANSFORM CAUTIONS: 
!! 1.) Do not simulate transient edge rates faster than the number listed above.  Edge
!!     rates faster than this number contain significant spectral content at frequencies
!!     above the model's highest frequency.
!! 2.) Even when simulating edge rates that are slower than the number listed above, be
!!     aware that the best time resolution possible with a direct iFFT is (1 / 2Fmax).
!!     As a result, time resolution is typically not adequate for most time-domain
!!     simulations unless tricks such as frequency-domain zero-padding and windowing are
!!     used to minimize leakage and aliasing. 
!! 3.) Because the model has a uniform frequency step, a direct iFFT will result in an
!!     impulse that that has a time length given by either (1 / Fstep) or (1 / 2Fstep),
!!     depending on the transform being used.  Care has been taken in selecting the
!!     frequency step to ensure a settled impulse response for the model.  Therefore,
!!     convolution with the model's impulse response should present no issues.  However,
!!     if directly concatenating s-parameter models in the frequency domain a user must
!!     either interpolate necessary interim frequencies or complete impulse response 
!!     zero-padding.  Impulse response zero-padding is more difficult, but more accurate. 
!!    
!! 
!! PORT DEFINITIONS: 
!! Port   1  ----->  Side A     H14            G14     Side B  <-----  Port   2
!! Port   3  ----->  Side A     H15            G15     Side B  <-----  Port   4
!! 
!!!!!!!!!!!!!!!!!!!!!!!!!!!!!!!!!!!!!!!!!!!!!!!!!!!!!!!!!!!!!!!!!!!!!!!!!!!!!!!!!!!!!!!!!!!!!!!!!!!!!!!!!!!!!!!!!!!!!!!!
!!!!!!!!!!!!!!!!!!!!!!!!!!!!!!!!!!!!!!!!!!!!!!!!!!!!!
! Point-to-Point link (differential)                !
! Connectors:                                       !
!   1: STRADA Whisper 3.9mm                         !
! Materials:                                        !
!  Backplane: Megtron-6 HVLP			    !
!  Daughtercard: Megtron-6 HVLP		            !
! Stack-up:					    !
!  Backplane: 20 layers, 190mil thick	            !
!  Daughtercard: 14 layers, 110mil thick	    !
! Trace Length:  		                    !
!  Backplane: 17in                                !
!  Daughtercards: 5in                               !
! Trace Width:                                      !
!  Backplane: 5.75-6.25-5.75 mils                   !
!  Daughtercards: 6-9-6 mils                        !
! Geometry:                                         !
!  Backplane: Stripline				    !
!  Daughtercards: Stripline                         !
! Layer Connections:                          	    !
!  Backplane: Layer 16, counterbored(1-6mil stub)   !
!  Daughtercard: Layer 9, counterbored(1-6mil stub) !
! Freq. Range: 0 GHz - 40 GHz                	    !
! Note1: non-mixed-mode s-parameters          	    ! 
! Note2: channel includes 2.92mm test points   	    !
!!!!!!!!!!!!!!!!!!!!!!!!!!!!!!!!!!!!!!!!!!!!!!!!!!!!!
!
! Created Thu Jul 21 14:56:33 2016
# hz S ma R 50
! 4 Port Network Data from SP1.SP block
! freq  magS11  angS11  magS12  angS12  magS13  angS13  magS14  angS14  
!       magS21  angS21  magS22  angS22  magS23  angS23  magS24  angS24  
!       magS31  angS31  magS32  angS32  magS33  angS33  magS34  angS34  
!       magS41  angS41  magS42  angS42  magS43  angS43  magS44  angS44  
!     
                 0      0.0330100426   -8.73481009e-028      0.00012642178                180      0.00195398556   -6.34646338e-027     0.000326859761                180
                    0.00012642178                180       0.0238070456   -6.10873746e-028     0.000195497315                180      0.00130934473   -1.12587165e-026
                    0.00195398556   -6.34646338e-027     0.000195497315                180       0.0315269358   -1.69169283e-028     1.0960906e-006   -3.23868026e-020
                   0.000326859761                180      0.00130934473   -1.12587165e-026     1.0960906e-006   -3.23868026e-020         0.02679566   -5.57651827e-028

          10000000      0.0591407134           25.21472     0.000288820155         161.606385       0.0325065744         67.5510213     0.000361980198           124.1682
                   0.000288820155         161.606385       0.0581683448         28.8069338     0.000303452756         149.444251       0.0332770821         67.2969603
                     0.0325065744         67.5510213     0.000303452756         149.444251       0.0624231676         24.7275916    6.54778491e-005         70.1764135
                   0.000361980198           124.1682       0.0332770821         67.2969603    6.54778491e-005         70.1764135       0.0578953801         26.3851414

          20000000      0.0819532017         16.4852002     0.000201063465         79.3664902        0.061638445         49.7832159      0.00018556937        -29.2254775
                   0.000201063465         79.3664902       0.0770072528          16.299748     0.000204875883         72.4449492       0.0623505745         50.3072574
                      0.061638445         49.7832159     0.000204875883         72.4449492       0.0819585611         15.4024174    7.52565498e-005        -6.52427067
                    0.00018556937        -29.2254775       0.0623505745         50.3072574    7.52565498e-005        -6.52427067       0.0768679026         15.2939542

          30000000        0.10139797         3.11434304     0.000231199668        0.539547253       0.0853803929         32.1311741     7.0588876e-005        -172.592874
                   0.000231199668        0.539547253       0.0958322008         3.18213652     0.000118940218         12.8383674       0.0861028516         32.6242978
                     0.0853803929         32.1311741     0.000118940218         12.8383674       0.0997578336         2.16445776    9.42801151e-005         72.2811713
                   7.0588876e-005        -172.592874       0.0861028516         32.6242978    9.42801151e-005         72.2811713       0.0951409455          1.5130922

          40000000       0.113562657        -11.6496918     0.000111255021         6.62330099        0.102651382          14.263861    6.38508127e-005         26.2502286
                   0.000111255021         6.62330099        0.107450762        -11.5486298     0.000110811027        -1.50336036        0.103665446         14.9135196
                      0.102651382          14.263861     0.000110811027        -1.50336036         0.10882884        -12.3031466      0.00022376043        0.742120931
                  6.38508127e-005         26.2502286        0.103665446         14.9135196      0.00022376043        0.742120931        0.105374299        -13.0263304

          50000000       0.119086008        -26.4674536     0.000105459016        -23.5211748        0.112822701        -3.36061107     0.000128316647        -17.8351522
                   0.000105459016        -23.5211748        0.114296199        -26.1220096    4.21594276e-005         -33.966449        0.113808591        -2.49967508
                      0.112822701        -3.36061107    4.21594276e-005         -33.966449        0.113181694        -27.2234634     0.000177261813        -58.2786758
                   0.000128316647        -17.8351522        0.113808591        -2.49967508     0.000177261813        -58.2786758        0.111051873        -27.6260792

          60000000       0.116077268        -40.6598576    3.87124891e-005        -33.8098965        0.115495765        -21.0817215     0.000147183337        -84.3155981
                  3.87124891e-005        -33.8098965        0.113973315        -39.9817486    5.98132768e-005         26.5075713        0.116613177        -20.1334428
                      0.115495765        -21.0817215    5.98132768e-005         26.5075713        0.111691206        -41.5623072     0.000185873707        -47.1210474
                   0.000147183337        -84.3155981        0.116613177        -20.1334428     0.000185873707        -47.1210474        0.110191826        -41.5473992

          70000000       0.108734351        -54.3406644    2.32736032e-005         30.5467562        0.110970042        -38.5485271    5.70350534e-005        -136.878665
                  2.32736032e-005         30.5467562         0.10888667        -53.5658954    5.60985499e-005        -31.8345102        0.111813047        -37.3164706
                      0.110970042        -38.5485271    5.60985499e-005        -31.8345102        0.106142268         -56.171207    6.73903479e-005        -13.7964054
                  5.70350534e-005        -136.878665        0.111813047        -37.3164706    6.73903479e-005        -13.7964054        0.106941745        -55.6413462

          80000000      0.0956990558        -66.6725668    5.57892128e-005        -163.341508       0.0995584385        -55.8072029    1.47276072e-005         90.9744274
                  5.57892128e-005        -163.341508        0.100595812        -65.9967864     0.000130376902        -9.83822336        0.100374263        -54.2918204
                     0.0995584385        -55.8072029     0.000130376902        -9.83822336       0.0958368207        -69.9301508     0.000115348412         26.9794973
                  1.47276072e-005         90.9744274        0.100374263        -54.2918204     0.000115348412         26.9794973       0.0987025787        -68.6922052

          90000000      0.0802923445        -77.5235536     0.000127677736         66.6708848       0.0827142118        -72.4789622    1.11420598e-005        -133.918257
                   0.000127677736         66.6708848       0.0898256955        -77.6480292     0.000154360077         52.0174956       0.0833593635         -70.692807
                     0.0827142118        -72.4789622     0.000154360077         52.0174956       0.0818905579        -82.7772538     5.5472328e-005         105.630325
                  1.11420598e-005        -133.918257       0.0833593635         -70.692807     5.5472328e-005         105.630325       0.0897689887        -81.2414052

         100000000      0.0637718661        -86.0569282     0.000218049816         78.5071193       0.0620864706        -88.1985577     0.000181190812         73.2127743
                   0.000218049816         78.5071193       0.0776058964        -89.4883586     0.000114019751         25.8864875       0.0625505119        -86.1052501
                     0.0620864706        -88.1985577     0.000114019751         25.8864875        0.066480964        -93.5335602     0.000202888588         64.7536027
                   0.000181190812         73.2127743       0.0625505119        -86.1052501     0.000202888588         64.7536027       0.0793585938         -92.897111

         110000000      0.0481001262         -90.801276     0.000244968801         51.8958851       0.0395955921        -101.268409      0.00014985656         57.1007723
                   0.000244968801         51.8958851       0.0648369309        -99.9065378     0.000215145679         30.5965489       0.0398752003         -98.641674
                     0.0395955921        -101.268409     0.000215145679         30.5965489       0.0503904847        -101.102788     0.000359414232         51.7395902
                    0.00014985656         57.1007723       0.0398752003         -98.641674     0.000359414232         51.7395902       0.0678326745        -104.288964

         120000000      0.0359003047         -87.598235      0.00034490351         33.0152579       0.0178943569        -102.202121     0.000306778582         26.1058777
                    0.00034490351         33.0152579       0.0511932048         -110.07461     0.000280098096         24.8867703       0.0181917247        -98.8172109
                     0.0178943569        -102.202121     0.000280098096         24.8867703       0.0358328806        -102.407988     0.000432737181         35.6872662
                   0.000306778582         26.1058777       0.0181917247        -98.8172109     0.000432737181         35.6872662       0.0557564303        -114.933802

         130000000      0.0300982883        -76.1607606     0.000401859146         17.9096772        0.010576077        -26.7834167     0.000316504835         24.9360346
                   0.000401859146         17.9096772       0.0382101448        -115.813904     0.000361968378       -0.462008992       0.0110067002        -23.8066149
                      0.010576077        -26.7834167     0.000361968378       -0.462008992       0.0259969537        -93.2277778     0.000466543015         16.7942769
                   0.000316504835         24.9360346       0.0110067002        -23.8066149     0.000466543015         16.7942769       0.0428832676        -123.736178

         140000000      0.0316694407        -64.5796048     0.000420620962        -13.3248821       0.0253162347        -7.43756719     0.000339835899        -5.76839872
                   0.000420620962        -13.3248821       0.0266014104        -112.592762     0.000379242831        -2.81393292       0.0259232276        -4.45465756
                     0.0253162347        -7.43756719     0.000379242831        -2.81393292       0.0229815684        -76.4088818     0.000531103717       -0.654686192
                   0.000339835899        -5.76839872       0.0259232276        -4.45465756     0.000531103717       -0.654686192       0.0305458678        -127.249772

         150000000      0.0378801404         -61.613405     0.000460595096        -24.2435977       0.0385794093        -17.4125308     0.000361860494         -21.018122
                   0.000460595096        -24.2435977       0.0218780723        -93.7217768     0.000458161433         -28.257048       0.0393444743          -14.04726
                     0.0385794093        -17.4125308     0.000458161433         -28.257048       0.0254901301        -66.7205344     0.000654004599        -20.0304572
                   0.000361860494         -21.018122       0.0393444743          -14.04726     0.000654004599        -20.0304572       0.0206153303        -117.545204

         160000000      0.0445476755         -66.210267     0.000541266564        -35.7948939        0.047205087        -31.7683494      0.00043378234        -42.3353012
                   0.000541266564        -35.7948939       0.0263615559        -76.8885028      0.00049543743        -42.2782063       0.0481405521        -27.8423174
                      0.047205087        -31.7683494      0.00049543743        -42.2782063       0.0286868843        -66.5109826     0.000649369458        -40.0311895
                    0.00043378234        -42.3353012       0.0481405521        -27.8423174     0.000649369458        -40.0311895       0.0187648173        -92.9337134

         170000000        0.05016716        -73.9974002     0.000578634547        -55.4143632       0.0509182385        -47.4535541     0.000386150537        -59.0911014
                   0.000578634547        -55.4143632       0.0353847411        -75.8558436      0.00049969204        -56.9785236       0.0520673707        -42.9964184
                     0.0509182385        -47.4535541      0.00049969204        -56.9785236       0.0308132987        -72.2118724     0.000642170711        -58.6830822
                   0.000386150537        -59.0911014       0.0520673707        -42.9964184     0.000642170711        -58.6830822       0.0244216207         -77.468684

         180000000       0.053410696        -83.0648676       0.0005367267        -78.1779072       0.0501070288        -63.4182054     0.000428333985         -64.021651
                     0.0005367267        -78.1779072       0.0442806911        -82.5296466     0.000446036765        -72.0730352       0.0511881964        -58.3885872
                     0.0501070288        -63.4182054     0.000446036765        -72.0730352       0.0317075881        -79.4745366     0.000634663985        -79.2836688
                   0.000428333985         -64.021651       0.0511881964        -58.3885872     0.000634663985        -79.2836688       0.0321774975        -77.7533696

         190000000       0.054338302        -91.8819686     0.000496012772        -88.9983989       0.0454422889        -79.4574705     0.000352886524        -91.3075221
                   0.000496012772        -88.9983989       0.0513715961        -92.7681596     0.000446024336        -88.6615754       0.0463611808        -73.5891427
                     0.0454422889        -79.4574705     0.000446024336        -88.6615754       0.0325161161        -88.5142244     0.000597890441        -90.7219865
                   0.000352886524        -91.3075221       0.0463611808        -73.5891427     0.000597890441        -90.7219865       0.0391419885        -84.3646566

         200000000      0.0533992419        -99.9057032      0.00046270858        -104.686404       0.0379626411        -95.2152333     0.000315932452        -103.678458
                    0.00046270858        -104.686404       0.0566510659         -103.55416     0.000375083218        -96.2060843        0.038559539        -88.0682243
                     0.0379626411        -95.2152333     0.000375083218        -96.2060843       0.0325961549        -98.5728186     0.000535023427        -112.373299
                   0.000315932452        -103.678458        0.038559539        -88.0682243     0.000535023427        -112.373299       0.0446759458        -93.5502528

         210000000      0.0514657817        -106.798758     0.000381724393         -121.04629       0.0289149095        -110.030582     0.000297203562        -114.068935
                   0.000381724393         -121.04629       0.0595530163        -114.724702     0.000387671819         -107.09029       0.0291332882        -101.036615
                     0.0289149095        -110.030582     0.000387671819         -107.09029       0.0336118861        -109.120948     0.000384537109        -116.133126
                   0.000297203562        -114.068935       0.0291332882        -101.036615     0.000384537109        -116.133126       0.0491218345        -104.544088

         220000000      0.0486642972        -112.928048     0.000307366633        -136.086108         0.01967021        -122.817988     0.000231121662        -149.755416
                   0.000307366633        -136.086108       0.0613577525        -126.189936     0.000331946433          -120.6124       0.0195611565        -110.749986
                       0.01967021        -122.817988     0.000331946433          -120.6124       0.0345939214        -120.467512     0.000308924561        -135.804914
                   0.000231121662        -149.755416       0.0195611565        -110.749986     0.000308924561        -135.804914       0.0515737308         -116.86162

         230000000      0.0458757928        -120.554678     0.000224489432        -141.785525       0.0115313302        -131.473029    9.72975454e-005        -144.206752
                   0.000224489432        -141.785525       0.0620263712        -139.047108     0.000271920696        -117.115642       0.0114000652        -112.533747
                     0.0115313302        -131.473029     0.000271920696        -117.115642       0.0355420857        -133.129006     0.000194294686        -141.866045
