! TE Connectivity
! F17F18-G14G15_FEXT
!!
!! PART DESCRIPTION: Whisper 27in Megtron 6 HVLP-HVLP-HVLP Channel Model, bulkhead 2.92mm test points
!! 
!! MODEL DESCRIPTION: System 4-port S-parameter
!! MODEL STATUS: Measured
!! MODEL GEOMETRY: Channel Model
!! MODEL FREQUENCY RANGE: DC to 40 GHz in 10 MHz frequency steps
!! MODEL EDGE RATE LIMITATION: 12.5 ps (Using conservative 0.5/Fmax rule of thumb)
!! 
!! TIME-DOMAIN TRANSFORM CAUTIONS: 
!! 1.) Do not simulate transient edge rates faster than the number listed above.  Edge
!!     rates faster than this number contain significant spectral content at frequencies
!!     above the model's highest frequency.
!! 2.) Even when simulating edge rates that are slower than the number listed above, be
!!     aware that the best time resolution possible with a direct iFFT is (1 / 2Fmax).
!!     As a result, time resolution is typically not adequate for most time-domain
!!     simulations unless tricks such as frequency-domain zero-padding and windowing are
!!     used to minimize leakage and aliasing. 
!! 3.) Because the model has a uniform frequency step, a direct iFFT will result in an
!!     impulse that that has a time length given by either (1 / Fstep) or (1 / 2Fstep),
!!     depending on the transform being used.  Care has been taken in selecting the
!!     frequency step to ensure a settled impulse response for the model.  Therefore,
!!     convolution with the model's impulse response should present no issues.  However,
!!     if directly concatenating s-parameter models in the frequency domain a user must
!!     either interpolate necessary interim frequencies or complete impulse response 
!!     zero-padding.  Impulse response zero-padding is more difficult, but more accurate. 
!!    
!! 
!! PORT DEFINITIONS: 
!! Port   1  ----->  Side A     F17            G14     Side B  <-----  Port   2
!! Port   3  ----->  Side A     F18            G15     Side B  <-----  Port   4
!! 
!!!!!!!!!!!!!!!!!!!!!!!!!!!!!!!!!!!!!!!!!!!!!!!!!!!!!!!!!!!!!!!!!!!!!!!!!!!!!!!!!!!!!!!!!!!!!!!!!!!!!!!!!!!!!!!!!!!!!!!!
!!!!!!!!!!!!!!!!!!!!!!!!!!!!!!!!!!!!!!!!!!!!!!!!!!!!!
! Point-to-Point link (differential)                !
! Connectors:                                       !
!   1: STRADA Whisper 3.9mm                         !
! Materials:                                        !
!  Backplane: Megtron-6 HVLP			    !
!  Daughtercard: Megtron-6 HVLP		            !
! Stack-up:					    !
!  Backplane: 20 layers, 190mil thick	            !
!  Daughtercard: 14 layers, 110mil thick	    !
! Trace Length:  		                    !
!  Backplane: 17in                                !
!  Daughtercards: 5in                               !
! Trace Width:                                      !
!  Backplane: 5.75-6.25-5.75 mils                   !
!  Daughtercards: 6-9-6 mils                        !
! Geometry:                                         !
!  Backplane: Stripline				    !
!  Daughtercards: Stripline                         !
! Layer Connections:                          	    !
!  Backplane: Layer 16, counterbored(1-6mil stub)   !
!  Daughtercard: Layer 9, counterbored(1-6mil stub) !
! Freq. Range: 0 GHz - 40 GHz                	    !
! Note1: non-mixed-mode s-parameters          	    ! 
! Note2: channel includes 2.92mm test points   	    !
!!!!!!!!!!!!!!!!!!!!!!!!!!!!!!!!!!!!!!!!!!!!!!!!!!!!!
!
! Created Thu Jul 21 14:36:24 2016
# hz S ma R 50
! 4 Port Network Data from SP1.SP block
! freq  magS11  angS11  magS12  angS12  magS13  angS13  magS14  angS14  
!       magS21  angS21  magS22  angS22  magS23  angS23  magS24  angS24  
!       magS31  angS31  magS32  angS32  magS33  angS33  magS34  angS34  
!       magS41  angS41  magS42  angS42  magS43  angS43  magS44  angS44  
!     
                 0        0.03108558   -2.19415915e-027     0.000212500856                180      0.00196140594    8.62065065e-027     0.000484658098                180
                   0.000212500856                180       0.0284323237   -1.51039626e-028    6.84953525e-005    -2.1063171e-022       0.0020585119   -3.88199317e-027
                    0.00196140594     8.6206507e-027    6.84953525e-005    -2.1063171e-022       0.0304501139   -1.07458134e-035     0.000277159159   -1.18721784e-022
                   0.000484658098                180       0.0020585119   -3.88199319e-027     0.000277159159   -1.18721784e-022       0.0280960294   -5.02307754e-028

          10000000      0.0569747547         24.8153918      0.00012244503         122.527949       0.0320036743         67.7025441     0.000269063822         88.1679982
                    0.00012244503         122.527949       0.0563239058         26.5108032     0.000239578581        -156.453319       0.0327341997         66.5876747
                     0.0320036743         67.7025441     0.000239578581        -156.453319       0.0594599459         24.3667914     0.000203058203        -88.4530609
                   0.000269063822         88.1679982       0.0327341997         66.5876747     0.000203058203        -88.4530609       0.0556815754          26.930564

          20000000      0.0775516479          16.326384    6.79957927e-005        -136.635612       0.0608757275         50.3100487    4.93517991e-005        -163.571041
                  6.79957927e-005        -136.635612       0.0771922464         17.0313168     0.000110860151         119.298825        0.062102645           50.29847
                     0.0608757275         50.3100487     0.000110860151         119.298825       0.0779114667         15.1323724     0.000203459958         106.557631
                  4.93517991e-005        -163.571041        0.062102645           50.29847     0.000203459958         106.557631       0.0764177299         15.1486122

          30000000      0.0953086488         3.46447166    3.91451345e-005        -173.358613       0.0844604052         32.8214267     1.2769252e-005        -163.085755
                  3.91451345e-005        -173.358613       0.0969532364           3.387422     0.000136487622        -33.5553793       0.0858271149         32.4236905
                     0.0844604052         32.8214267     0.000136487622        -33.5553793       0.0953718622         2.47743874     0.000159059541          164.35179
                   1.2769252e-005        -163.085755       0.0858271149         32.4236905     0.000159059541          164.35179       0.0947251634         2.72125988

          40000000       0.106952391        -10.7753948     8.3996516e-006        -48.8699841         0.10210162         15.2597266     0.000107953393          110.13621
                   8.3996516e-006        -48.8699841        0.108759411        -11.4953168    5.24569761e-005        -118.977122        0.103418703         14.6741175
                       0.10210162         15.2597266    5.24569761e-005        -118.977122        0.105039102        -11.1924698    4.51657881e-005         75.9835723
                   0.000107953393          110.13621        0.103418703         14.6741175    4.51657881e-005         75.9835723        0.106063731        -11.5754698

          50000000       0.113707403        -25.2781526    8.08697767e-005         106.880062        0.112828074        -2.05424851    4.10059926e-005         106.924585
                  8.08697767e-005         106.880062        0.114756578        -26.4203224     8.9945347e-005         30.0492791        0.113564886        -2.83945438
                      0.112828074        -2.05424851     8.9945347e-005         30.0492791        0.111257537        -25.3389416    4.88430506e-005         89.6351628
                  4.10059926e-005         106.924585        0.113564886        -2.83945438    4.88430506e-005         89.6351628        0.111921324        -25.7303984

          60000000       0.113748788        -39.0290206    6.34819407e-006         14.5590285        0.116500408        -19.5737366    7.83141408e-005         121.499286
                  6.34819407e-006         14.5590285        0.114033244        -39.7633616    3.74805527e-005         165.266631        0.116345765        -20.5717426
                      0.116500408        -19.5737366    3.74805527e-005         165.266631         0.11240368        -38.9745236     0.000110461298         167.272028
                  7.83141408e-005         121.499286        0.116345765        -20.5717426     0.000110461298         167.272028        0.112773908        -39.3997094

          70000000       0.111365152        -52.6051178    3.56275838e-005         143.343254        0.113040913         -36.731246    1.26082809e-005        -145.628193
                  3.56275838e-005         143.343254          0.1090588        -53.2123876    1.21151354e-005        -68.5276594        0.111517903         -37.886602
                      0.113040913         -36.731246    1.21151354e-005        -68.5276594        0.110811585        -52.9469568    3.25444145e-005        -49.6196652
                  1.26082809e-005        -145.628193        0.111517903         -37.886602    3.25444145e-005        -49.6196652        0.108943624        -52.8712576

          80000000       0.104708877         -65.062048    9.60886784e-005         21.7949305        0.103038509        -53.6406829    2.13640404e-005         112.575263
                  9.60886784e-005         21.7949305        0.100471851        -66.1281944     4.6239013e-005        -19.9456354        0.100026583        -54.8994152
                      0.103038509        -53.6406829     4.6239013e-005        -19.9456354        0.105308954         -66.243353    9.24173635e-005       -0.533782625
                  2.13640404e-005         112.575263        0.100026583        -54.8994152    9.24173635e-005       -0.533782625        0.101103747        -66.1156364

          90000000      0.0961383553         -76.918148    4.70578357e-005         164.315033         0.08776597        -70.1826723    1.43642446e-005          54.278112
                  4.70578357e-005         164.315033       0.0893660244         -77.687671     3.6248605e-005         33.8949132       0.0830947908         -71.483463
                       0.08776597        -70.1826723     3.6248605e-005         33.8949132       0.0968860354         -79.213315     6.1736316e-005         156.943296
                  1.43642446e-005          54.278112       0.0830947908         -71.483463     6.1736316e-005         156.943296       0.0908337173        -77.9243042

         100000000      0.0856288916          -87.91617     1.0506484e-005        -2.78007606       0.0683729452        -85.9800338    5.47183093e-005        -43.8992553
                   1.0506484e-005        -2.78007606       0.0767819118        -88.5063944    4.25159478e-005        -61.4917396       0.0624052482        -86.9359727
                     0.0683729452        -85.9800338    4.25159478e-005        -61.4917396         0.08641238        -91.5557882    1.93852877e-005        -127.833827
                  5.47183093e-005        -43.8992553       0.0624052482        -86.9359727    1.93852877e-005        -127.833827       0.0783754904        -88.6236048

         110000000      0.0734709245        -98.1390228    1.49062554e-005         -99.485152       0.0467209668         -100.05836    4.15425322e-005         108.364259
                  1.49062554e-005         -99.485152       0.0640844711        -97.3363624    7.05058079e-005         -64.214891       0.0396600833        -99.6718829
                     0.0467209668         -100.05836    7.05058079e-005         -64.214891       0.0740144208        -103.210366    5.88469913e-005         45.4900541
                  4.15425322e-005         108.364259       0.0396600833        -99.6718829    5.88469913e-005         45.4900541       0.0662366418         -97.223334

         120000000      0.0605312421        -106.083362    7.03632247e-005        -65.0688651       0.0247133199        -107.689369    6.81866625e-005         104.440867
                  7.03632247e-005        -65.0688651       0.0527165326         -103.87825    1.18814841e-005         -137.97491       0.0178685219        -99.9106981
                     0.0247133199        -107.689369    1.18814841e-005         -137.97491       0.0599650386        -113.510042    2.62272506e-005         160.579889
                  6.81866625e-005         104.440867       0.0178685219        -99.9106981    2.62272506e-005         160.579889       0.0546946238         -103.56192

         130000000      0.0471511474        -110.521778     4.0682453e-005         126.489083      0.00864243654        -65.7916239    4.60470287e-005          11.037714
                   4.0682453e-005         126.489083       0.0425269976        -106.806824     0.000113441473        -49.5150382       0.0110463211        -23.7668492
                    0.00864243654        -65.7916239     0.000113441473        -49.5150382       0.0456886822        -121.137618    1.81487036e-005        -144.391934
                  4.60470287e-005          11.037714       0.0110463211        -23.7668492    1.81487036e-005        -144.391934       0.0460227886        -106.244136

         140000000      0.0355638985         -107.22372    5.25923852e-005         73.1220095       0.0194025556        -7.88842378    1.82455392e-005         5.76957845
                  5.25923852e-005         73.1220095       0.0353554547         -103.71266    1.74141974e-005         79.7215827       0.0261214728        -5.69263787
                     0.0194025556        -7.88842378    1.74141974e-005         79.7215827       0.0316991808         -122.66629    2.77246177e-005         159.618655
                  1.82455392e-005         5.76957845       0.0261214728        -5.69263787    2.77246177e-005         159.618655       0.0409750011        -106.589134

         150000000       0.030183797        -91.4557066    2.21172306e-005         86.4015859       0.0340539953        -13.3095016    4.38262464e-005        -68.9457602
                  2.21172306e-005         86.4015859       0.0335934998        -96.3256748    3.76831361e-005        -107.982313       0.0394888614        -15.4469457
                     0.0340539953        -13.3095016    3.76831361e-005        -107.982313       0.0220606096        -108.807954    7.98740775e-005        -107.776083
                  4.38262464e-005        -68.9457602       0.0394888614        -15.4469457    7.98740775e-005        -107.776083       0.0390700466        -103.823814

         160000000       0.034180651        -75.9718398    3.49628389e-005        -63.7679797       0.0449384398        -26.2462167    2.12780175e-005         52.2733898
                  3.49628389e-005        -63.7679797       0.0369783747        -90.8649086    5.07678128e-005        -108.200164       0.0482067015        -29.7809996
                     0.0449384398        -26.2462167    5.07678128e-005        -108.200164       0.0215015301        -82.4443482    5.32197963e-005         3.35194123
                  2.12780175e-005         52.2733898       0.0482067015        -29.7809996    5.32197963e-005         3.35194123       0.0402997426        -104.925536

         170000000      0.0442489459         -71.589447    1.39662603e-005        -74.1703826       0.0512872978        -41.1267376    4.64558516e-005        -71.4002412
                  1.39662603e-005        -74.1703826         0.04307718        -91.2287816    5.43499924e-005          42.446106       0.0519946996        -45.3336039
                     0.0512872978        -41.1267376    5.43499924e-005          42.446106       0.0294125654        -70.4312094    3.91665346e-005        -5.76545304
                  4.64558516e-005        -71.4002412       0.0519946996        -45.3336039    3.91665346e-005        -5.76545304       0.0426590581        -107.420476

         180000000        0.05540706        -75.8894688    4.59393263e-005        -77.7539193       0.0531901229        -56.5007751    4.53753848e-005         163.606485
                  4.59393263e-005        -77.7539193       0.0499018791        -96.3514348     3.5792221e-005        -123.054535       0.0509748533        -61.2316894
                     0.0531901229        -56.5007751     3.5792221e-005        -123.054535       0.0392533095        -72.0128742    4.60605318e-005         24.7185518
                  4.53753848e-005         163.606485       0.0509748533        -61.2316894    4.60605318e-005         24.7185518       0.0452332297        -112.223938

         190000000      0.0652591981        -84.2802872    3.13709289e-005        -58.4759731       0.0511612013        -72.0146533    3.34130572e-005        -52.7411358
                  3.13709289e-005        -58.4759731       0.0556003061        -103.894202    6.60026562e-005        -35.7751643       0.0460263997        -77.0943275
                     0.0511612013        -72.0146533    6.60026562e-005        -35.7751643        0.048889089        -80.2113424    4.53021871e-005        -116.570514
                  3.34130572e-005        -52.7411358       0.0460263997        -77.0943275    4.53021871e-005        -116.570514       0.0467990172         -118.23613

         200000000      0.0733427284        -94.8098758    4.29172818e-005        -88.9977755       0.0459359414         -87.268808    1.73410449e-005         91.0202196
                  4.29172818e-005        -88.9977755       0.0591202982        -112.443102    3.39950733e-005        -102.571257       0.0380460243        -92.7154585
                     0.0459359414         -87.268808    3.39950733e-005        -102.571257       0.0560205947        -91.3604078    1.69426112e-005        -76.6367072
                  1.73410449e-005         91.0202196       0.0380460243        -92.7154585    1.69426112e-005        -76.6367072       0.0478070634        -124.690272

         210000000      0.0790219683        -106.390636    3.31101851e-005        -112.832927       0.0386723362        -102.063076     8.4268106e-005         -179.46658
                  3.31101851e-005        -112.832927       0.0612604032        -121.025874    2.29087138e-005         109.163085       0.0283958013         -107.30044
                     0.0386723362        -102.063076    2.29087138e-005         109.163085        0.061658675        -103.753972    4.18610044e-005        -121.002956
                   8.4268106e-005         -179.46658       0.0283958013         -107.30044    4.18610044e-005        -121.002956       0.0478734421        -130.770502

         220000000      0.0815674292        -118.607428    4.67767761e-005         -176.52782       0.0303474548        -116.129406    3.19238001e-005        -150.359624
                  4.67767761e-005         -176.52782       0.0622761974        -130.425006    3.08656292e-005        -70.7499692       0.0184006059        -119.968577
                     0.0303474548        -116.129406    3.08656292e-005        -70.7499692       0.0650843038        -116.834854    3.95726572e-005         157.595062
                  3.19238001e-005        -150.359624       0.0184006059        -119.968577    3.95726572e-005         157.595062        0.048458453        -136.535114

         230000000      0.0818966725         -131.96865    2.62936277e-005        -101.381653        0.022232943        -128.975211    2.49402061e-005          154.35683
                  2.62936277e-005        -101.381653       0.0623786644        -140.655478     1.7710007e-005          -176.5602      0.00954460812        -126.591431
                      0.022232943        -128.975211     1.7710007e-005          -176.5602       0.0656241347        -130.807996    6.25424924e-005        -125.054934
