! TE Connectivity
! H14H15-G14G15_FEXT
!!
!! PART DESCRIPTION: Whisper 27in Megtron 6 HVLP-HVLP-HVLP Channel Model, bulkhead 2.92mm test points
!! 
!! MODEL DESCRIPTION: System 4-port S-parameter
!! MODEL STATUS: Measured
!! MODEL GEOMETRY: Channel Model
!! MODEL FREQUENCY RANGE: DC to 40 GHz in 10 MHz frequency steps
!! MODEL EDGE RATE LIMITATION: 12.5 ps (Using conservative 0.5/Fmax rule of thumb)
!! 
!! TIME-DOMAIN TRANSFORM CAUTIONS: 
!! 1.) Do not simulate transient edge rates faster than the number listed above.  Edge
!!     rates faster than this number contain significant spectral content at frequencies
!!     above the model's highest frequency.
!! 2.) Even when simulating edge rates that are slower than the number listed above, be
!!     aware that the best time resolution possible with a direct iFFT is (1 / 2Fmax).
!!     As a result, time resolution is typically not adequate for most time-domain
!!     simulations unless tricks such as frequency-domain zero-padding and windowing are
!!     used to minimize leakage and aliasing. 
!! 3.) Because the model has a uniform frequency step, a direct iFFT will result in an
!!     impulse that that has a time length given by either (1 / Fstep) or (1 / 2Fstep),
!!     depending on the transform being used.  Care has been taken in selecting the
!!     frequency step to ensure a settled impulse response for the model.  Therefore,
!!     convolution with the model's impulse response should present no issues.  However,
!!     if directly concatenating s-parameter models in the frequency domain a user must
!!     either interpolate necessary interim frequencies or complete impulse response 
!!     zero-padding.  Impulse response zero-padding is more difficult, but more accurate. 
!!    
!! 
!! PORT DEFINITIONS: 
!! Port   1  ----->  Side A     H14            G14     Side B  <-----  Port   2
!! Port   3  ----->  Side A     H15            G15     Side B  <-----  Port   4
!! 
!!!!!!!!!!!!!!!!!!!!!!!!!!!!!!!!!!!!!!!!!!!!!!!!!!!!!!!!!!!!!!!!!!!!!!!!!!!!!!!!!!!!!!!!!!!!!!!!!!!!!!!!!!!!!!!!!!!!!!!!
!!!!!!!!!!!!!!!!!!!!!!!!!!!!!!!!!!!!!!!!!!!!!!!!!!!!!
! Point-to-Point link (differential)                !
! Connectors:                                       !
!   1: STRADA Whisper 3.9mm                         !
! Materials:                                        !
!  Backplane: Megtron-6 HVLP			    !
!  Daughtercard: Megtron-6 HVLP		            !
! Stack-up:					    !
!  Backplane: 20 layers, 190mil thick	            !
!  Daughtercard: 14 layers, 110mil thick	    !
! Trace Length:  		                    !
!  Backplane: 17in                                !
!  Daughtercards: 5in                               !
! Trace Width:                                      !
!  Backplane: 5.75-6.25-5.75 mils                   !
!  Daughtercards: 6-9-6 mils                        !
! Geometry:                                         !
!  Backplane: Stripline				    !
!  Daughtercards: Stripline                         !
! Layer Connections:                          	    !
!  Backplane: Layer 16, counterbored(1-6mil stub)   !
!  Daughtercard: Layer 9, counterbored(1-6mil stub) !
! Freq. Range: 0 GHz - 40 GHz                	    !
! Note1: non-mixed-mode s-parameters          	    ! 
! Note2: channel includes 2.92mm test points   	    !
!!!!!!!!!!!!!!!!!!!!!!!!!!!!!!!!!!!!!!!!!!!!!!!!!!!!!
!
! Created Thu Jul 21 14:51:07 2016
# hz S ma R 50
! 4 Port Network Data from SP1.SP block
! freq  magS11  angS11  magS12  angS12  magS13  angS13  magS14  angS14  
!       magS21  angS21  magS22  angS22  magS23  angS23  magS24  angS24  
!       magS31  angS31  magS32  angS32  magS33  angS33  magS34  angS34  
!       magS41  angS41  magS42  angS42  magS43  angS43  magS44  angS44  
!     
                 0      0.0330100426   -1.71480233e-027    5.09958594e-005                180      0.00195398556    2.35985778e-028     0.000584113238                180
                  5.09958594e-005                180       0.0283572238   -2.03068162e-029    1.30617951e-005                180      0.00173089536   -2.93891058e-027
                    0.00195398556    2.35985776e-028    1.30617951e-005                180       0.0315269358    1.36103145e-030    3.64708442e-005   -1.11053786e-021
                   0.000584113238                180      0.00173089536   -2.93891056e-027    3.64708442e-005   -1.11053786e-021       0.0283288639   -1.58463202e-027

          10000000      0.0591407134           25.21472     0.000249261669        -160.925755       0.0325065744         67.5510213     0.000351549204         120.266104
                   0.000249261669        -160.925755       0.0563738589         26.2342142     0.000381775698        -172.772208       0.0327986467         67.3152285
                     0.0325065744         67.5510213     0.000381775698        -172.772208       0.0624231676         24.7275916     0.000102686479        -61.1895928
                   0.000351549204         120.266104       0.0327986467         67.3152285     0.000102686479        -61.1895928       0.0553927167         26.8789248

          20000000      0.0819532017         16.4852002     0.000187918458         166.274651        0.061638445         49.7832159     0.000108580544         164.616834
                   0.000187918458         166.274651       0.0768004351         16.9332588     0.000130457963         126.603507       0.0619412399         50.1667548
                      0.061638445         49.7832159     0.000130457963         126.603507       0.0819585611         15.4024174     0.000118464147         138.416188
                   0.000108580544         164.616834       0.0619412399         50.1667548     0.000118464147         138.416188       0.0764130143         15.2582092

          30000000        0.10139797         3.11434304     0.000105365789         -170.50231       0.0853803929         32.1311741    8.86787959e-005         159.283181
                   0.000105365789         -170.50231       0.0969033433         3.27067462    3.92618348e-005        -63.0498413       0.0858900846         32.4165762
                     0.0853803929         32.1311741    3.92618348e-005        -63.0498413       0.0997578336         2.16445776     0.000143984952        -152.135519
                  8.86787959e-005         159.283181       0.0858900846         32.4165762     0.000143984952        -152.135519       0.0947329722         2.72030688

          40000000       0.113562657        -11.6496918    9.88148857e-005          165.10761        0.102651382          14.263861    7.06832218e-005          113.48949
                  9.88148857e-005          165.10761        0.108829955        -11.6530958      0.00010256212         123.620114         0.10347882         14.7444684
                      0.102651382          14.263861      0.00010256212         123.620114         0.10882884        -12.3031466     0.000231149483         151.942901
                  7.06832218e-005          113.48949         0.10347882         14.7444684     0.000231149483         151.942901         0.10581493        -11.4716538

          50000000       0.119086008        -26.4674536     0.000167332097         151.893603        0.112822701        -3.36061107     0.000112011868         129.222723
                   0.000167332097         151.893603        0.114932125        -26.6450524     0.000140872899         137.237468        0.113583616         -2.8007426
                      0.112822701        -3.36061107     0.000140872899         137.237468        0.113181694        -27.2234634     0.000202749527         153.981829
                   0.000112011868         129.222723        0.113583616         -2.8007426     0.000202749527         153.981829        0.111925731        -25.7279724

          60000000       0.116077268        -40.6598576     0.000116860241         145.823531        0.115495765        -21.0817215    5.67126364e-005         114.316523
                   0.000116860241         145.823531        0.114289499        -39.9438766     0.000118107925         104.371573        0.116353285        -20.5119462
                      0.115495765        -21.0817215     0.000118107925         104.371573        0.111691206        -41.5623072      0.00014885603         109.811746
                  5.67126364e-005         114.316523        0.116353285        -20.5119462      0.00014885603         109.811746        0.112701522        -39.4730364

          70000000       0.108734351        -54.3406644     0.000223096757         121.687837        0.110970042        -38.5485271     0.000116698512         110.847644
                   0.000223096757         121.687837        0.109369762        -53.3660506     0.000133745885         71.7155343        0.111547491        -37.8425993
                      0.110970042        -38.5485271     0.000133745885         71.7155343        0.106142268         -56.171207     0.000265828775          127.04458
                   0.000116698512         110.847644        0.111547491        -37.8425993     0.000265828775          127.04458        0.108950171        -52.8217926

          80000000      0.0956990558        -66.6725668     0.000202313221         87.6994581       0.0995584385        -55.8072029      0.00012837064            113.148
                   0.000202313221         87.6994581        0.100744849        -66.2390114     0.000127106786         34.6675987        0.100114317        -54.8899464
                     0.0995584385        -55.8072029     0.000127106786         34.6675987       0.0958368207        -69.9301508     0.000231602508         110.944394
                    0.00012837064            113.148        0.100114317        -54.8899464     0.000231602508         110.944394        0.101094459        -66.1638924

          90000000      0.0802923445        -77.5235536     0.000253534582         80.4398609       0.0827142118        -72.4789622    8.14329512e-005         105.416526
                   0.000253534582         80.4398609       0.0897331758        -77.6947822     0.000139776015         107.962747        0.083100343        -71.3858153
                     0.0827142118        -72.4789622     0.000139776015         107.962747       0.0818905579        -82.7772538     0.000305013582          74.113031
                  8.14329512e-005         105.416526        0.083100343        -71.3858153     0.000305013582          74.113031        0.090665944        -77.9386932

         100000000      0.0637718661        -86.0569282     0.000250936334         76.0757505       0.0620864706        -88.1985577     0.000151646694         94.9577793
                   0.000250936334         76.0757505       0.0772998448        -88.3901756     0.000120793677         30.4813465       0.0623475678        -86.9329853
                     0.0620864706        -88.1985577     0.000120793677         30.4813465        0.066480964        -93.5335602     0.000307162034         66.6516765
                   0.000151646694         94.9577793       0.0623475678        -86.9329853     0.000307162034         66.6516765       0.0783198183        -88.6547098

         110000000      0.0481001262         -90.801276     0.000330726271         58.1150152       0.0395955921        -101.268409      0.00016110873         61.5711777
                   0.000330726271         58.1150152       0.0647857521        -97.2053046     0.000119771414         46.0946305       0.0396091972        -99.6972772
                     0.0395955921        -101.268409     0.000119771414         46.0946305       0.0503904847        -101.102788     0.000287587703         29.6791725
                    0.00016110873         61.5711777       0.0396091972        -99.6972772     0.000287587703         29.6791725       0.0659186501        -97.0876828

         120000000      0.0359003047         -87.598235     0.000308768143         28.7668699       0.0178943569        -102.202121     0.000182599057         32.9893027
                   0.000308768143         28.7668699       0.0535651393         -103.73379     0.000150725233         37.3131089       0.0179383626        -99.6829524
                     0.0178943569        -102.202121     0.000150725233         37.3131089       0.0358328806        -102.407988      0.00046187926         32.2231831
                   0.000182599057         32.9893027       0.0179383626        -99.6829524      0.00046187926         32.2231831       0.0546283069         -103.20113

         130000000      0.0300982883        -76.1607606     0.000339490234         15.0074087        0.010576077        -26.7834167     0.000205674622         19.8036416
                   0.000339490234         15.0074087       0.0435393934        -106.895076      0.00016243123         8.79461282       0.0110932031         -24.016261
                      0.010576077        -26.7834167      0.00016243123         8.79461282       0.0259969537        -93.2277778     0.000430452367         14.4001231
                   0.000205674622         19.8036416       0.0110932031         -24.016261     0.000430452367         14.4001231       0.0461572558        -105.902946

         140000000      0.0316694407        -64.5796048     0.000337943926        -13.7050076       0.0253162347        -7.43756719      0.00023193493        -7.90454497
                   0.000337943926        -13.7050076       0.0363616914        -104.066832      0.00017359101        -31.6443478       0.0261850967        -5.65480036
                     0.0253162347        -7.43756719      0.00017359101        -31.6443478       0.0229815684        -76.4088818     0.000440656689        -5.77694965
                    0.00023193493        -7.90454497       0.0261850967        -5.65480036     0.000440656689        -5.77694965       0.0413237548        -106.307454

         150000000      0.0378801404         -61.613405     0.000385995346        -27.2752251       0.0385794093        -17.4125308     0.000215681511        -22.7803142
                   0.000385995346        -27.2752251       0.0344483004        -97.0887296    9.96250394e-005        -56.2429099        0.039446742        -15.5551399
                     0.0385794093        -17.4125308    9.96250394e-005        -56.2429099       0.0254901301        -66.7205344     0.000451300229        -29.1509383
                   0.000215681511        -22.7803142        0.039446742        -15.5551399     0.000451300229        -29.1509383       0.0395088673        -104.185274

         160000000      0.0445476755         -66.210267      0.00039497809        -45.9075029        0.047205087        -31.7683494     0.000235142692        -66.6915028
                    0.00039497809        -45.9075029       0.0377580508        -91.6776914     0.000128020345         -74.398838       0.0482278895        -29.7495403
                      0.047205087        -31.7683494     0.000128020345         -74.398838       0.0286868843        -66.5109826     0.000523570986        -51.1002642
                   0.000235142692        -66.6915028       0.0482278895        -29.7495403     0.000523570986        -51.1002642       0.0405124419        -105.473736

         170000000        0.05016716        -73.9974002     0.000416653496        -61.0987267       0.0509182385        -47.4535541     0.000159407241        -83.0967118
                   0.000416653496        -61.0987267       0.0440106532         -91.748214     0.000160432886        -102.875868       0.0520277657        -45.2458581
                     0.0509182385        -47.4535541     0.000160432886        -102.875868       0.0308132987        -72.2118724     0.000469277124        -63.9208789
                   0.000159407241        -83.0967118       0.0520277657        -45.2458581     0.000469277124        -63.9208789       0.0425712362        -107.842306

         180000000       0.053410696        -83.0648676     0.000385817545         -82.957536       0.0501070288        -63.4182054     0.000221664733        -78.5133493
                   0.000385817545         -82.957536        0.050933433        -96.7674352     0.000173765977        -112.270046       0.0510137968        -61.1727603
                     0.0501070288        -63.4182054     0.000173765977        -112.270046       0.0317075881        -79.4745366       0.0005098519         -90.656108
                   0.000221664733        -78.5133493       0.0510137968        -61.1727603       0.0005098519         -90.656108        0.045052298        -112.442008

         190000000       0.054338302        -91.8819686     0.000426316085        -97.5001163       0.0454422889        -79.4574705     0.000238984002         -96.381909
                   0.000426316085        -97.5001163       0.0568475344        -103.957462      0.00018491359        -114.419933       0.0460278831        -77.0266264
                     0.0454422889        -79.4574705      0.00018491359        -114.419933       0.0325161161        -88.5142244     0.000524640633        -99.8381774
                   0.000238984002         -96.381909       0.0460278831        -77.0266264     0.000524640633        -99.8381774        0.046382471         -118.03817

         200000000      0.0533992419        -99.9057032     0.000448183228        -118.920967       0.0379626411        -95.2152333     0.000192567159        -120.836154
                   0.000448183228        -118.920967       0.0604547275        -112.162794     0.000143389143        -142.605904       0.0380272493        -92.5772169
                     0.0379626411        -95.2152333     0.000143389143        -142.605904       0.0325961549        -98.5728186     0.000580045404        -117.331551
                   0.000192567159        -120.836154       0.0380272493        -92.5772169     0.000580045404        -117.331551       0.0474307692        -124.108732

         210000000      0.0514657817        -106.798758     0.000386730143        -135.926173       0.0289149095        -110.030582     0.000228648992        -141.839972
                   0.000386730143        -135.926173       0.0626960896        -120.539984     0.000160321419        -152.833823       0.0283142337        -107.297864
                     0.0289149095        -110.030582     0.000160321419        -152.833823       0.0336118861        -109.120948     0.000609558929        -134.647949
                   0.000228648992        -141.839972       0.0283142337        -107.297864     0.000609558929        -134.647949       0.0477679833        -130.148042

         220000000      0.0486642972        -112.928048     0.000481706969         -154.64964         0.01967021        -122.817988     0.000220926457        -164.593909
                   0.000481706969         -154.64964       0.0636081463        -129.699086      0.00019105312        -173.055213       0.0184257799        -119.801081
                       0.01967021        -122.817988      0.00019105312        -173.055213       0.0345939214        -120.467512      0.00053328173        -157.645473
                   0.000220926457        -164.593909       0.0184257799        -119.801081      0.00053328173        -157.645473       0.0485804796        -136.012404

         230000000      0.0458757928        -120.554678     0.000447694311        -168.729663       0.0115313302        -131.473029     0.000241593917        -171.646202
                   0.000447694311        -168.729663       0.0636458698        -139.611458     0.000163173265         163.508199      0.00954609808        -126.189693
                     0.0115313302        -131.473029     0.000163173265         163.508199       0.0355420857        -133.129006     0.000584470364        -171.726907
