! TE Connectivity
! G11G12-G14G15_NEXT
!!
!! PART DESCRIPTION: Whisper 27in Megtron 6 HVLP-HVLP-HVLP Channel Model, bulkhead 2.92mm test points
!! 
!! MODEL DESCRIPTION: System 4-port S-parameter
!! MODEL STATUS: Measured
!! MODEL GEOMETRY: Channel Model
!! MODEL FREQUENCY RANGE: DC to 40 GHz in 10 MHz frequency steps
!! MODEL EDGE RATE LIMITATION: 12.5 ps (Using conservative 0.5/Fmax rule of thumb)
!! 
!! TIME-DOMAIN TRANSFORM CAUTIONS: 
!! 1.) Do not simulate transient edge rates faster than the number listed above.  Edge
!!     rates faster than this number contain significant spectral content at frequencies
!!     above the model's highest frequency.
!! 2.) Even when simulating edge rates that are slower than the number listed above, be
!!     aware that the best time resolution possible with a direct iFFT is (1 / 2Fmax).
!!     As a result, time resolution is typically not adequate for most time-domain
!!     simulations unless tricks such as frequency-domain zero-padding and windowing are
!!     used to minimize leakage and aliasing. 
!! 3.) Because the model has a uniform frequency step, a direct iFFT will result in an
!!     impulse that that has a time length given by either (1 / Fstep) or (1 / 2Fstep),
!!     depending on the transform being used.  Care has been taken in selecting the
!!     frequency step to ensure a settled impulse response for the model.  Therefore,
!!     convolution with the model's impulse response should present no issues.  However,
!!     if directly concatenating s-parameter models in the frequency domain a user must
!!     either interpolate necessary interim frequencies or complete impulse response 
!!     zero-padding.  Impulse response zero-padding is more difficult, but more accurate. 
!!    
!! 
!! PORT DEFINITIONS: 
!! Port   1  ----->  Side A     G11            G14     Side B  <-----  Port   2
!! Port   3  ----->  Side A     G12            G15     Side B  <-----  Port   4
!! 
!!!!!!!!!!!!!!!!!!!!!!!!!!!!!!!!!!!!!!!!!!!!!!!!!!!!!!!!!!!!!!!!!!!!!!!!!!!!!!!!!!!!!!!!!!!!!!!!!!!!!!!!!!!!!!!!!!!!!!!!
!!!!!!!!!!!!!!!!!!!!!!!!!!!!!!!!!!!!!!!!!!!!!!!!!!!!!
! Point-to-Point link (differential)                !
! Connectors:                                       !
!   1: STRADA Whisper 3.9mm                         !
! Materials:                                        !
!  Backplane: Megtron-6 HVLP			    !
!  Daughtercard: Megtron-6 HVLP		            !
! Stack-up:					    !
!  Backplane: 20 layers, 190mil thick	            !
!  Daughtercard: 14 layers, 110mil thick	    !
! Trace Length:  		                    !
!  Backplane: 17in                                !
!  Daughtercards: 5in                               !
! Trace Width:                                      !
!  Backplane: 5.75-6.25-5.75 mils                   !
!  Daughtercards: 6-9-6 mils                        !
! Geometry:                                         !
!  Backplane: Stripline				    !
!  Daughtercards: Stripline                         !
! Layer Connections:                          	    !
!  Backplane: Layer 16, counterbored(1-6mil stub)   !
!  Daughtercard: Layer 9, counterbored(1-6mil stub) !
! Freq. Range: 0 GHz - 40 GHz                	    !
! Note1: non-mixed-mode s-parameters          	    ! 
! Note2: channel includes 2.92mm test points   	    !
!!!!!!!!!!!!!!!!!!!!!!!!!!!!!!!!!!!!!!!!!!!!!!!!!!!!!
!
! Created Thu Jul 21 14:53:07 2016
# hz S ma R 50
! 4 Port Network Data from SP1.SP block
! freq  magS11  angS11  magS12  angS12  magS13  angS13  magS14  angS14  
!       magS21  angS21  magS22  angS22  magS23  angS23  magS24  angS24  
!       magS31  angS31  magS32  angS32  magS33  angS33  magS34  angS34  
!       magS41  angS41  magS42  angS42  magS43  angS43  magS44  angS44  
!     
                 0      0.0290568631    1.04743653e-029     0.000118245451   -1.31309952e-023      0.00183520298    5.46749928e-028    2.26984351e-005                180
                   0.000118245451   -1.31309952e-023       0.0238070456   -5.08442218e-037     0.000271548436    5.54657315e-032      0.00130934473    4.74144079e-028
                    0.00183520298    5.46749927e-028     0.000271548436    5.54657315e-032       0.0281243358   -6.92166246e-037     0.000358455887    -4.3100613e-024
                  2.26984351e-005                180      0.00130934473    4.74144078e-028     0.000358455887    -4.3100613e-024         0.02679566    3.99135644e-029

          10000000      0.0529263176         21.0842392      0.00029872745        -154.492121       0.0340417958         67.1580687      0.00016423676        -177.003439
                    0.00029872745        -154.492121       0.0581683448         28.8069338     0.000353630466        -36.4573328       0.0332770821         67.2969603
                     0.0340417958         67.1580687     0.000353630466        -36.4573328        0.055004247         20.5669698     0.000156452021        -130.113292
                    0.00016423676        -177.003439       0.0332770821         67.2969603     0.000156452021        -130.113292       0.0578953801         26.3851414

          20000000       0.067212198         10.9682626     0.000103306732         177.886741       0.0645675686         50.2523223     0.000138738525         110.561746
                   0.000103306732         177.886741       0.0770072528          16.299748     0.000114600572         135.119111       0.0623505745         50.3072574
                     0.0645675686         50.2523223     0.000114600572         135.119111       0.0674040897         9.97569054     0.000177955937        -15.1358637
                   0.000138738525         110.561746       0.0623505745         50.3072574     0.000177955937        -15.1358637       0.0768679026         15.2939542

          30000000      0.0795769203         -2.1957409    4.53159456e-005         124.813704       0.0896311682           32.21318    8.20339424e-005         41.1640023
                  4.53159456e-005         124.813704       0.0958322008         3.18213652    6.85118383e-005         41.8731267       0.0861028516         32.6242978
                     0.0896311682           32.21318    6.85118383e-005         41.8731267       0.0795095377        -3.92538222    3.54257061e-005        -45.1154541
                  8.20339424e-005         41.1640023       0.0861028516         32.6242978    3.54257061e-005        -45.1154541       0.0951409455          1.5130922

          40000000      0.0851212446        -16.8123734    5.92760413e-005        -5.28197197        0.107897432         14.3539074    6.02652283e-005        -30.5484687
                  5.92760413e-005        -5.28197197        0.107450762        -11.5486298     0.000134633969        -5.10776773        0.103665446         14.9135196
                      0.107897432         14.3539074     0.000134633969        -5.10776773       0.0853307699        -17.8540332    4.14569137e-005        -150.135979
                  6.02652283e-005        -30.5484687        0.103665446         14.9135196    4.14569137e-005        -150.135979        0.105374299        -13.0263304

          50000000      0.0871585811        -30.6892708    5.33504635e-005        -115.534198        0.118575366        -3.31996637    3.65977768e-005          108.58194
                  5.33504635e-005        -115.534198        0.114296199        -26.1220096    5.41095656e-005         -23.934978        0.113808591        -2.49967508
                      0.118575366        -3.31996637    5.41095656e-005         -23.934978       0.0863544656        -32.1718544     4.0429152e-005        -113.203005
                  3.65977768e-005          108.58194        0.113808591        -2.49967508     4.0429152e-005        -113.203005        0.111051873        -27.6260792

          60000000      0.0837854658         -43.743702    3.39292737e-005        -103.067442        0.121575735        -21.1540792    5.45806452e-005        -107.303155
                  3.39292737e-005        -103.067442        0.113973315        -39.9817486     5.8283594e-005        -28.5375359        0.116613177        -20.1334428
                      0.121575735        -21.1540792     5.8283594e-005        -28.5375359       0.0825625859        -45.4351536     4.9718393e-005        -71.8121184
                  5.45806452e-005        -107.303155        0.116613177        -20.1334428     4.9718393e-005        -71.8121184        0.110191826        -41.5473992

          70000000      0.0776088722         -56.897145    2.42911634e-005         95.9850329        0.116747186        -38.6260679    7.79823004e-005        -140.152198
                  2.42911634e-005         95.9850329         0.10888667        -53.5658954    3.04516316e-005         16.5573051        0.111813047        -37.3164706
                      0.116747186        -38.6260679    3.04516316e-005         16.5573051       0.0770207546        -59.1061178    5.46220942e-005        -116.101338
                  7.79823004e-005        -140.152198        0.111813047        -37.3164706    5.46220942e-005        -116.101338        0.106941745        -55.6413462

          80000000       0.067888241        -68.1173634    1.79599152e-005          88.979337        0.105002469        -55.7365987    3.63841046e-005        -16.2298518
                  1.79599152e-005          88.979337        0.100595812        -65.9967864    7.13529833e-005        -60.5301226        0.100374263        -54.2918204
                      0.105002469        -55.7365987    7.13529833e-005        -60.5301226        0.068694339        -71.6203696    4.34015034e-005         18.5832325
                  3.63841046e-005        -16.2298518        0.100374263        -54.2918204    4.34015034e-005         18.5832325       0.0987025787        -68.6922052

          90000000      0.0572174226        -77.1517602    8.38065155e-005        -174.901707       0.0875518032        -72.4262494    7.95821024e-005         110.415484
                  8.38065155e-005        -174.901707       0.0898256955        -77.6480292    2.94663766e-005         155.357364       0.0833593635         -70.692807
                     0.0875518032        -72.4262494    2.94663766e-005         155.357364        0.058371046        -83.2764636    3.70834417e-005         4.83683045
                  7.95821024e-005         110.415484       0.0833593635         -70.692807    3.70834417e-005         4.83683045       0.0897689887        -81.2414052

         100000000      0.0472915641         -84.022536    2.65104909e-005         117.711259       0.0661658028        -88.0344567    5.26535452e-005        -19.6382444
                  2.65104909e-005         117.711259       0.0776058964        -89.4883586     3.7483418e-005         64.7949721       0.0625505119        -86.1052501
                     0.0661658028        -88.0344567     3.7483418e-005         64.7949721       0.0478920858        -92.1828986    5.56165404e-005          32.731807
                  5.26535452e-005        -19.6382444       0.0625505119        -86.1052501    5.56165404e-005          32.731807       0.0793585938         -92.897111

         110000000      0.0375515331         -87.850677    3.02499629e-005         102.436849       0.0428798508        -101.151828    2.09516353e-005         175.375953
                  3.02499629e-005         102.436849       0.0648369309        -99.9065378     0.000117659972          46.823944       0.0398752003         -98.641674
                     0.0428798508        -101.151828     0.000117659972          46.823944       0.0380996361        -98.9510814    2.04928585e-005        -41.8882879
                  2.09516353e-005         175.375953       0.0398752003         -98.641674    2.04928585e-005        -41.8882879       0.0678326745        -104.288964

         120000000      0.0300812514        -84.3706126    3.51090435e-005         59.6965914       0.0202756779        -103.699149    2.11188926e-005         148.423193
                  3.51090435e-005         59.6965914       0.0511932048         -110.07461     0.000184033457         28.3385898       0.0181917247        -98.8172109
                     0.0202756779        -103.699149     0.000184033457         28.3385898       0.0288552819        -99.4312808     3.6905742e-005         63.2432422
                  2.11188926e-005         148.423193       0.0181917247        -98.8172109     3.6905742e-005         63.2432422       0.0557564303        -114.933802

         130000000      0.0273351619        -77.0081618    5.46866767e-005        -41.1465523       0.0104158797        -34.7492822    7.05482318e-005         48.6387179
                  5.46866767e-005        -41.1465523       0.0382101448        -115.813904     0.000193902822         21.9156942       0.0110067002        -23.8066149
                     0.0104158797        -34.7492822     0.000193902822         21.9156942       0.0234436813          -92.96488    8.39414223e-005         19.7692668
                  7.05482318e-005         48.6387179       0.0110067002        -23.8066149    8.39414223e-005         19.7692668       0.0428832676        -123.736178

         140000000      0.0280576229         -71.665124    2.62439021e-005        -31.9697737       0.0250740207        -8.25812192    4.94286653e-005        -32.9905251
                  2.62439021e-005        -31.9697737       0.0266014104        -112.592762     0.000225201512        -10.2661201       0.0259232276        -4.45465756
                     0.0250740207        -8.25812192     0.000225201512        -10.2661201       0.0215817682        -83.3287158    7.13070167e-005         1.31672454
                  4.94286653e-005        -32.9905251       0.0259232276        -4.45465756    7.13070167e-005         1.31672454       0.0305458678        -127.249772

         150000000      0.0307781577        -68.8967186    4.48996175e-005         -2.8603368       0.0390291263        -17.1438486    4.58948696e-006         121.909516
                  4.48996175e-005         -2.8603368       0.0218780723        -93.7217768     0.000264160049        -17.6035389       0.0393444743          -14.04726
                     0.0390291263        -17.1438486     0.000264160049        -17.6035389       0.0229753329         -75.454423    7.36978491e-005        -43.5777059
                  4.58948696e-006         121.909516       0.0393444743          -14.04726    7.36978491e-005        -43.5777059       0.0206153303        -117.545204

         160000000      0.0351829452        -72.1576102    4.10951928e-005        -128.544216       0.0484696516        -30.9043875    2.37512913e-005        -52.7401596
                  4.10951928e-005        -128.544216       0.0263615559        -76.8885028     0.000220848737        -37.6745699       0.0481405521        -27.8423174
                     0.0484696516        -30.9043875     0.000220848737        -37.6745699       0.0250638253        -73.9444632     0.000114286591        -90.9911234
                  2.37512913e-005        -52.7401596       0.0481405521        -27.8423174     0.000114286591        -90.9911234       0.0187648173        -92.9337134

         170000000      0.0387574644        -78.9873228    1.87772244e-005        -12.7695756       0.0529407941        -46.1635393    2.10110551e-005        -111.214526
                  1.87772244e-005        -12.7695756       0.0353847411        -75.8558436       0.0002735288        -48.4962214       0.0520673707        -42.9964184
                     0.0529407941        -46.1635393       0.0002735288        -48.4962214       0.0275920417        -74.6598212    6.98863377e-005        -108.343363
                  2.10110551e-005        -111.214526       0.0520673707        -42.9964184    6.98863377e-005        -108.343363       0.0244216207         -77.468684

         180000000      0.0410688298        -85.9199256    3.38699656e-005        -69.7813134       0.0527129391        -61.8746195    1.66382733e-005        -71.0916075
                  3.38699656e-005        -69.7813134       0.0442806911        -82.5296466     0.000322170684        -75.2599296       0.0511881964        -58.3885872
                     0.0527129391        -61.8746195     0.000322170684        -75.2599296       0.0306440501        -78.2263518     0.000104048394        -79.3789916
                  1.66382733e-005        -71.0916075       0.0511881964        -58.3885872     0.000104048394        -79.3789916       0.0321774975        -77.7533696

         190000000      0.0429325714        -93.6557744     7.9961476e-005        -106.664315       0.0486060857        -77.4506986    2.25292372e-005         176.860082
                   7.9961476e-005        -106.664315       0.0513715961        -92.7681596     0.000282856544        -94.3263418       0.0463611808        -73.5891427
                     0.0486060857        -77.4506986     0.000282856544        -94.3263418       0.0333382143        -84.1621214    7.06509541e-005        -127.287436
                  2.25292372e-005         176.860082       0.0463611808        -73.5891427    7.06509541e-005        -127.287436       0.0391419885        -84.3646566

         200000000      0.0443227271        -102.475256    2.99930544e-005         -135.57806       0.0415370434        -92.7696469    2.94052346e-005        -85.0260612
                  2.99930544e-005         -135.57806       0.0566510659         -103.55416     0.000232544813        -106.925706        0.038559539        -88.0682243
                     0.0415370434        -92.7696469     0.000232544813        -106.925706       0.0358154658        -92.1563022    7.44693196e-005        -137.146135
                  2.94052346e-005        -85.0260612        0.038559539        -88.0682243    7.44693196e-005        -137.146135       0.0446759458        -93.5502528

         210000000      0.0435280735        -111.339756     3.7186396e-005        -59.0649138       0.0328332307        -107.062446    2.87074686e-005        -33.3792929
                   3.7186396e-005        -59.0649138       0.0595530163        -114.724702     0.000210223972        -128.828251       0.0291332882        -101.036615
                     0.0328332307        -107.062446     0.000210223972        -128.828251       0.0377463898          -101.7485    6.24237685e-005        -15.0671165
                  2.87074686e-005        -33.3792929       0.0291332882        -101.036615    6.24237685e-005        -15.0671165       0.0491218345        -104.544088

         220000000      0.0430339904        -120.856878     6.2222403e-005        -147.613793       0.0238501244        -120.179682    2.86362106e-005         25.0254738
                   6.2222403e-005        -147.613793       0.0613577525        -126.189936     0.000224282064        -150.566396       0.0195611565        -110.749986
                     0.0238501244        -120.179682     0.000224282064        -150.566396       0.0389521991        -113.893404    2.74713831e-005        -158.901755
                  2.86362106e-005         25.0254738       0.0195611565        -110.749986    2.74713831e-005        -158.901755       0.0515737308         -116.86162

         230000000      0.0409911153         -131.50471    2.46631042e-005        -71.1041004       0.0158224678        -131.040001    2.99727721e-005        -109.424914
                  2.46631042e-005        -71.1041004       0.0620263712        -139.047108     0.000128626255         -161.00407       0.0114000652        -112.533747
                     0.0158224678        -131.040001     0.000128626255         -161.00407       0.0386357314        -127.725696    4.35821979e-005         138.510899
