! TE Connectivity
! G14G15_THRU
!!
!! PART DESCRIPTION: Whisper 27in Megtron 6 HVLP-HVLP-HVLP Channel Model, bulkhead 2.92mm test points
!! 
!! MODEL DESCRIPTION: System 4-port S-parameter
!! MODEL STATUS: Measured
!! MODEL GEOMETRY: Channel Model
!! MODEL FREQUENCY RANGE: DC to 40 GHz in 10 MHz frequency steps
!! MODEL EDGE RATE LIMITATION: 12.5 ps (Using conservative 0.5/Fmax rule of thumb)
!! 
!! TIME-DOMAIN TRANSFORM CAUTIONS: 
!! 1.) Do not simulate transient edge rates faster than the number listed above.  Edge
!!     rates faster than this number contain significant spectral content at frequencies
!!     above the model's highest frequency.
!! 2.) Even when simulating edge rates that are slower than the number listed above, be
!!     aware that the best time resolution possible with a direct iFFT is (1 / 2Fmax).
!!     As a result, time resolution is typically not adequate for most time-domain
!!     simulations unless tricks such as frequency-domain zero-padding and windowing are
!!     used to minimize leakage and aliasing. 
!! 3.) Because the model has a uniform frequency step, a direct iFFT will result in an
!!     impulse that that has a time length given by either (1 / Fstep) or (1 / 2Fstep),
!!     depending on the transform being used.  Care has been taken in selecting the
!!     frequency step to ensure a settled impulse response for the model.  Therefore,
!!     convolution with the model's impulse response should present no issues.  However,
!!     if directly concatenating s-parameter models in the frequency domain a user must
!!     either interpolate necessary interim frequencies or complete impulse response 
!!     zero-padding.  Impulse response zero-padding is more difficult, but more accurate. 
!!    
!! 
!! PORT DEFINITIONS: 
!! Port   1  ----->  Side A     G14     Side B  <-----  Port   2
!! Port   3  ----->  Side A     G15     Side B  <-----  Port   4
!! 
!!!!!!!!!!!!!!!!!!!!!!!!!!!!!!!!!!!!!!!!!!!!!!!!!!!!!!!!!!!!!!!!!!!!!!!!!!!!!!!!!!!!!!!!!!!!!!!!!!!!!!!!!!!!!!!!!!!!!!!!
!!!!!!!!!!!!!!!!!!!!!!!!!!!!!!!!!!!!!!!!!!!!!!!!!!!!!
! Point-to-Point link (differential)                !
! Connectors:                                       !
!   1: STRADA Whisper 3.9mm                         !
! Materials:                                        !
!  Backplane: Megtron-6 HVLP			    !
!  Daughtercard: Megtron-6 HVLP		            !
! Stack-up:					    !
!  Backplane: 20 layers, 190mil thick	            !
!  Daughtercard: 14 layers, 110mil thick	    !
! Trace Length:  		                    !
!  Backplane: 17in                                !
!  Daughtercards: 5in                               !
! Trace Width:                                      !
!  Backplane: 5.75-6.25-5.75 mils                   !
!  Daughtercards: 6-9-6 mils                        !
! Geometry:                                         !
!  Backplane: Stripline				    !
!  Daughtercards: Stripline                         !
! Layer Connections:                          	    !
!  Backplane: Layer 16, counterbored(1-6mil stub)   !
!  Daughtercard: Layer 9, counterbored(1-6mil stub) !
! Freq. Range: 0 GHz - 40 GHz                	    !
! Note1: non-mixed-mode s-parameters          	    ! 
! Note2: channel includes 2.92mm test points   	    !
!!!!!!!!!!!!!!!!!!!!!!!!!!!!!!!!!!!!!!!!!!!!!!!!!!!!!
!
! Created Thu Jul 21 14:46:05 2016
# hz S ma R 50
! 4 Port Network Data from SP1.SP block
! freq  magS11  angS11  magS12  angS12  magS13  angS13  magS14  angS14  
!       magS21  angS21  magS22  angS22  magS23  angS23  magS24  angS24  
!       magS31  angS31  magS32  angS32  magS33  angS33  magS34  angS34  
!       magS41  angS41  magS42  angS42  magS43  angS43  magS44  angS44  
!     
                 0      0.0237509996    7.34498906e-024        0.973990303   -2.34518495e-025      0.00140259747    1.62768666e-022       0.0012780022                180
                      0.973990303   -2.34518495e-025       0.0282607139    9.98067532e-024        0.002068007                180      0.00194295603    1.17500565e-022
                    0.00140259747    1.62768665e-022        0.002068007                180       0.0249326561    1.13128116e-023         0.97398145   -2.34297161e-025
                     0.0012780022                180      0.00194295603    1.17500562e-022         0.97398145   -2.34297162e-025       0.0271012214    6.43695137e-024

          10000000       0.058228467         28.6868452        0.958347038        -19.8964537       0.0329739215         67.5404781      0.00314688055        -173.606719
                      0.958347038        -19.8964537       0.0563239131         26.5107862       0.0029568412          177.21972       0.0327341945          66.587644
                     0.0329739215         67.5404781       0.0029568412          177.21972       0.0584992114          26.789225        0.958965402        -19.9788758
                    0.00314688055        -173.606719       0.0327341945          66.587644        0.958965402        -19.9788758       0.0556815825         26.9305466

          20000000      0.0771923343         16.3911718        0.947867247        -38.5461893        0.062138238           50.33273      0.00459748586         149.825343
                      0.947867247        -38.5461893       0.0771922451         17.0313036      0.00469375955         149.422106       0.0621026341          50.298457
                      0.062138238           50.33273      0.00469375955         149.422106       0.0770471142          15.343423         0.94679036        -38.6174311
                    0.00459748586         149.825343       0.0621026341          50.298457         0.94679036        -38.6174311       0.0764177291         15.1485988

          30000000      0.0958562039         2.93705994        0.937875096        -57.2138378       0.0861337338         32.5794962       0.0067558095          112.91273
                      0.937875096        -57.2138378       0.0969532284         3.38741292      0.00688841089         109.988936       0.0858271003         32.4236841
                     0.0861337338         32.5794962      0.00688841089         109.988936       0.0952598138         1.53078242        0.937481811        -57.2976923
                     0.0067558095          112.91273       0.0858271003         32.4236841        0.937481811        -57.2976923       0.0947251554         2.72125056

          40000000        0.10721358        -11.6830306        0.928891635        -75.7493175        0.103583931         14.9144815      0.00852020084         75.9317634
                      0.928891635        -75.7493175        0.108759399        -11.4953226      0.00875292892         74.4256829        0.103418686         14.6741152
                      0.103583931         14.9144815      0.00875292892         74.4256829        0.105314737        -13.0380516        0.929080295        -75.8207813
                    0.00852020084         75.9317634        0.103418686         14.6741152        0.929080295        -75.8207813        0.106063718        -11.5754756

          50000000       0.113795694        -26.2236382        0.921664994        -94.1012733        0.113804761         -2.4891036       0.0106193812         41.2666606
                      0.921664994        -94.1012733        0.114756562        -26.4203252       0.0108067628         40.4990379        0.113564869        -2.83945372
                      0.113804761         -2.4891036       0.0108067628         40.4990379        0.111065679        -27.5347362        0.921468445        -94.1931277
                     0.0106193812         41.2666606        0.113564869        -2.83945372        0.921468445        -94.1931277        0.111921308        -25.7304012

          60000000       0.113141951         -40.136099        0.915276698        -112.369244         0.11667017        -20.1159389       0.0120596036         8.89269736
                      0.915276698        -112.369244        0.114033227         -39.763361       0.0119788932         7.60629632         0.11634575        -20.5717394
                       0.11667017        -20.1159389       0.0119788932         7.60629632        0.109928756        -41.5478568        0.914857637        -112.488406
                     0.0120596036         8.89269736         0.11634575        -20.5717394        0.914857637        -112.488406        0.112773892        -39.3997088

          70000000       0.108203699        -53.5657696         0.91018328        -130.685933        0.111874518        -37.2916652       0.0132574825        -22.3815213
                       0.91018328        -130.685933        0.109058786        -53.2123836       0.0133941955        -23.5580207        0.111517891        -37.8865964
                      0.111874518        -37.2916652       0.0133941955        -23.5580207        0.106752241        -55.6121066        0.909966574        -130.815298
                     0.0132574825        -22.3815213        0.111517891        -37.8865964        0.909966574        -130.815298        0.108943609        -52.8712536

          80000000       0.100091272        -65.9753402        0.906165468        -148.984784        0.100205324        -54.2592086       0.0143089307        -52.0818947
                      0.906165468        -148.984784         0.10047184        -66.1281872       0.0144122767        -53.4602728        0.100026575        -54.8994069
                      0.100205324        -54.2592086       0.0144122767        -53.4602728       0.0986579986         -68.741102        0.905879393         -149.13417
                     0.0143089307        -52.0818947        0.100026575        -54.8994069        0.905879393         -149.13417        0.101103737        -66.1156294

          90000000      0.0894547215         -77.642297        0.902412784        -167.327645        0.083372517        -70.6894846       0.0148979557        -80.1703039
                      0.902412784        -167.327645       0.0893660202         -77.687661       0.0150692116        -81.6565869       0.0830947883        -71.4834519
                      0.083372517        -70.6894846       0.0150692116        -81.6565869       0.0894831899        -81.2215052        0.902043228        -167.475172
                     0.0148979557        -80.1703039       0.0830947883        -71.4834519        0.902043228        -167.475172       0.0908337131        -77.9242944

         100000000      0.0776612697        -89.3326918        0.899086686         174.304422       0.0625204474         -86.097254       0.0152885479        -106.909977
                      0.899086686         174.304422       0.0767819149        -88.5063824       0.0154490054        -107.834261       0.0624052518        -86.9359581
                     0.0625204474         -86.097254       0.0154490054        -107.834261       0.0792092176        -93.0982254        0.898806054         174.152045
                     0.0152885479        -106.909977       0.0624052518        -86.9359581        0.898806054         174.152045       0.0783754936         -88.623593

         110000000      0.0651936452        -99.5934394        0.895312649         155.933307       0.0399468079        -98.6232236       0.0153026875        -132.410356
                      0.895312649         155.933307       0.0640844813        -97.3363512       0.0154204638        -133.217122       0.0396600931        -99.6718641
                     0.0399468079        -98.6232236       0.0154204638        -133.217122        0.067724077        -104.674282        0.895531648         155.769506
                     0.0153026875        -132.410356       0.0396600931        -99.6718641        0.895531648         155.769506       0.0662366521        -97.2233232

         120000000      0.0517690138        -109.501022        0.891227688          137.55798       0.0181412404        -98.4638397       0.0151697375        -156.245979
                      0.891227688          137.55798       0.0527165477        -103.878242       0.0153379911         -157.14684       0.0178685373        -99.9106833
                     0.0181412404        -98.4638397       0.0153379911         -157.14684       0.0559125521        -115.544664        0.891523376         137.390117
                     0.0151697375        -156.245979       0.0178685373        -99.9106833        0.891523376         137.390117        0.054694639        -103.561914

         130000000      0.0391699633        -115.140426        0.886804467         119.198775       0.0110176589        -23.7654396       0.0148072224        -178.868202
                      0.886804467         119.198775       0.0425270132         -106.80683       0.0150590396         179.649262       0.0110463193        -23.7669316
                     0.0110176589        -23.7654396       0.0150590396         179.649262       0.0431569486        -124.522268        0.886956337           119.0074
                     0.0148072224        -178.868202       0.0110463193        -23.7669316        0.886956337           119.0074       0.0460228041        -106.244142

         140000000      0.0277259411        -112.760686        0.882232576         100.849628         0.02592663        -4.50189701       0.0145180054          159.83188
                      0.882232576         100.849628       0.0353554642         -103.71268       0.0146563588         158.383249       0.0261214589        -5.69265461
                       0.02592663        -4.50189701       0.0146563588         158.383249       0.0310233585        -128.439086         0.88243242         100.648947
                     0.0145180054          159.83188       0.0261214589        -5.69265461         0.88243242         100.648947       0.0409750113        -106.589152

         150000000      0.0225972245        -95.7353668        0.877544377         82.5561718       0.0394077252        -13.9310933       0.0141069606         139.854143
                      0.877544377         82.5561718       0.0335934979        -96.3257014        0.014193929          137.62309       0.0394888457        -15.4469465
                     0.0394077252        -13.9310933        0.014193929          137.62309       0.0211632239        -119.540388        0.877796376         82.3449567
                     0.0141069606         139.854143       0.0394888457        -15.4469465        0.877796376         82.3449567       0.0390700466        -103.823836

         160000000      0.0262076816        -78.5827248        0.872978109         64.2710881       0.0482002634        -27.8013533       0.0139440792          120.73458
                      0.872978109         64.2710881        0.036978363        -90.8649244       0.0138705406         118.904902       0.0482066869        -29.7809932
                     0.0482002634        -27.8013533       0.0138705406         118.904902       0.0189826471         -94.810853        0.873260623         64.0722215
                     0.0139440792          120.73458       0.0482066869        -29.7809932        0.873260623         64.0722215       0.0402997336        -104.925554

         170000000      0.0347401135        -76.2957646        0.868584058          46.032733       0.0520785007        -42.9711951       0.0139106901         102.428301
                      0.868584058          46.032733       0.0430771647        -91.2287832       0.0137563622         100.697852       0.0519946881        -45.3335927
                     0.0520785007        -42.9711951       0.0137563622         100.697852       0.0247053892        -79.4220568        0.868964058         45.8119592
                     0.0139106901         102.428301       0.0519946881        -45.3335927        0.868964058         45.8119592       0.0426590438        -107.420484

         180000000      0.0435345016        -82.2450332        0.864660094         27.8152153       0.0511934091        -58.3260698       0.0141457733         83.9960917
                      0.864660094         27.8152153       0.0499018655        -96.3514268       0.0138363417         82.7737531       0.0509748461        -61.2316743
                     0.0511934091        -58.3260698       0.0138363417         82.7737531       0.0325773733        -78.8636342        0.865125994         27.5779935
                     0.0141457733         83.9960917       0.0509748461        -61.2316743        0.865125994         27.5779935       0.0452332148        -112.223936

         190000000      0.0508197135        -91.9792796        0.860901815         9.60685896       0.0463566657        -73.5245568       0.0144622077         65.1294656
                      0.860901815         9.60685896       0.0556002975        -103.894188       0.0141466045         64.7241985       0.0460263977        -77.0943089
                     0.0463566657        -73.5245568       0.0141466045         64.7241985       0.0398618581        -85.1177792        0.861529345         9.34456458
                     0.0144622077         65.1294656       0.0460263977        -77.0943089        0.861529345         9.34456458       0.0467990058        -118.236118

         200000000      0.0563515081        -102.633546        0.857507065        -8.61247137       0.0385996045        -87.9991043       0.0147711271         46.0510779
                      0.857507065        -8.61247137       0.0591202964        -112.443088       0.0145900951         45.9417479       0.0380460277        -92.7154365
                     0.0385996045        -87.9991043       0.0145900951         45.9417479       0.0454876431        -93.8755518        0.858284474        -8.87748817
                     0.0147711271         46.0510779       0.0380460277        -92.7154365        0.858284474        -8.87748817       0.0478070586        -124.690254

         210000000      0.0597007747         -113.84787        0.853936521        -26.8214631       0.0291713346        -101.190263       0.0150839571         26.6916651
                      0.853936521        -26.8214631       0.0612604086        -121.025862       0.0148998399         26.6297454       0.0283958099        -107.300416
                     0.0291713346        -101.190263       0.0148998399         26.6297454       0.0499696214        -104.479314        0.855036253        -27.0975867
                     0.0150839571         26.6916651       0.0283958099        -107.300416        0.855036253        -27.0975867       0.0478734451        -130.770486

         220000000      0.0619433271        -125.359326        0.850506756         -45.030298       0.0196487803        -110.762052       0.0153596422         7.04692361
                      0.850506756         -45.030298       0.0622762084        -130.424998       0.0151922366         7.44454712       0.0184006185        -119.968553
                     0.0196487803        -110.762052       0.0151922366         7.44454712       0.0524020119        -116.508044        0.851717108        -45.3449774
                     0.0153596422         7.04692361       0.0184006185        -119.968553        0.851717108        -45.3449774        0.048458463        -136.535102

         230000000      0.0629542891        -138.526916        0.846985539        -63.2500427       0.0114124351        -112.101241       0.0155632942        -12.4097159
                      0.846985539        -63.2500427       0.0623786786        -140.655474       0.0154681201        -12.2089467      0.00954462282        -126.591429
                     0.0114124351        -112.101241       0.0154681201        -12.2089467       0.0538636143        -130.821352        0.848286796        -63.5688779
