! TE Connectivity
! H11H12-G14G15_NEXT
!!
!! PART DESCRIPTION: Whisper 27in Megtron 6 HVLP-HVLP-HVLP Channel Model, bulkhead 2.92mm test points
!! 
!! MODEL DESCRIPTION: System 4-port S-parameter
!! MODEL STATUS: Measured
!! MODEL GEOMETRY: Channel Model
!! MODEL FREQUENCY RANGE: DC to 40 GHz in 10 MHz frequency steps
!! MODEL EDGE RATE LIMITATION: 12.5 ps (Using conservative 0.5/Fmax rule of thumb)
!! 
!! TIME-DOMAIN TRANSFORM CAUTIONS: 
!! 1.) Do not simulate transient edge rates faster than the number listed above.  Edge
!!     rates faster than this number contain significant spectral content at frequencies
!!     above the model's highest frequency.
!! 2.) Even when simulating edge rates that are slower than the number listed above, be
!!     aware that the best time resolution possible with a direct iFFT is (1 / 2Fmax).
!!     As a result, time resolution is typically not adequate for most time-domain
!!     simulations unless tricks such as frequency-domain zero-padding and windowing are
!!     used to minimize leakage and aliasing. 
!! 3.) Because the model has a uniform frequency step, a direct iFFT will result in an
!!     impulse that that has a time length given by either (1 / Fstep) or (1 / 2Fstep),
!!     depending on the transform being used.  Care has been taken in selecting the
!!     frequency step to ensure a settled impulse response for the model.  Therefore,
!!     convolution with the model's impulse response should present no issues.  However,
!!     if directly concatenating s-parameter models in the frequency domain a user must
!!     either interpolate necessary interim frequencies or complete impulse response 
!!     zero-padding.  Impulse response zero-padding is more difficult, but more accurate. 
!!    
!! 
!! PORT DEFINITIONS: 
!! Port   1  ----->  Side A     H11            G14     Side B  <-----  Port   2
!! Port   3  ----->  Side A     H12            G15     Side B  <-----  Port   4
!! 
!!!!!!!!!!!!!!!!!!!!!!!!!!!!!!!!!!!!!!!!!!!!!!!!!!!!!!!!!!!!!!!!!!!!!!!!!!!!!!!!!!!!!!!!!!!!!!!!!!!!!!!!!!!!!!!!!!!!!!!!
!!!!!!!!!!!!!!!!!!!!!!!!!!!!!!!!!!!!!!!!!!!!!!!!!!!!!
! Point-to-Point link (differential)                !
! Connectors:                                       !
!   1: STRADA Whisper 3.9mm                         !
! Materials:                                        !
!  Backplane: Megtron-6 HVLP			    !
!  Daughtercard: Megtron-6 HVLP		            !
! Stack-up:					    !
!  Backplane: 20 layers, 190mil thick	            !
!  Daughtercard: 14 layers, 110mil thick	    !
! Trace Length:  		                    !
!  Backplane: 17in                                !
!  Daughtercards: 5in                               !
! Trace Width:                                      !
!  Backplane: 5.75-6.25-5.75 mils                   !
!  Daughtercards: 6-9-6 mils                        !
! Geometry:                                         !
!  Backplane: Stripline				    !
!  Daughtercards: Stripline                         !
! Layer Connections:                          	    !
!  Backplane: Layer 16, counterbored(1-6mil stub)   !
!  Daughtercard: Layer 9, counterbored(1-6mil stub) !
! Freq. Range: 0 GHz - 40 GHz                	    !
! Note1: non-mixed-mode s-parameters          	    ! 
! Note2: channel includes 2.92mm test points   	    !
!!!!!!!!!!!!!!!!!!!!!!!!!!!!!!!!!!!!!!!!!!!!!!!!!!!!!
!
! Created Thu Jul 21 14:55:00 2016
# hz S ma R 50
! 4 Port Network Data from SP1.SP block
! freq  magS11  angS11  magS12  angS12  magS13  angS13  magS14  angS14  
!       magS21  angS21  magS22  angS22  magS23  angS23  magS24  angS24  
!       magS31  angS31  magS32  angS32  magS33  angS33  magS34  angS34  
!       magS41  angS41  magS42  angS42  magS43  angS43  magS44  angS44  
!     
                 0      0.0302115932    4.05357055e-029     0.000129449647                180      0.00166040281    4.84437197e-027     0.000196863172   -4.48424363e-023
                   0.000129449647                180       0.0238070456     3.6368409e-028     0.000606062204   -1.44898196e-023      0.00130934473    3.30456217e-027
                    0.00166040281    4.84437199e-027     0.000606062204   -1.44898196e-023       0.0315191067   -4.93461062e-036     0.000279494978    3.05369541e-031
                   0.000196863172   -4.48424363e-023      0.00130934473    3.30456218e-027     0.000279494978    3.05369541e-031         0.02679566   -3.13872179e-036

          10000000      0.0582621972         26.9799804      0.00012531953          47.268137       0.0328055345         67.1868015     0.000264621104        -23.0130425
                    0.00012531953          47.268137       0.0581683448         28.8069338     0.000361023516         -70.977107       0.0332770821         67.2969603
                     0.0328055345         67.1868015     0.000361023516         -70.977107       0.0626420633         23.9046818     0.000218201508        -116.715906
                   0.000264621104        -23.0130425       0.0332770821         67.2969603     0.000218201508        -116.715906       0.0578953801         26.3851414

          20000000      0.0808582197         18.0290778    2.87702453e-005        -41.3868777       0.0617256798         49.9704451    2.76781909e-005        -21.4355055
                  2.87702453e-005        -41.3868777       0.0770072528          16.299748     0.000172051466         63.5492162       0.0623505745         50.3072574
                     0.0617256798         49.9704451     0.000172051466         63.5492162       0.0807435477         14.9784966    6.46670506e-005          139.06397
                  2.76781909e-005        -21.4355055       0.0623505745         50.3072574    6.46670506e-005          139.06397       0.0768679026         15.2939542

          30000000       0.100137457          4.3264034    6.32155133e-005        -5.53182737       0.0855325281          32.326946    3.15709096e-005         9.22062301
                  6.32155133e-005        -5.53182737       0.0958322008         3.18213652    9.18525359e-005        -24.7273553       0.0861028516         32.6242978
                     0.0855325281          32.326946    9.18525359e-005        -24.7273553       0.0980564374         1.61100524     5.5365828e-005         123.616079
                  3.15709096e-005         9.22062301       0.0861028516         32.6242978     5.5365828e-005         123.616079       0.0951409455          1.5130922

          40000000       0.111675434        -9.58826254    5.07698315e-005         119.846507        0.103001918         14.5557433    3.26503459e-005         83.8836944
                  5.07698315e-005         119.846507        0.107450762        -11.5486298     0.000107250451         83.8766963        0.103665446         14.9135196
                      0.103001918         14.5557433     0.000107250451         83.8766963        0.107916201        -12.6021016     6.5866262e-005         77.1434051
                  3.26503459e-005         83.8836944        0.103665446         14.9135196     6.5866262e-005         77.1434051        0.105374299        -13.0263304

          50000000       0.116670293        -24.7683338    2.14627715e-005         76.6928029        0.113159356        -2.99652288    3.13570302e-005        -38.4223589
                  2.14627715e-005         76.6928029        0.114296199        -26.1220096    3.87227707e-005        -17.6845402        0.113808591        -2.49967508
                      0.113159356        -2.99652288    3.87227707e-005        -17.6845402        0.112239711        -26.6762664    8.33438419e-005        -75.7997214
                  3.13570302e-005        -38.4223589        0.113808591        -2.49967508    8.33438419e-005        -75.7997214        0.111051873        -27.6260792

          60000000       0.114071665        -38.7647196     0.000115454214        -38.0726138        0.116216839        -20.6755649     3.4391861e-005         30.4689733
                   0.000115454214        -38.0726138        0.113973315        -39.9817486     0.000177321853        -2.32280587        0.116613177        -20.1334428
                      0.116216839        -20.6755649     0.000177321853        -2.32280587        0.111100722        -40.5615292    7.67971884e-005         -7.9728632
                   3.4391861e-005         30.4689733        0.116613177        -20.1334428    7.67971884e-005         -7.9728632        0.110191826        -41.5473992

          70000000       0.106652261        -52.5392644    1.74907409e-005        -19.3841184        0.111729342        -38.0662239    5.67337833e-005         106.386381
                  1.74907409e-005        -19.3841184         0.10888667        -53.5658954    8.32038536e-005        -50.9277058        0.111813047        -37.3164706
                      0.111729342        -38.0662239    8.32038536e-005        -50.9277058        0.104324537         -54.504726    5.17317816e-005        -154.204397
                  5.67337833e-005         106.386381        0.111813047        -37.3164706    5.17317816e-005        -154.204397        0.106941745        -55.6413462

          80000000      0.0941747671        -65.2740908     5.5379075e-005        -46.2597943        0.100649557         -55.132155    1.24635235e-005          132.17993
                   5.5379075e-005        -46.2597943        0.100595812        -65.9967864    5.51825106e-005         6.06086405        0.100374263        -54.2918204
                      0.100649557         -55.132155    5.51825106e-005         6.06086405       0.0942110515        -67.9577916    5.36176477e-005          8.2665252
                  1.24635235e-005          132.17993        0.100374263        -54.2918204    5.36176477e-005          8.2665252       0.0987025787        -68.6922052

          90000000      0.0788156461        -76.9471604    5.26297299e-005         17.8807034       0.0841553616        -71.8644808    1.46498644e-005        -131.394817
                  5.26297299e-005         17.8807034       0.0898256955        -77.6480292    3.35490303e-005        -105.213515       0.0833593635         -70.692807
                     0.0841553616        -71.8644808    3.35490303e-005        -105.213515       0.0791081234        -80.8845994    7.22068049e-005         91.3820923
                  1.46498644e-005        -131.394817       0.0833593635         -70.692807    7.22068049e-005         91.3820923       0.0897689887        -81.2414052

         100000000      0.0618728291        -86.0378998    3.10540354e-005         158.311455       0.0636545447        -87.4995511    5.60734603e-005        -62.2748058
                  3.10540354e-005         158.311455       0.0776058964        -89.4883586    2.53796341e-005        -113.038364       0.0625505119        -86.1052501
                     0.0636545447        -87.4995511    2.53796341e-005        -113.038364       0.0632273836        -91.8646444    7.39091654e-005        -144.053651
                  5.60734603e-005        -62.2748058       0.0625505119        -86.1052501    7.39091654e-005        -144.053651       0.0793585938         -92.897111

         110000000      0.0458949565        -91.3883488    2.57907874e-005        -31.9415706       0.0411665152        -100.766091    3.31931614e-005         36.7717277
                  2.57907874e-005        -31.9415706       0.0648369309        -99.9065378    8.80097863e-005        -63.5357526       0.0398752003         -98.641674
                     0.0411665152        -100.766091    8.80097863e-005        -63.5357526         0.04726386        -99.4659342    8.98586325e-005        -145.860836
                  3.31931614e-005         36.7717277       0.0398752003         -98.641674    8.98586325e-005        -145.860836       0.0678326745        -104.288964

         120000000      0.0323673271        -86.8418144    7.84701377e-005        -20.3932603       0.0194619257        -103.125398    7.74390246e-005         151.466486
                  7.84701377e-005        -20.3932603       0.0511932048         -110.07461    5.80384507e-005        -149.966723       0.0181917247        -98.8172109
                     0.0194619257        -103.125398    5.80384507e-005        -149.966723       0.0333389851        -100.323386     4.1321811e-005         131.918562
                  7.74390246e-005         151.466486       0.0181917247        -98.8172109     4.1321811e-005         131.918562       0.0557564303        -114.933802

         130000000      0.0265655669         -70.130461    4.55706984e-005        -136.412695      0.00995197816         -33.226713    2.54724789e-005         134.422745
                  4.55706984e-005        -136.412695       0.0382101448        -115.813904    6.15375066e-005         -105.57082       0.0110067002        -23.8066149
                    0.00995197816         -33.226713    6.15375066e-005         -105.57082       0.0253925973        -90.7255416    2.41413472e-005         43.5367437
                  2.54724789e-005         134.422745       0.0110067002        -23.8066149    2.41413472e-005         43.5367437       0.0428832676        -123.736178

         140000000      0.0301691442        -54.5031364    7.83208473e-006        -70.8009571       0.0243527944        -7.46927564    3.06937063e-005        -10.0248604
                  7.83208473e-006        -70.8009571       0.0266014104        -112.592762     0.000100409346         177.702381       0.0259232276        -4.45465756
                     0.0243527944        -7.46927564     0.000100409346         177.702381       0.0237941426        -76.8756874    5.98445739e-005         177.241128
                  3.06937063e-005        -10.0248604       0.0259232276        -4.45465756    5.98445739e-005         177.241128       0.0305458678        -127.249772

         150000000      0.0378290607        -52.8032232    2.45187596e-005          8.1158091       0.0377782566        -16.3960336    4.29040312e-005         -102.87072
                  2.45187596e-005          8.1158091       0.0218780723        -93.7217768      0.00014066721        -172.544547       0.0393444743          -14.04726
                     0.0377782566        -16.3960336      0.00014066721        -172.544547       0.0267590366        -71.2504052    2.58973881e-005         155.013891
                  4.29040312e-005         -102.87072       0.0393444743          -14.04726    2.58973881e-005         155.013891       0.0206153303        -117.545204

         160000000      0.0457451617        -58.7254128    5.33224077e-005          -109.3886       0.0468817347        -30.4327521    4.23205012e-005         128.722566
                  5.33224077e-005          -109.3886       0.0263615559        -76.8885028     0.000139721231         167.542692       0.0481405521        -27.8423174
                     0.0468817347        -30.4327521     0.000139721231         167.542692       0.0290244701        -73.2720598    2.39388521e-005        -133.460105
                  4.23205012e-005         128.722566       0.0481405521        -27.8423174    2.39388521e-005        -133.460105       0.0187648173        -92.9337134

         170000000      0.0513116382        -68.3724172     2.1595687e-005         150.611842       0.0511439078        -45.6991037    3.61167975e-005        -34.0151887
                   2.1595687e-005         150.611842       0.0353847411        -75.8558436     0.000110569586         134.207642       0.0520673707        -42.9964184
                     0.0511439078        -45.6991037     0.000110569586         134.207642       0.0310535836        -76.1459932    2.75898055e-005         160.704906
                  3.61167975e-005        -34.0151887       0.0520673707        -42.9964184    2.75898055e-005         160.704906       0.0244216207         -77.468684

         180000000      0.0537665225         -79.033298    2.34234725e-005        -74.1383816        0.050843663         -61.369712    3.20767173e-005         52.9569662
                  2.34234725e-005        -74.1383816       0.0442806911        -82.5296466     0.000120016644         137.116308       0.0511881964        -58.3885872
                      0.050843663         -61.369712     0.000120016644         137.116308       0.0318158698        -80.8459898    2.30496192e-005         41.6135227
                  3.20767173e-005         52.9569662       0.0511881964        -58.3885872    2.30496192e-005         41.6135227       0.0321774975        -77.7533696

         190000000      0.0534452569        -89.7184392    3.20243742e-005        -46.4353675       0.0466997702        -76.9868707    4.03907557e-005         32.2330395
                  3.20243742e-005        -46.4353675       0.0513715961        -92.7681596    5.39855759e-005         112.154627       0.0463611808        -73.5891427
                     0.0466997702        -76.9868707    5.39855759e-005         112.154627        0.033004688         -85.169461    4.19101263e-005         93.1146289
                  4.03907557e-005         32.2330395       0.0463611808        -73.5891427    4.19101263e-005         93.1146289       0.0391419885        -84.3646566

         200000000      0.0507542941        -99.3392422    2.46036455e-005          68.481985       0.0396802033        -92.1738248     5.8495645e-005         113.441936
                  2.46036455e-005          68.481985       0.0566510659         -103.55416     0.000143260338          114.64873        0.038559539        -88.0682243
                     0.0396802033        -92.1738248     0.000143260338          114.64873       0.0339974633        -89.7834904    1.86067388e-005        -119.594454
                   5.8495645e-005         113.441936        0.038559539        -88.0682243    1.86067388e-005        -119.594454       0.0446759458        -93.5502528

         210000000      0.0467343994        -107.179576    2.60144577e-006          121.28842       0.0310555427        -106.254522    2.51105819e-005        -100.794853
                  2.60144577e-006          121.28842       0.0595530163        -114.724702     0.000180950253         85.6225881       0.0291332882        -101.036615
                     0.0310555427        -106.254522     0.000180950253         85.6225881        0.034659436        -95.8879978    2.52122203e-005        -47.8218783
                  2.51105819e-005        -100.794853       0.0291332882        -101.036615    2.52122203e-005        -47.8218783       0.0491218345        -104.544088

         220000000      0.0425081536        -113.698636    1.88466004e-005        -165.156327       0.0221447139        -118.597659    4.27569054e-005         130.127976
                  1.88466004e-005        -165.156327       0.0613577525        -126.189936      0.00014002861         40.9073396       0.0195611565        -110.749986
                     0.0221447139        -118.597659      0.00014002861         40.9073396       0.0345860735        -104.194588    3.93712047e-005          145.52686
                  4.27569054e-005         130.127976       0.0195611565        -110.749986    3.93712047e-005          145.52686       0.0515737308         -116.86162

         230000000      0.0391944403        -119.596614    2.99081223e-005        -54.0189393       0.0142047632        -126.697365    1.02989543e-005         164.865721
                  2.99081223e-005        -54.0189393       0.0620263712        -139.047108     0.000116723946          41.394587       0.0114000652        -112.533747
                     0.0142047632        -126.697365     0.000116723946          41.394587       0.0334663667        -114.957728    1.43072462e-005         -136.10814
