! TE Connectivity
! F14F15-G14G15_FEXT
!!
!! PART DESCRIPTION: Whisper 27in Megtron 6 HVLP-HVLP-HVLP Channel Model, bulkhead 2.92mm test points
!! 
!! MODEL DESCRIPTION: System 4-port S-parameter
!! MODEL STATUS: Measured
!! MODEL GEOMETRY: Channel Model
!! MODEL FREQUENCY RANGE: DC to 40 GHz in 10 MHz frequency steps
!! MODEL EDGE RATE LIMITATION: 12.5 ps (Using conservative 0.5/Fmax rule of thumb)
!! 
!! TIME-DOMAIN TRANSFORM CAUTIONS: 
!! 1.) Do not simulate transient edge rates faster than the number listed above.  Edge
!!     rates faster than this number contain significant spectral content at frequencies
!!     above the model's highest frequency.
!! 2.) Even when simulating edge rates that are slower than the number listed above, be
!!     aware that the best time resolution possible with a direct iFFT is (1 / 2Fmax).
!!     As a result, time resolution is typically not adequate for most time-domain
!!     simulations unless tricks such as frequency-domain zero-padding and windowing are
!!     used to minimize leakage and aliasing. 
!! 3.) Because the model has a uniform frequency step, a direct iFFT will result in an
!!     impulse that that has a time length given by either (1 / Fstep) or (1 / 2Fstep),
!!     depending on the transform being used.  Care has been taken in selecting the
!!     frequency step to ensure a settled impulse response for the model.  Therefore,
!!     convolution with the model's impulse response should present no issues.  However,
!!     if directly concatenating s-parameter models in the frequency domain a user must
!!     either interpolate necessary interim frequencies or complete impulse response 
!!     zero-padding.  Impulse response zero-padding is more difficult, but more accurate. 
!!    
!! 
!! PORT DEFINITIONS: 
!! Port   1  ----->  Side A     F14            G14     Side B  <-----  Port   2
!! Port   3  ----->  Side A     F15            G15     Side B  <-----  Port   4
!! 
!!!!!!!!!!!!!!!!!!!!!!!!!!!!!!!!!!!!!!!!!!!!!!!!!!!!!!!!!!!!!!!!!!!!!!!!!!!!!!!!!!!!!!!!!!!!!!!!!!!!!!!!!!!!!!!!!!!!!!!!
!!!!!!!!!!!!!!!!!!!!!!!!!!!!!!!!!!!!!!!!!!!!!!!!!!!!!
! Point-to-Point link (differential)                !
! Connectors:                                       !
!   1: STRADA Whisper 3.9mm                         !
! Materials:                                        !
!  Backplane: Megtron-6 HVLP			    !
!  Daughtercard: Megtron-6 HVLP		            !
! Stack-up:					    !
!  Backplane: 20 layers, 190mil thick	            !
!  Daughtercard: 14 layers, 110mil thick	    !
! Trace Length:  		                    !
!  Backplane: 17in                                !
!  Daughtercards: 5in                               !
! Trace Width:                                      !
!  Backplane: 5.75-6.25-5.75 mils                   !
!  Daughtercards: 6-9-6 mils                        !
! Geometry:                                         !
!  Backplane: Stripline				    !
!  Daughtercards: Stripline                         !
! Layer Connections:                          	    !
!  Backplane: Layer 16, counterbored(1-6mil stub)   !
!  Daughtercard: Layer 9, counterbored(1-6mil stub) !
! Freq. Range: 0 GHz - 40 GHz                	    !
! Note1: non-mixed-mode s-parameters          	    ! 
! Note2: channel includes 2.92mm test points   	    !
!!!!!!!!!!!!!!!!!!!!!!!!!!!!!!!!!!!!!!!!!!!!!!!!!!!!!
!
! Created Thu Jul 21 14:34:58 2016
# hz S ma R 50
! 4 Port Network Data from SP1.SP block
! freq  magS11  angS11  magS12  angS12  magS13  angS13  magS14  angS14  
!       magS21  angS21  magS22  angS22  magS23  angS23  magS24  angS24  
!       magS31  angS31  magS32  angS32  magS33  angS33  magS34  angS34  
!       magS41  angS41  magS42  angS42  magS43  angS43  magS44  angS44  
!     
                 0      0.0277688051    1.37846293e-028     7.7211196e-005                180      0.00105472548    9.20620553e-027     0.000430482657   -4.21734876e-023
                   7.7211196e-005                180       0.0284323237   -7.47575392e-028     0.000311970077                180       0.0020585119    6.87928099e-028
                    0.00105472548    9.20620553e-027     0.000311970077                180       0.0296468164   -1.18946272e-027     0.000189312612                180
                   0.000430482657   -4.21734876e-023       0.0020585119    6.87928107e-028     0.000189312612                180       0.0280960294    2.28045461e-028

          10000000      0.0507682839         21.9360186     0.000153707407          152.24159        0.033741134         67.8842188     0.000269394516        -72.5951938
                   0.000153707407          152.24159       0.0563239058         26.5108032     0.000171536765         99.6320535       0.0327341997         66.5876747
                      0.033741134         67.8842188     0.000171536765         99.6320535       0.0553347146         18.9564804    9.62684328e-005         87.9101033
                   0.000269394516        -72.5951938       0.0327341997         66.5876747    9.62684328e-005         87.9101033       0.0556815754          26.930564

          20000000      0.0662592399         11.1138334     4.0761557e-005         2.00054062        0.063303978         50.4456192    3.06957009e-005         97.5181252
                   4.0761557e-005         2.00054062       0.0771922464         17.0313168     0.000177607583        -110.851073        0.062102645           50.29847
                      0.063303978         50.4456192     0.000177607583        -110.851073        0.066881507         8.67752736     0.000108464589        -147.171514
                  3.06957009e-005         97.5181252        0.062102645           50.29847     0.000108464589        -147.171514       0.0764177299         15.1486122

          30000000      0.0790529223        -2.74399528      0.00011222365        -161.993309        0.088122749         32.6966744    3.41570487e-005          106.00789
                    0.00011222365        -161.993309       0.0969532364           3.387422    6.89259929e-005         158.018061       0.0858271149         32.4236905
                      0.088122749         32.6966744    6.89259929e-005         158.018061       0.0788612087        -4.57353948     0.000190282107         141.383059
                  3.41570487e-005          106.00789       0.0858271149         32.4236905     0.000190282107         141.383059       0.0947251634         2.72125988

          40000000      0.0855964622        -15.9628196    8.99762805e-005         159.845127        0.106643236         14.9308647    9.02970177e-005         130.376112
                  8.99762805e-005         159.845127        0.108759411        -11.4953168    9.18706367e-005        -174.165073        0.103418703         14.6741175
                      0.106643236         14.9308647    9.18706367e-005        -174.165073       0.0848431657        -18.4419512     0.000196060282        -161.298506
                  9.02970177e-005         130.376112        0.103418703         14.6741175     0.000196060282        -161.298506        0.106063731        -11.5754698

          50000000      0.0886968814        -30.6981568     0.000178174609         124.907588        0.117897846        -2.61279047    6.28972934e-005         87.7861581
                   0.000178174609         124.907588        0.114756578        -26.4203224     5.0108161e-005         102.996601        0.113564886        -2.83945438
                      0.117897846        -2.61279047     5.0108161e-005         102.996601       0.0875123609        -32.1475436     0.000184048816         155.843466
                  6.28972934e-005         87.7861581        0.113564886        -2.83945438     0.000184048816         155.843466        0.111921324        -25.7303984

          60000000      0.0859583632        -43.7403982     0.000150661807         127.130893        0.121813887        -20.3541378      8.289939e-005         107.938424
                   0.000150661807         127.130893        0.114033244        -39.7633616     0.000103492365           112.3011        0.116345765        -20.5717426
                      0.121813887        -20.3541378     0.000103492365           112.3011       0.0862979115         -45.131141     0.000251992961         133.295792
                    8.289939e-005         107.938424        0.116345765        -20.5717426     0.000251992961         133.295792        0.112773908        -39.3997094

          70000000      0.0809389882        -56.5830856     0.000188384306         109.332411        0.118308716        -37.6830245    9.85602813e-005         115.220566
                   0.000188384306         109.332411          0.1090588        -53.2123876     0.000139062598         67.8014719        0.111517903         -37.886602
                      0.118308716        -37.6830245     0.000139062598         67.8014719       0.0813868647        -58.2429326     0.000313228444         126.385011
                  9.85602813e-005         115.220566        0.111517903         -37.886602     0.000313228444         126.385011        0.108943624        -52.8712576

          80000000      0.0730821817        -68.3071686     0.000269550863         110.565207        0.107976629        -54.7593232     0.000150574104         100.893189
                   0.000269550863         110.565207        0.100471851        -66.1281944     0.000150963619         88.2091573        0.100026583        -54.8994152
                      0.107976629        -54.7593232     0.000150963619         88.2091573       0.0749155202        -70.5703298     0.000289930833         93.7519681
                   0.000150574104         100.893189        0.100026583        -54.8994152     0.000289930833         93.7519681        0.101103747        -66.1156364

          90000000      0.0633505201         -79.274504     0.000260944772         83.5747394       0.0920199063         -71.512251     0.000116190725         97.5495607
                   0.000260944772         83.5747394       0.0893660244         -77.687671     0.000119716807         103.715517       0.0830947908         -71.483463
                     0.0920199063         -71.512251     0.000119716807         103.715517       0.0650547672        -82.5503066     0.000305451067         89.0313694
                   0.000116190725         97.5495607       0.0830947908         -71.483463     0.000305451067         89.0313694       0.0908337173        -77.9243042

         100000000      0.0525718807        -88.2862106     0.000270993674         80.7266891       0.0719193734        -87.5068031    8.29794698e-005         44.8364582
                   0.000270993674         80.7266891       0.0767819118        -88.5063944     0.000207326024         86.4647669       0.0624052482        -86.9359727
                     0.0719193734        -87.5068031     0.000207326024         86.4647669       0.0545128015        -92.9763206     0.000278574544         70.2378309
                  8.29794698e-005         44.8364582       0.0624052482        -86.9359727     0.000278574544         70.2378309       0.0783754904        -88.6236048

         110000000      0.0423323613         -94.932354     0.000350906829         58.0693522       0.0496121949        -101.763802     0.000134259309         33.6703419
                   0.000350906829         58.0693522       0.0640844711        -97.3363624     0.000219965761         41.4075251       0.0396600833        -99.6718829
                     0.0496121949        -101.763802     0.000219965761         41.4075251       0.0438870233        -100.852724     0.000328862425         47.1402939
                   0.000134259309         33.6703419       0.0396600833        -99.6718829     0.000328862425         47.1402939       0.0662366418         -97.223334

         120000000      0.0324702918        -95.7001676     0.000354203434         41.1714221       0.0268581713        -110.274758     0.000130749836         24.7278525
                   0.000354203434         41.1714221       0.0527165326         -103.87825     0.000217989184         37.2177341       0.0178685219        -99.9106981
                     0.0268581713        -110.274758     0.000217989184         37.2177341       0.0329119642        -104.452046     0.000347174994         32.7878758
                   0.000130749836         24.7278525       0.0178685219        -99.9106981     0.000347174994         32.7878758       0.0546946238         -103.56192

         130000000      0.0259001234         -88.589022     0.000375716476         18.0888223      0.00936210842        -75.8084825     0.000157464237         13.2174289
                   0.000375716476         18.0888223       0.0425269976        -106.806824     0.000223802889         18.4669657       0.0110463211        -23.7668492
                    0.00936210842        -75.8084825     0.000223802889         18.4669657       0.0247799439        -99.5292438     0.000428320152         9.89866123
                   0.000157464237         13.2174289       0.0110463211        -23.7668492     0.000428320152         9.89866123       0.0460227886        -106.244136

         140000000      0.0246750547        -74.1970088     0.000395767746         1.20148771       0.0188836621        -12.1782642     0.000126965105        -35.8413356
                   0.000395767746         1.20148771       0.0353554547         -103.71266     0.000284597125         -8.4060546       0.0261214728        -5.69263787
                     0.0188836621        -12.1782642     0.000284597125         -8.4060546       0.0208260531        -83.8631522     0.000465019106        -13.5363194
                   0.000126965105        -35.8413356       0.0261214728        -5.69263787     0.000465019106        -13.5363194       0.0409750011        -106.589134

         150000000      0.0288326557         -65.249134     0.000373390313        -17.9668284       0.0338808993         -16.169009     0.000199736013        -21.4272769
                   0.000373390313        -17.9668284       0.0335934998        -96.3256748     0.000285965224        -32.2806418       0.0394888614        -15.4469457
                     0.0338808993         -16.169009     0.000285965224        -32.2806418       0.0234341768         -68.869845     0.000478359364        -26.1796434
                   0.000199736013        -21.4272769       0.0394888614        -15.4469457     0.000478359364        -26.1796434       0.0390700466        -103.823814

         160000000      0.0360238288         -64.295917     0.000402484689        -49.7656047       0.0451706718        -29.0824545     0.000151953307        -67.9171356
                   0.000402484689        -49.7656047       0.0369783747        -90.8649086     0.000227217214         -53.521514       0.0482067015        -29.7809996
                     0.0451706718        -29.0824545     0.000227217214         -53.521514       0.0290493716        -64.1469776     0.000471946079        -43.6241555
                   0.000151953307        -67.9171356       0.0482067015        -29.7809996     0.000471946079        -43.6241555       0.0402997426        -104.925536

         170000000      0.0436349352        -69.4501418     0.000420603813        -60.6965572       0.0519437101        -43.9369996      0.00015965782        -95.6233672
                   0.000420603813        -60.6965572         0.04307718        -91.2287816     0.000237267917        -70.1284824       0.0519946996        -45.3336039
                     0.0519437101        -43.9369996     0.000237267917        -70.1284824       0.0365893556         -65.142101     0.000463250781        -68.2810983
                    0.00015965782        -95.6233672       0.0519946996        -45.3336039     0.000463250781        -68.2810983       0.0426590581        -107.420476

         180000000      0.0502925381        -77.5052358     0.000468158897        -75.6753571       0.0542079741        -59.4920861    9.32759669e-005        -134.553883
                   0.000468158897        -75.6753571       0.0499018791        -96.3514348     0.000227549929         -80.316924       0.0509748533        -61.2316894
                     0.0542079741        -59.4920861     0.000227549929         -80.316924       0.0436607735        -71.6517398     0.000472075644        -77.0090784
                  9.32759669e-005        -134.553883       0.0509748533        -61.2316894     0.000472075644        -77.0090784       0.0452332297        -112.223938

         190000000      0.0557008694        -87.4814942     0.000420454546        -101.812241       0.0525340223        -75.2882092      0.00014351463        -130.430123
                   0.000420454546        -101.812241       0.0556003061        -103.894202     0.000226645068        -105.346264       0.0460263997        -77.0943275
                     0.0525340223        -75.2882092     0.000226645068        -105.346264       0.0504711143         -80.398965     0.000505720873        -95.0384361
                    0.00014351463        -130.430123       0.0460263997        -77.0943275     0.000505720873        -95.0384361       0.0467990172         -118.23613

         200000000      0.0591767755        -98.3164862     0.000455039569        -112.643783        0.047732293        -91.0070977      0.00011701118        -138.976449
                   0.000455039569        -112.643783       0.0591202982        -112.443102     0.000275015477        -113.257527       0.0380460243        -92.7154585
                      0.047732293        -91.0070977     0.000275015477        -113.257527       0.0556053613        -90.2991666     0.000529102887        -113.168764
                    0.00011701118        -138.976449       0.0380460243        -92.7154585     0.000529102887        -113.168764       0.0478070634        -124.690272

         210000000       0.060562232        -109.826512     0.000447588848        -131.619883       0.0408471495         -106.52618     0.000149189171        -161.633064
                   0.000447588848        -131.619883       0.0612604032        -121.025874     0.000304293378        -145.490723       0.0283958013         -107.30044
                     0.0408471495         -106.52618     0.000304293378        -145.490723        0.058681079         -101.61859     0.000578121073        -133.574954
                   0.000149189171        -161.633064       0.0283958013         -107.30044     0.000578121073        -133.574954       0.0478734421        -130.770502

         220000000      0.0595171183        -121.882564     0.000467145264        -150.908122       0.0329364869         -121.71941     0.000150709196        -176.100567
                   0.000467145264        -150.908122       0.0622761974        -130.425006     0.000300512095        -159.102576       0.0184006059        -119.968577
                     0.0329364869         -121.71941     0.000300512095        -159.102576       0.0590979632        -113.777042     0.000464903313         -148.81491
                   0.000150709196        -176.100567       0.0184006059        -119.968577     0.000464903313         -148.81491        0.048458453        -136.535114

         230000000      0.0565617472        -134.194506     0.000488758203        -168.291907       0.0251511728        -136.492153     0.000152555146         166.536727
                   0.000488758203        -168.291907       0.0623786644        -140.655478     0.000237672929        -168.376158      0.00954460812        -126.591431
                     0.0251511728        -136.492153     0.000237672929        -168.376158       0.0568127985        -126.820464     0.000520883151        -168.896399
