! TE Connectivity
! F11F12-G14G15_FEXT
!!
!! PART DESCRIPTION: Whisper 27in Megtron 6 HVLP-HVLP-HVLP Channel Model, bulkhead 2.92mm test points
!! 
!! MODEL DESCRIPTION: System 4-port S-parameter
!! MODEL STATUS: Measured
!! MODEL GEOMETRY: Channel Model
!! MODEL FREQUENCY RANGE: DC to 40 GHz in 10 MHz frequency steps
!! MODEL EDGE RATE LIMITATION: 12.5 ps (Using conservative 0.5/Fmax rule of thumb)
!! 
!! TIME-DOMAIN TRANSFORM CAUTIONS: 
!! 1.) Do not simulate transient edge rates faster than the number listed above.  Edge
!!     rates faster than this number contain significant spectral content at frequencies
!!     above the model's highest frequency.
!! 2.) Even when simulating edge rates that are slower than the number listed above, be
!!     aware that the best time resolution possible with a direct iFFT is (1 / 2Fmax).
!!     As a result, time resolution is typically not adequate for most time-domain
!!     simulations unless tricks such as frequency-domain zero-padding and windowing are
!!     used to minimize leakage and aliasing. 
!! 3.) Because the model has a uniform frequency step, a direct iFFT will result in an
!!     impulse that that has a time length given by either (1 / Fstep) or (1 / 2Fstep),
!!     depending on the transform being used.  Care has been taken in selecting the
!!     frequency step to ensure a settled impulse response for the model.  Therefore,
!!     convolution with the model's impulse response should present no issues.  However,
!!     if directly concatenating s-parameter models in the frequency domain a user must
!!     either interpolate necessary interim frequencies or complete impulse response 
!!     zero-padding.  Impulse response zero-padding is more difficult, but more accurate. 
!!    
!! 
!! PORT DEFINITIONS: 
!! Port   1  ----->  Side A     F11            G14     Side B  <-----  Port   2
!! Port   3  ----->  Side A     F12            G15     Side B  <-----  Port   4
!! 
!!!!!!!!!!!!!!!!!!!!!!!!!!!!!!!!!!!!!!!!!!!!!!!!!!!!!!!!!!!!!!!!!!!!!!!!!!!!!!!!!!!!!!!!!!!!!!!!!!!!!!!!!!!!!!!!!!!!!!!!
!!!!!!!!!!!!!!!!!!!!!!!!!!!!!!!!!!!!!!!!!!!!!!!!!!!!!
! Point-to-Point link (differential)                !
! Connectors:                                       !
!   1: STRADA Whisper 3.9mm                         !
! Materials:                                        !
!  Backplane: Megtron-6 HVLP			    !
!  Daughtercard: Megtron-6 HVLP		            !
! Stack-up:					    !
!  Backplane: 20 layers, 190mil thick	            !
!  Daughtercard: 14 layers, 110mil thick	    !
! Trace Length:  		                    !
!  Backplane: 17in                                  !
!  Daughtercards: 5in                               !
! Trace Width:                                      !
!  Backplane: 5.75-6.25-5.75 mils                   !
!  Daughtercards: 6-9-6 mils                        !
! Geometry:                                         !
!  Backplane: Stripline				    !
!  Daughtercards: Stripline                         !
! Layer Connections:                          	    !
!  Backplane: Layer 16, counterbored(1-6mil stub)   !
!  Daughtercard: Layer 9, counterbored(1-6mil stub) !
! Freq. Range: 0 GHz - 40 GHz                	    !
! Note1: non-mixed-mode s-parameters          	    ! 
! Note2: channel includes 2.92mm test points   	    !
!!!!!!!!!!!!!!!!!!!!!!!!!!!!!!!!!!!!!!!!!!!!!!!!!!!!!
!
! Created Thu Jul 21 14:33:25 2016
# hz S ma R 50
! 4 Port Network Data from SP1.SP block
! freq  magS11  angS11  magS12  angS12  magS13  angS13  magS14  angS14  
!       magS21  angS21  magS22  angS22  magS23  angS23  magS24  angS24  
!       magS31  angS31  magS32  angS32  magS33  angS33  magS34  angS34  
!       magS41  angS41  magS42  angS42  magS43  angS43  magS44  angS44  
!     
                 0      0.0297199929   -3.64329003e-027     0.000501459806                180      0.00165515873    1.89841858e-026     0.000376934439                180
                   0.000501459806                180       0.0284323237   -4.19502945e-028     0.000331968357   -1.02811022e-022       0.0020585119   -5.58074901e-027
                    0.00165515873    1.89841858e-026     0.000331968357   -1.02811022e-022       0.0283559694   -2.14972977e-035     0.000177841994   -1.44255287e-022
                   0.000376934439                180       0.0020585119   -5.58074904e-027     0.000177841994   -1.44255287e-022       0.0280960294   -3.74834119e-028

          10000000       0.056006298         24.4877798     0.000373472275         105.875951        0.032139632         67.6119804     0.000206166989         103.052557
                   0.000373472275         105.875951       0.0563239058         26.5108032      0.00013101666        -117.993309       0.0327341997         66.5876747
                      0.032139632         67.6119804      0.00013101666        -117.993309       0.0594618491         23.5300116    5.40837889e-005        -62.0637807
                   0.000206166989         103.052557       0.0327341997         66.5876747    5.40837889e-005        -62.0637807       0.0556815754          26.930564

          20000000      0.0746836757          15.480416     8.8213235e-005        -11.4641538       0.0610607477         50.7131788      8.830369e-005        -126.137768
                   8.8213235e-005        -11.4641538       0.0771922464         17.0313168     0.000153430606         21.3104218        0.062102645           50.29847
                     0.0610607477         50.7131788     0.000153430606         21.3104218       0.0743734428         14.2255472     0.000115932695         27.6511067
                    8.830369e-005        -126.137768        0.062102645           50.29847     0.000115932695         27.6511067       0.0764177299         15.1486122

          30000000      0.0903690189         2.36948418    2.93053803e-005        -30.7394765       0.0847147427         32.9503254    4.63154867e-005         -1.3665063
                  2.93053803e-005        -30.7394765       0.0969532364           3.387422    1.29456258e-005         155.021954       0.0858271149         32.4236905
                     0.0847147427         32.9503254    1.29456258e-005         155.021954        0.089632739          1.1616121    2.80925396e-005        -2.59832078
                  4.63154867e-005         -1.3665063       0.0858271149         32.4236905    2.80925396e-005        -2.59832078       0.0947251634         2.72125988

          40000000      0.0986613733        -11.7233636    6.80586165e-005         18.8825846         0.10247495         15.4468053    2.69460687e-005        -61.7252395
                  6.80586165e-005         18.8825846        0.108759411        -11.4953168     0.000105683384         17.2465469        0.103418703         14.6741175
                       0.10247495         15.4468053     0.000105683384         17.2465469       0.0986243959        -12.2823996    2.59299876e-005         -116.65904
                  2.69460687e-005        -61.7252395        0.103418703         14.6741175    2.59299876e-005         -116.65904        0.106063731        -11.5754698

          50000000       0.103267567        -25.2775952     5.3672528e-005         42.3587392        0.113302896        -1.84552364    7.62695372e-005        -146.396341
                   5.3672528e-005         42.3587392        0.114756578        -26.4203224    5.25756651e-005         40.7982433        0.113564886        -2.83945438
                      0.113302896        -1.84552364    5.25756651e-005         40.7982433        0.102558685        -26.1155552    3.83361165e-005         148.813063
                  7.62695372e-005        -146.396341        0.113564886        -2.83945438    3.83361165e-005         148.813063        0.111921324        -25.7303984

          60000000       0.103249078        -38.2497082    5.31836445e-005          33.910126        0.117281345        -19.4023025    9.61056788e-005        -165.151991
                  5.31836445e-005          33.910126        0.114033244        -39.7633616    4.58182025e-005         83.4523256        0.116345765        -20.5717426
                      0.117281345        -19.4023025    4.58182025e-005         83.4523256        0.101670541         -39.507204    3.65843051e-005          84.922016
                  9.61056788e-005        -165.151991        0.116345765        -20.5717426    3.65843051e-005          84.922016        0.112773908        -39.3997094

          70000000      0.0998656355         -51.852508    6.01299262e-005         89.8807737        0.113927931        -36.5007192    1.80749541e-005        -72.2073798
                  6.01299262e-005         89.8807737          0.1090588        -53.2123876     7.7131639e-005         158.692085        0.111517903         -37.886602
                      0.113927931        -36.5007192     7.7131639e-005         158.692085       0.0985908973        -53.1363868    5.18700201e-005        -159.947922
                  1.80749541e-005        -72.2073798        0.111517903         -37.886602    5.18700201e-005        -159.947922        0.108943624        -52.8712576

          80000000       0.091961428        -64.1384706    4.25816262e-005         110.365216         0.10423518        -53.4445274    9.43984197e-006          6.5840136
                  4.25816262e-005         110.365216        0.100471851        -66.1281944    7.74213312e-005         172.700382        0.100026583        -54.8994152
                       0.10423518        -53.4445274    7.74213312e-005         172.700382       0.0922555716        -66.0868576    8.82388022e-005         70.6243429
                  9.43984197e-006          6.5840136        0.100026583        -54.8994152    8.82388022e-005         70.6243429        0.101103747        -66.1156364

          90000000      0.0825948925        -75.0833462    5.30394977e-006         98.9091557       0.0890124708        -69.9117731     3.3498223e-005          48.312688
                  5.30394977e-006         98.9091557       0.0893660244         -77.687671     4.3169147e-005          23.196825       0.0830947908         -71.483463
                     0.0890124708        -69.9117731     4.3169147e-005          23.196825       0.0832796872        -78.9214962    3.79580026e-005         98.5819502
                   3.3498223e-005          48.312688       0.0830947908         -71.483463    3.79580026e-005         98.5819502       0.0908337173        -77.9243042

         100000000      0.0728507413        -85.4724506    3.16690258e-005          150.90431        0.069885018        -85.7055476    4.83641575e-005         -165.28288
                  3.16690258e-005          150.90431       0.0767819118        -88.5063944    5.09359247e-005          49.177397       0.0624052482        -86.9359727
                      0.069885018        -85.7055476    5.09359247e-005          49.177397       0.0729221249        -90.3749468    6.10680354e-005         127.780242
                  4.83641575e-005         -165.28288       0.0624052482        -86.9359727    6.10680354e-005         127.780242       0.0783754904        -88.6236048

         110000000      0.0609947782        -94.9841354    1.69610111e-005         -90.627386       0.0484004802        -99.8755288    3.88296078e-005         -164.10236
                  1.69610111e-005         -90.627386       0.0640844711        -97.3363624     8.0975358e-005         34.0404794       0.0396600833        -99.6718829
                     0.0484004802        -99.8755288     8.0975358e-005         34.0404794       0.0617650919        -101.065362    1.57669873e-005        -28.5331445
                  3.88296078e-005         -164.10236       0.0396600833        -99.6718829    1.57669873e-005        -28.5331445       0.0662366418         -97.223334

         120000000      0.0486935615        -100.504146    3.93013239e-005         77.0280744       0.0266300407        -108.477774     5.2608244e-005         11.0560029
                  3.93013239e-005         77.0280744       0.0527165326         -103.87825    1.46863458e-005        -14.2172898       0.0178685219        -99.9106981
                     0.0266300407        -108.477774    1.46863458e-005        -14.2172898       0.0489266764        -109.029248    4.93987306e-005        -71.1875499
                   5.2608244e-005         11.0560029       0.0178685219        -99.9106981    4.93987306e-005        -71.1875499       0.0546946238         -103.56192

         130000000      0.0390923686        -101.271822    4.49406437e-005         169.379842      0.00938473815        -77.2049036    2.34469295e-005         42.7701707
                  4.49406437e-005         169.379842       0.0425269976        -106.806824    4.02775467e-005         37.9090105       0.0110463211        -23.7668492
                    0.00938473815        -77.2049036    4.02775467e-005         37.9090105       0.0372384409        -112.464262     4.7770405e-005         44.6158965
                  2.34469295e-005         42.7701707       0.0110463211        -23.7668492     4.7770405e-005         44.6158965       0.0460227886        -106.244136

         140000000      0.0323965415        -97.0687912    2.58831119e-005        -61.2248289       0.0176410673        -10.9256051    1.24880613e-005         33.2640871
                  2.58831119e-005        -61.2248289       0.0353554547         -103.71266    3.18477994e-005         48.0705222       0.0261214728        -5.69263787
                     0.0176410673        -10.9256051    3.18477994e-005         48.0705222       0.0277037677        -108.131202    6.78435335e-005        -95.4552142
                  1.24880613e-005         33.2640871       0.0261214728        -5.69263787    6.78435335e-005        -95.4552142       0.0409750011        -106.589134

         150000000      0.0294282543        -85.3344976    3.53738712e-005        -62.4317249       0.0321022314        -13.6398338    6.24719064e-005         45.3518412
                  3.53738712e-005        -62.4317249       0.0335934998        -96.3256748    2.16172778e-005        -4.91217601       0.0394888614        -15.4469457
                     0.0321022314        -13.6398338    2.16172778e-005        -4.91217601       0.0230979888        -91.7163466      0.00012880577         33.3410263
                  6.24719064e-005         45.3518412       0.0394888614        -15.4469457      0.00012880577         33.3410263       0.0390700466        -103.823814

         160000000      0.0340409821        -76.1622466    4.80976209e-005        -48.7533495       0.0429587195        -26.1358331    3.49060315e-005        -151.682611
                  4.80976209e-005        -48.7533495       0.0369783747        -90.8649086    4.44166772e-005        -82.0796702       0.0482067015        -29.7809996
                     0.0429587195        -26.1358331    4.44166772e-005        -82.0796702       0.0251796275         -75.489491    5.20206178e-005        -69.2292722
                  3.49060315e-005        -151.682611       0.0482067015        -29.7809996    5.20206178e-005        -69.2292722       0.0402997426        -104.925536

         170000000       0.041159801        -76.2859546    2.97233121e-005        -145.803022       0.0496499594        -40.7221236    2.99279511e-005         126.227293
                  2.97233121e-005        -145.803022         0.04307718        -91.2287816    4.83985104e-005        -52.9912831       0.0519946996        -45.3336039
                     0.0496499594        -40.7221236    4.83985104e-005        -52.9912831       0.0320334828        -68.6829214    8.85035197e-006        0.176536427
                  2.99279511e-005         126.227293       0.0519946996        -45.3336039    8.85035197e-006        0.176536427       0.0426590581        -107.420476

         180000000       0.048270222        -80.6113898    4.82408377e-005        -158.710879       0.0519046142        -55.9499896    2.39764827e-005        -4.28629734
                  4.82408377e-005        -158.710879       0.0499018791        -96.3514348    2.91667062e-005        -46.4875113       0.0509748533        -61.2316894
                     0.0519046142        -55.9499896    2.91667062e-005        -46.4875113       0.0409144134        -71.7586564    2.43633542e-005        -169.601607
                  2.39764827e-005        -4.28629734       0.0509748533        -61.2316894    2.43633542e-005        -169.601607       0.0452332297        -112.223938

         190000000      0.0556699554        -88.1727482     5.6150416e-005        -128.624916       0.0503083358        -71.2256064    1.86909779e-005         -178.46088
                   5.6150416e-005        -128.624916       0.0556003061        -103.894202    3.49425725e-005        -51.9984729       0.0460263997        -77.0943275
                     0.0503083358        -71.2256064    3.49425725e-005        -51.9984729       0.0492231267        -79.8192906    2.73661355e-005        -146.538928
                  1.86909779e-005         -178.46088       0.0460263997        -77.0943275    2.73661355e-005        -146.538928       0.0467990172         -118.23613

         200000000      0.0625775201        -98.9153574    1.61491436e-005         172.123369        0.045680523        -86.2468386    1.26281755e-005          46.763383
                  1.61491436e-005         172.123369       0.0591202982        -112.443102    2.72751406e-005        -166.880812       0.0380460243        -92.7154585
                      0.045680523        -86.2468386    2.72751406e-005        -166.880812       0.0564519848         -91.218402    1.35336326e-005        -107.668517
                  1.26281755e-005          46.763383       0.0380460243        -92.7154585    1.35336326e-005        -107.668517       0.0478070634        -124.690272

         210000000      0.0656496666        -111.032854    1.89082074e-005         97.4081755       0.0389520832        -100.976889    2.11945047e-005        -63.5413121
                  1.89082074e-005         97.4081755       0.0612604032        -121.025874    4.36947945e-005        -125.380644       0.0283958013         -107.30044
                     0.0389520832        -100.976889    4.36947945e-005        -125.380644          0.0620357        -104.263732    6.40822219e-006         44.2902752
                  2.11945047e-005        -63.5413121       0.0283958013         -107.30044    6.40822219e-006         44.2902752       0.0478734421        -130.770502

         220000000      0.0676463475        -123.778986    2.00749909e-005          144.76139       0.0313132934        -114.962894     9.8789185e-006         124.252636
                  2.00749909e-005          144.76139       0.0622761974        -130.425006    5.70231861e-005        -135.839762       0.0184006059        -119.968577
                     0.0313132934        -114.962894    5.70231861e-005        -135.839762       0.0656743615        -119.178394    3.65809931e-005        -116.781307
                   9.8789185e-006         124.252636       0.0184006059        -119.968577    3.65809931e-005        -116.781307        0.048458453        -136.535114

         230000000      0.0671016006        -137.680548    6.01193902e-005        -173.241219       0.0237222386        -128.269244    2.42240376e-005          16.674145
                  6.01193902e-005        -173.241219       0.0623786644        -140.655478    3.47238837e-005        -177.079361      0.00954460812        -126.591431
                     0.0237222386        -128.269244    3.47238837e-005        -177.079361       0.0665427788        -135.356298    2.16563986e-005        -91.9757441
