! TE Connectivity
! F17F18-G14G15_NEXT
!!
!! PART DESCRIPTION: Whisper 27in Megtron 6 HVLP-HVLP-HVLP Channel Model, bulkhead 2.92mm test points
!! 
!! MODEL DESCRIPTION: System 4-port S-parameter
!! MODEL STATUS: Measured
!! MODEL GEOMETRY: Channel Model
!! MODEL FREQUENCY RANGE: DC to 40 GHz in 10 MHz frequency steps
!! MODEL EDGE RATE LIMITATION: 12.5 ps (Using conservative 0.5/Fmax rule of thumb)
!! 
!! TIME-DOMAIN TRANSFORM CAUTIONS: 
!! 1.) Do not simulate transient edge rates faster than the number listed above.  Edge
!!     rates faster than this number contain significant spectral content at frequencies
!!     above the model's highest frequency.
!! 2.) Even when simulating edge rates that are slower than the number listed above, be
!!     aware that the best time resolution possible with a direct iFFT is (1 / 2Fmax).
!!     As a result, time resolution is typically not adequate for most time-domain
!!     simulations unless tricks such as frequency-domain zero-padding and windowing are
!!     used to minimize leakage and aliasing. 
!! 3.) Because the model has a uniform frequency step, a direct iFFT will result in an
!!     impulse that that has a time length given by either (1 / Fstep) or (1 / 2Fstep),
!!     depending on the transform being used.  Care has been taken in selecting the
!!     frequency step to ensure a settled impulse response for the model.  Therefore,
!!     convolution with the model's impulse response should present no issues.  However,
!!     if directly concatenating s-parameter models in the frequency domain a user must
!!     either interpolate necessary interim frequencies or complete impulse response 
!!     zero-padding.  Impulse response zero-padding is more difficult, but more accurate. 
!!    
!! 
!! PORT DEFINITIONS: 
!! Port   1  ----->  Side A     F17            G14     Side B  <-----  Port   2
!! Port   3  ----->  Side A     F18            G15     Side B  <-----  Port   4
!! 
!!!!!!!!!!!!!!!!!!!!!!!!!!!!!!!!!!!!!!!!!!!!!!!!!!!!!!!!!!!!!!!!!!!!!!!!!!!!!!!!!!!!!!!!!!!!!!!!!!!!!!!!!!!!!!!!!!!!!!!!
!!!!!!!!!!!!!!!!!!!!!!!!!!!!!!!!!!!!!!!!!!!!!!!!!!!!!
! Point-to-Point link (differential)                !
! Connectors:                                       !
!   1: STRADA Whisper 3.9mm                         !
! Materials:                                        !
!  Backplane: Megtron-6 HVLP			    !
!  Daughtercard: Megtron-6 HVLP		            !
! Stack-up:					    !
!  Backplane: 20 layers, 190mil thick	            !
!  Daughtercard: 14 layers, 110mil thick	    !
! Trace Length:  		                    !
!  Backplane: 17in                                !
!  Daughtercards: 5in                               !
! Trace Width:                                      !
!  Backplane: 5.75-6.25-5.75 mils                   !
!  Daughtercards: 6-9-6 mils                        !
! Geometry:                                         !
!  Backplane: Stripline				    !
!  Daughtercards: Stripline                         !
! Layer Connections:                          	    !
!  Backplane: Layer 16, counterbored(1-6mil stub)   !
!  Daughtercard: Layer 9, counterbored(1-6mil stub) !
! Freq. Range: 0 GHz - 40 GHz                	    !
! Note1: non-mixed-mode s-parameters          	    ! 
! Note2: channel includes 2.92mm test points   	    !
!!!!!!!!!!!!!!!!!!!!!!!!!!!!!!!!!!!!!!!!!!!!!!!!!!!!!
!
! Created Thu Jul 21 14:44:30 2016
# hz S ma R 50
! 4 Port Network Data from SP1.SP block
! freq  magS11  angS11  magS12  angS12  magS13  angS13  magS14  angS14  
!       magS21  angS21  magS22  angS22  magS23  angS23  magS24  angS24  
!       magS31  angS31  magS32  angS32  magS33  angS33  magS34  angS34  
!       magS41  angS41  magS42  angS42  magS43  angS43  magS44  angS44  
!     
                 0        0.03108558   -3.11506146e-028    3.28089324e-006   -5.50926096e-021      0.00196140594     3.7300806e-027     0.000264328021                180
                  3.28089324e-006   -5.50926096e-021       0.0239218452   -1.57141835e-036     0.000100704193    1.73671519e-030       0.0015177655     1.2707001e-027
                    0.00196140594    3.73008059e-027     0.000100704193    1.73671519e-030       0.0304501139   -4.64962008e-036       0.0002937613   -6.10903756e-023
                   0.000264328021                180       0.0015177655     1.2707001e-027       0.0002937613   -6.10903756e-023       0.0259250938    4.21138622e-029

          10000000      0.0569747547         24.8153918     0.000144338881        -175.226275       0.0320036743         67.7025441     0.000259820452         76.4259596
                   0.000144338881        -175.226275       0.0582284603         28.6868618     9.6238754e-005        -167.552935        0.032973927         67.5405083
                     0.0320036743         67.7025441     9.6238754e-005        -167.552935       0.0594599459         24.3667914     0.000210327301        -54.9554476
                   0.000259820452         76.4259596        0.032973927         67.5405083     0.000210327301        -54.9554476       0.0584992042         26.7892414

          20000000      0.0775516479          16.326384     0.000199792458         84.8823269       0.0608757275         50.3100487     0.000162974975         32.5404534
                   0.000199792458         84.8823269       0.0771923353          16.391185     0.000124208165        -49.9995178       0.0621382489         50.3327429
                     0.0608757275         50.3100487     0.000124208165        -49.9995178       0.0779114667         15.1323724    1.15934272e-005        -128.807969
                   0.000162974975         32.5404534       0.0621382489         50.3327429    1.15934272e-005        -128.807969        0.077047115         15.3434362

          30000000      0.0953086488         3.46447166    5.63708777e-005        -117.870036       0.0844604052         32.8214267    4.66694865e-005         70.7996514
                  5.63708777e-005        -117.870036       0.0958562118         2.93706916    5.72911913e-005         -60.367857       0.0861337483         32.5795026
                     0.0844604052         32.8214267    5.72911913e-005         -60.367857       0.0953718622         2.47743874    5.65351084e-005         88.0070977
                  4.66694865e-005         70.7996514       0.0861337483         32.5795026    5.65351084e-005         88.0070977       0.0952598214          1.5307918

          40000000       0.106952391        -10.7753948    6.66310108e-005        -36.5939994         0.10210162         15.2597266    8.84518118e-005         82.2562868
                  6.66310108e-005        -36.5939994        0.107213593        -11.6830248      9.142272e-005         132.653193        0.103583948         14.9144838
                       0.10210162         15.2597266      9.142272e-005         132.653193        0.105039102        -11.1924698    3.14116505e-005        -162.711963
                  8.84518118e-005         82.2562868        0.103583948         14.9144838    3.14116505e-005        -162.711963         0.10531475        -13.0380454

          50000000       0.113707403        -25.2781526    3.07381009e-005        -82.8868359        0.112828074        -2.05424851    7.76591479e-005         35.1557428
                  3.07381009e-005        -82.8868359         0.11379571        -26.2236354     3.0969837e-005        -152.387381        0.113804778        -2.48910431
                      0.112828074        -2.05424851     3.0969837e-005        -152.387381        0.111257537        -25.3389416    4.75659035e-005        -169.070375
                  7.76591479e-005         35.1557428        0.113804778        -2.48910431    4.75659035e-005        -169.070375        0.111065695        -27.5347332

          60000000       0.113748788        -39.0290206    1.50055629e-005         82.2706063        0.116500408        -19.5737366    4.82731104e-005        -4.11925871
                  1.50055629e-005         82.2706063        0.113141968        -40.1360994    1.58805489e-005        -59.3281767        0.116670185        -20.1159421
                      0.116500408        -19.5737366    1.58805489e-005        -59.3281767         0.11240368        -38.9745236     0.000229533891        -49.2909411
                  4.82731104e-005        -4.11925871        0.116670185        -20.1159421     0.000229533891        -49.2909411        0.109928773        -41.5478572

          70000000       0.111365152        -52.6051178    6.58056721e-005        -30.5520222        0.113040913         -36.731246     0.000102618952         -35.441945
                  6.58056721e-005        -30.5520222        0.108203714        -53.5657734    2.38250036e-005        -43.6837475         0.11187453         -37.291671
                      0.113040913         -36.731246    2.38250036e-005        -43.6837475        0.110811585        -52.9469568    7.09963016e-005        -49.4627538
                   0.000102618952         -35.441945         0.11187453         -37.291671    7.09963016e-005        -49.4627538        0.106752257        -55.6121102

          80000000       0.104708877         -65.062048     2.7181833e-005        -150.532448        0.103038509        -53.6406829     9.5927474e-005        -42.6915969
                   2.7181833e-005        -150.532448        0.100091282        -65.9753474    7.80399501e-005         37.5785947        0.100205332        -54.2592168
                      0.103038509        -53.6406829    7.80399501e-005         37.5785947        0.105308954         -66.243353    6.05849102e-005        -1.86445991
                   9.5927474e-005        -42.6915969        0.100205332        -54.2592168    6.05849102e-005        -1.86445991       0.0986580096        -68.7411092

          90000000      0.0961383553         -76.918148    8.25891822e-006        -71.8073719         0.08776597        -70.1826723    5.39981029e-005        -84.7344074
                  8.25891822e-006        -71.8073719       0.0894547257        -77.6423072    3.04431571e-005        -41.7591516       0.0833725193        -70.6894957
                       0.08776597        -70.1826723    3.04431571e-005        -41.7591516       0.0968860354         -79.213315    8.03498852e-005         141.122586
                  5.39981029e-005        -84.7344074       0.0833725193        -70.6894957    8.03498852e-005         141.122586       0.0894831951         -81.221515

         100000000      0.0856288916          -87.91617    1.69834984e-005           151.6072       0.0683729452        -85.9800338    9.45454321e-005        -99.8361876
                  1.69834984e-005           151.6072       0.0776612667        -89.3327036    3.09313267e-005         77.4710494       0.0625204436        -86.0972684
                     0.0683729452        -85.9800338    3.09313267e-005         77.4710494         0.08641238        -91.5557882    4.14608204e-005         125.728286
                  9.45454321e-005        -99.8361876       0.0625204436        -86.0972684    4.14608204e-005         125.728286       0.0792092157         -93.098237

         110000000      0.0734709245        -98.1390228    4.86942408e-005         100.677007       0.0467209668         -100.05836    8.60911979e-005         -169.94343
                  4.86942408e-005         100.677007       0.0651936354        -99.5934508    4.44731328e-005         -152.35038       0.0399467979         -98.623242
                     0.0467209668         -100.05836    4.44731328e-005         -152.35038       0.0740144208        -103.210366    9.87333576e-005         90.0099369
                  8.60911979e-005         -169.94343       0.0399467979         -98.623242    9.87333576e-005         90.0099369       0.0677240684        -104.674294

         120000000      0.0605312421        -106.083362    1.36581642e-005         17.7556493       0.0247133199        -107.689369     0.000114951261        -129.075146
                  1.36581642e-005         17.7556493       0.0517689994         -109.50103    3.56843801e-005        -12.4008638       0.0181412249         -98.463853
                     0.0247133199        -107.689369    3.56843801e-005        -12.4008638       0.0599650386        -113.510042     1.4991491e-005        -5.15913173
                   0.000114951261        -129.075146       0.0181412249         -98.463853     1.4991491e-005        -5.15913173       0.0559125385        -115.544672

         130000000      0.0471511474        -110.521778    7.41507294e-006         169.116039      0.00864243654        -65.7916239    9.46618375e-005        -137.011478
                  7.41507294e-006         169.116039       0.0391699474        -115.140424     4.7973962e-005         178.633669       0.0110176606        -23.7653569
                    0.00864243654        -65.7916239     4.7973962e-005         178.633669       0.0456886822        -121.137618    4.29654943e-005        -58.3232776
                  9.46618375e-005        -137.011478       0.0110176606        -23.7653569    4.29654943e-005        -58.3232776       0.0431569326        -124.522268

         140000000      0.0355638985         -107.22372    5.34895393e-005         10.7454086       0.0194025556        -7.88842378      0.00011147095        -146.686901
                  5.34895393e-005         10.7454086       0.0277259296        -112.760664    1.57020996e-005         -77.497255       0.0259266441        -4.50188079
                     0.0194025556        -7.88842378    1.57020996e-005         -77.497255       0.0316991808         -122.66629    1.78489798e-005         177.760344
                    0.00011147095        -146.686901       0.0259266441        -4.50188079    1.78489798e-005         177.760344       0.0310233446        -128.439072

         150000000       0.030183797        -91.4557066    3.37124626e-005         37.2449857       0.0340539953        -13.3095016     0.000120473696        -163.660576
                  3.37124626e-005         37.2449857       0.0225972266        -95.7353274    8.51078267e-005        -170.404657       0.0394077409        -13.9310931
                     0.0340539953        -13.3095016    8.51078267e-005        -170.404657       0.0220606096        -108.807954    5.62713731e-005        -132.008706
                   0.000120473696        -163.660576       0.0394077409        -13.9310931    5.62713731e-005        -132.008706       0.0211632197        -119.540346

         160000000       0.034180651        -75.9718398    1.55930644e-005         -103.51597       0.0449384398        -26.2462167    9.40194039e-005         141.686992
                  1.55930644e-005         -103.51597       0.0262076952        -78.5827084    3.11397829e-005        -14.5043881       0.0482002778        -27.8013603
                     0.0449384398        -26.2462167    3.11397829e-005        -14.5043881       0.0215015301        -82.4443482    6.37853904e-005        -98.7716792
                  9.40194039e-005         141.686992       0.0482002778        -27.8013603    6.37853904e-005        -98.7716792       0.0189826582        -94.8108202

         170000000      0.0442489459         -71.589447    4.20508488e-005        -53.3628431       0.0512872978        -41.1267376     0.000149338438          161.24897
                  4.20508488e-005        -53.3628431       0.0347401286         -76.295769    5.52007301e-005        -131.446049       0.0520785118        -42.9712067
                     0.0512872978        -41.1267376    5.52007301e-005        -131.446049       0.0294125654        -70.4312094    3.18428805e-005        -26.0760609
                   0.000149338438          161.24897       0.0520785118        -42.9712067    3.18428805e-005        -26.0760609       0.0247054046        -79.4220614

         180000000        0.05540706        -75.8894688    1.03730417e-005        -70.3721118       0.0531901229        -56.5007751      0.00015685242         133.507925
                  1.03730417e-005        -70.3721118       0.0435345131        -82.2450462    3.10211442e-005         165.557021       0.0511934155        -58.3260852
                     0.0531901229        -56.5007751    3.10211442e-005         165.557021       0.0392533095        -72.0128742    3.20652243e-005        -38.1204897
                    0.00015685242         133.507925       0.0511934155        -58.3260852    3.20652243e-005        -38.1204897       0.0325773842         -78.863653

         190000000      0.0652591981        -84.2802872    2.64816288e-005        -112.218292       0.0511612013        -72.0146533    7.04559387e-005         116.552213
                  2.64816288e-005        -112.218292       0.0508197193        -91.9792954    2.73980969e-005        -20.7555554       0.0463566667        -73.5245754
                     0.0511612013        -72.0146533    2.73980969e-005        -20.7555554        0.048889089        -80.2113424    4.79485255e-005         6.42257203
                  7.04559387e-005         116.552213       0.0463566667        -73.5245754    4.79485255e-005         6.42257203       0.0398618621           -85.1178

         200000000      0.0733427284        -94.8098758    2.71349536e-005        -139.679529       0.0459359414         -87.268808     0.000148825725         106.561579
                  2.71349536e-005        -139.679529       0.0563515073         -102.63356    4.94844635e-005         103.593312       0.0385995999        -87.9991255
                     0.0459359414         -87.268808    4.94844635e-005         103.593312       0.0560205947        -91.3604078    2.51198423e-005         145.757154
                   0.000148825725         106.561579       0.0385995999        -87.9991255    2.51198423e-005         145.757154       0.0454876399        -93.8755702

         210000000      0.0790219683        -106.390636    9.61748106e-006        -167.098011       0.0386723362        -102.063076    8.83055717e-005          68.065952
                  9.61748106e-006        -167.098011       0.0597007676        -113.847882    3.86051831e-005        -39.3878777       0.0291713248        -101.190286
                     0.0386723362        -102.063076    3.86051831e-005        -39.3878777        0.061658675        -103.753972     3.8021985e-005        -177.386564
                  8.83055717e-005          68.065952       0.0291713248        -101.190286     3.8021985e-005        -177.386564       0.0499696122        -104.479328

         220000000      0.0815674292        -118.607428    3.18300607e-005        -169.050045       0.0303474548        -116.129406     0.000156222657         69.7065402
                  3.18300607e-005        -169.050045       0.0619433153        -125.359336    4.95560812e-005         136.099233       0.0196487666        -110.762068
                     0.0303474548        -116.129406    4.95560812e-005         136.099233       0.0650843038        -116.834854    5.55780092e-005         147.521944
                   0.000156222657         69.7065402       0.0196487666        -110.762068    5.55780092e-005         147.521944       0.0524019987         -116.50805

         230000000      0.0818966725         -131.96865    3.12477901e-005         153.870199        0.022232943        -128.975211     0.000131746472         34.2640909
                  3.12477901e-005         153.870199       0.0629542749        -138.526918    5.61733665e-005         84.0399243       0.0114124207        -112.101224
                      0.022232943        -128.975211    5.61733665e-005         84.0399243       0.0656241347        -130.807996     3.2649348e-005        -41.7396673
