# GHz S MA R 50
! S-Parameters data
! Freq  magS11  angS11  magS12  angS12  magS13  angS13  magS14  angS14
!       magS21  angS21  magS22  angS22  magS23  angS23  magS24  angS24
!       magS31  angS31  magS32  angS32  magS33  angS33  magS34  angS34
!       magS41  angS41  magS42  angS42  magS43  angS43  magS44  angS44
!     
0.0000000000           1.26339408e-02  -3.53566759e+00 8.14303264e-09  7.76056543e+01  1.37661395e-03  3.70632756e+01  3.13046133e-08  7.75129190e+01 
                       8.16474559e-09  7.76079056e+01  1.26335831e-02  -3.50002205e+00 1.45396065e-08  -1.01311886e+02 1.37810493e-03  3.71316099e+01 
                       1.38113391e-03  3.69105378e+01  1.45397436e-08  -1.01313260e+02 1.26484488e-02  -3.55432106e+00 1.23163529e-08  7.75367934e+01 
                       3.13124105e-08  7.75126629e+01  1.38261720e-03  3.69786375e+01  1.23010368e-08  7.75372043e+01  1.26483755e-02  -3.54569310e+00
0.0100000000           2.07946074e-02  4.01251516e+01  3.87585784e-07  7.77027229e+01  2.04196420e-02  7.66312158e+01  3.81892174e-07  7.68746706e+01 
                       3.87585356e-07  7.77027188e+01  2.08160963e-02  4.01720137e+01  4.20614005e-07  7.84153190e+01  2.04466574e-02  7.66347809e+01 
                       2.04192599e-02  7.66150948e+01  4.20609312e-07  7.84154763e+01  2.07914969e-02  4.00699041e+01  3.97544566e-07  7.75261146e+01 
                       3.81887441e-07  7.68748288e+01  2.04462746e-02  7.66186815e+01  3.97544547e-07  7.75261271e+01  2.08093238e-02  4.01094010e+01 
0.0200000000           3.42287066e-02  4.46703170e+01  7.22006883e-07  7.57641850e+01  4.00284375e-02  6.81275277e+01  7.10568736e-07  7.46019925e+01 
                       7.22055642e-07  7.57641809e+01  3.42923771e-02  4.47066514e+01  7.85009663e-07  7.70388342e+01  4.00787463e-02  6.81333996e+01 
                       4.00272974e-02  6.81197320e+01  7.84967764e-07  7.70411882e+01  3.42268987e-02  4.46277046e+01  7.40331361e-07  7.56401346e+01 
                       7.10578795e-07  7.46029110e+01  4.00775767e-02  6.81256251e+01  7.40326750e-07  7.56392488e+01  3.42643988e-02  4.46628022e+01 
0.0300000000           4.72264821e-02  3.99143407e+01  1.00308867e-06  7.38050567e+01  5.84069936e-02  5.88375277e+01  9.86495141e-07  7.22095806e+01 
                       1.00310174e-06  7.38045519e+01  4.72920007e-02  3.99549178e+01  1.09419869e-06  7.56762961e+01  5.84786161e-02  5.88505756e+01 
                       5.84053033e-02  5.88326484e+01  1.09418847e-06  7.56772931e+01  4.71952529e-02  3.98861375e+01  1.02879559e-06  7.37052269e+01 
                       9.86493430e-07  7.22099549e+01  5.84769205e-02  5.88457055e+01  1.02878989e-06  7.37052127e+01  4.72492705e-02  3.99214645e+01 
0.0400000000           5.85785660e-02  3.26330604e+01  1.23437677e-06  7.27965836e+01  7.52020354e-02  4.95122640e+01  1.21317490e-06  7.06978206e+01 
                       1.23435205e-06  7.27987654e+01  5.86567023e-02  3.26815209e+01  1.35296616e-06  7.52630851e+01  7.52900507e-02  4.95312089e+01 
                       7.51999726e-02  4.95088894e+01  1.35295508e-06  7.52623002e+01  5.85389928e-02  3.26147447e+01  1.26675887e-06  7.26913205e+01 
                       1.21315110e-06  7.06990300e+01  7.52879905e-02  4.95278329e+01  1.26677063e-06  7.26909989e+01  5.86044899e-02  3.26531431e+01 
0.0500000000           6.80521557e-02  2.46213315e+01  1.42379445e-06  7.30049974e+01  9.01744500e-02  4.02790794e+01  1.39749091e-06  7.03244525e+01 
                       1.42379588e-06  7.30090784e+01  6.81388070e-02  2.46745320e+01  1.57129581e-06  7.60441160e+01  9.02736540e-02  4.03040424e+01 
                       9.01721787e-02  4.02766164e+01  1.57127168e-06  7.60423142e+01  6.80098177e-02  2.46056492e+01  1.46228350e-06  7.28634196e+01 
                       1.39747595e-06  7.03264410e+01  9.02713865e-02  4.03015730e+01  1.46228912e-06  7.28629903e+01  6.80820216e-02  2.46487356e+01 
0.0600000000           7.56980747e-02  1.64642361e+01  1.58574644e-06  7.45505648e+01  1.03156095e-01  3.11560742e+01  1.55187952e-06  7.12170991e+01 
                       1.58581586e-06  7.45533966e+01  7.57869861e-02  1.65235670e+01  1.76624246e-06  7.80873650e+01  1.03261203e-01  3.11874448e+01 
                       1.03153727e-01  3.11542165e+01  1.76619965e-06  7.80848702e+01  7.56562248e-02  1.64505133e+01  1.62979752e-06  7.43355735e+01 
                       1.55190481e-06  7.12182660e+01  1.03258836e-01  3.11855779e+01  1.62978898e-06  7.43364687e+01  7.57304900e-02  1.64991285e+01 
0.0700000000           8.16641923e-02  8.36131840e+00  1.74034636e-06  7.73837551e+01  1.14017586e-01  2.21322091e+01  1.69378724e-06  7.33650245e+01 
                       1.74045386e-06  7.73825301e+01  8.17504421e-02  8.42835769e+00  1.96053422e-06  8.12723211e+01  1.14123156e-01  2.21703723e+01 
                       1.14015217e-01  2.21307727e+01  1.96046490e-06  8.12695997e+01  8.16273965e-02  8.34992398e+00  1.78924724e-06  7.70597243e+01 
                       1.69384606e-06  7.33635590e+01  1.14120782e-01  2.21689262e+01  1.78925279e-06  7.70627371e+01  8.16991459e-02  8.40459454e+00 
0.0800000000           8.61115390e-02  3.63059081e-01  1.91110428e-06  8.12399554e+01  1.22652958e-01  1.31902111e+01  1.84388965e-06  7.65803712e+01 
                       1.91116541e-06  8.12347245e+01  8.61905359e-02  4.38623814e-01  2.17959900e-06  8.52716948e+01  1.22753340e-01  1.32355471e+01 
                       1.22650667e-01  1.31890741e+01  2.17950754e-06  8.52695061e+01  8.60846934e-02  3.53903102e-01  1.96392373e-06  8.07874910e+01 
                       1.84393277e-06  7.65760883e+01  1.22751040e-01  1.32344017e+01  1.96397847e-06  8.07917726e+01  8.61494176e-02  4.15057999e-01 
0.0900000000           8.91758403e-02  -7.54132968e+00 2.12154454e-06  8.56473581e+01  1.28975663e-01  4.31417202e+00  2.02354758e-06  8.04876166e+01 
                       2.12151466e-06  8.56418480e+01  8.92423336e-02  -7.45687514e+00 2.44773282e-06  8.95970316e+01  1.29065022e-01  4.36709481e+00 
                       1.28973476e-01  4.31325726e+00  2.44765224e-06  8.95960325e+01  8.91630633e-02  -7.54872943e+00 2.17733634e-06  8.50754540e+01 
                       2.02353624e-06  8.04832143e+01  1.29062823e-01  4.36617504e+00  2.17742614e-06  8.50788593e+01  8.92163354e-02  -7.48065371e+00
0.1000000000           9.09546688e-02  -1.53866901e+01 2.39157600e-06  9.00319688e+01  1.32919872e-01  -4.50825241e+00 2.25192624e-06  8.45841747e+01 
                       2.39158985e-06  9.00315843e+01  9.10023724e-02  -1.52930618e+01 2.78459283e-06  9.37223835e+01  1.32992246e-01  -4.44726049e+00
                       1.32917847e-01  -4.50900950e+00 2.78458848e-06  9.37227430e+01  9.09588956e-02  -1.53929648e+01 2.44980576e-06  8.93767120e+01 
                       2.25193814e-06  8.45845795e+01  1.32990212e-01  -4.44801699e+00 2.44981270e-06  8.93771542e+01  9.09963928e-02  -1.53174817e+01
0.1100000000           9.15601906e-02  -2.32181882e+01 2.73899835e-06  9.39003496e+01  1.34444495e-01  -1.32852733e+01 2.54781263e-06  8.84288245e+01 
                       2.73901145e-06  9.38999961e+01  9.15842440e-02  -2.31137513e+01 3.20630891e-06  9.72191062e+01  1.34494030e-01  -1.32156070e+01
                       1.34442607e-01  -1.32859026e+01 3.20630543e-06  9.72193977e+01  9.15861863e-02  -2.32230732e+01 2.79916568e-06  9.31939241e+01 
                       2.54782729e-06  8.84291047e+01  1.34492134e-01  -1.32162353e+01 2.79917495e-06  9.31942909e+01  9.16034919e-02  -2.31393501e+01
0.1200000000           9.09459603e-02  -3.10750679e+01 3.16802331e-06  9.68662996e+01  1.33531506e-01  -2.20204223e+01 2.91698617e-06  9.15282800e+01 
                       3.16803571e-06  9.68659862e+01  9.09413882e-02  -3.09592904e+01 3.71656017e-06  9.98271619e+01  1.33552384e-01  -2.19413144e+01
                       1.33529786e-01  -2.20209612e+01 3.71655707e-06  9.98273958e+01  9.09975176e-02  -3.10790302e+01 3.23027556e-06  9.61567657e+01 
                       2.91700271e-06  9.15284619e+01  1.33550657e-01  -2.19418527e+01 3.23028659e-06  9.61570632e+01  9.09902718e-02  -3.09866449e+01
0.1300000000           8.91191369e-02  -3.89954384e+01 3.68114939e-06  9.87802784e+01  1.30193508e-01  -3.07123735e+01 3.36393471e-06  9.36605144e+01 
                       3.68116116e-06  9.87800086e+01  8.90808158e-02  -3.88675149e+01 4.31733477e-06  1.01453632e+02  1.30180084e-01  -3.06227652e+01
                       1.30191942e-01  -3.07128394e+01 4.31733153e-06  1.01453816e+02  8.91996790e-02  -3.89989434e+01 3.74635654e-06  9.81010474e+01 
                       3.36395263e-06  9.36606202e+01  1.30178512e-01  -3.06232303e+01 3.74636907e-06  9.81012872e+01  8.91634439e-02  -3.88973006e+01
0.1400000000           8.60711299e-02  -4.70132109e+01 4.27654365e-06  9.96254967e+01  1.24474135e-01  -3.93524600e+01 3.88876380e-06  9.47417321e+01 
                       4.27655515e-06  9.96252690e+01  8.59938896e-02  -4.68719782e+01 5.00635400e-06  1.02106579e+02  1.24421072e-01  -3.92508278e+01
                       1.24472707e-01  -3.93528639e+01 5.00635019e-06  1.02106720e+02  8.61835587e-02  -4.70166781e+01 4.34605055e-06  9.89932224e+01 
                       3.88878269e-06  9.47417825e+01  1.24419639e-01  -3.92512311e+01 4.34606417e-06  9.89934156e+01  8.61138942e-02  -4.69049399e+01
0.1500000000           8.17877994e-02  -5.51575033e+01 4.94802945e-06  9.94596229e+01  1.16450890e-01  -4.79205987e+01 4.48706357e-06  9.47811694e+01 
                       4.94804080e-06  9.94594338e+01  8.16665756e-02  -5.50012978e+01 5.77685198e-06  1.01847934e+02  1.16353348e-01  -4.78046530e+01
                       1.16449607e-01  -4.79209583e+01 5.77684723e-06  1.01848041e+02  8.19344510e-02  -5.51613056e+01 5.02334676e-06  9.88780825e+01 
                       4.48708274e-06  9.47811839e+01  1.16352061e-01  -4.78050120e+01 5.02336111e-06  9.88782395e+01  8.18270214e-02  -5.50382739e+01
0.1600000000           7.62604219e-02  -6.34532826e+01 5.68435408e-06  9.83767320e+01  1.06239338e-01  -5.63777005e+01 5.14917850e-06  9.38436717e+01 
                       5.68436550e-06  9.83765763e+01  7.60904512e-02  -6.32796954e+01 6.61670993e-06  1.00765849e+02  1.06093253e-01  -5.62438294e+01
                       1.06238192e-01  -5.63780258e+01 6.61670392e-06  1.00765929e+02  7.64429851e-02  -6.34577366e+01 5.76686672e-06  9.78419955e+01 
                       5.14919761e-06  9.38436643e+01  1.06092103e-01  -5.62441537e+01 5.76688146e-06  9.78421265e+01  7.62937366e-02  -6.33216709e+01
0.1700000000           6.94961000e-02  -7.19233899e+01 6.46830017e-06  9.64897347e+01  9.39976668e-02  -6.46498098e+01 5.85934318e-06  9.20278356e+01 
                       6.46831180e-06  9.64896084e+01  6.92731667e-02  -7.17288624e+01 7.50752343e-06  9.89634313e+01  9.38001337e-02  -6.44919633e+01
                       9.39966587e-02  -6.46501180e+01 7.50751600e-06  9.89634920e+01  6.97154768e-02  -7.19286711e+01 6.55902597e-06  9.59943570e+01 
                       5.85936193e-06  9.20278189e+01  9.37991226e-02  -6.44922703e+01 6.55904084e-06  9.59944681e+01  6.95208512e-02  -7.17769812e+01
0.1800000000           6.15275329e-02  -8.05931145e+01 7.27632885e-06  9.39249015e+01  7.99330835e-02  -7.25922022e+01 6.59531613e-06  8.94555957e+01 
                       7.27634075e-06  9.39247995e+01  6.12482484e-02  -8.03722169e+01 8.42430122e-06  9.65563076e+01  7.96829628e-02  -7.23993819e+01
                       7.99321946e-02  -7.25924913e+01 8.42429196e-06  9.65563523e+01  6.17837805e-02  -8.05991802e+01 7.37574263e-06  9.34606180e+01 
                       6.59533421e-06  8.94555758e+01  7.96820712e-02  -7.23996698e+01 7.37575737e-06  9.34607156e+01  6.15409703e-02  -8.04279019e+01
0.1900000000           5.24212713e-02  -8.95010333e+01 8.07926832e-06  9.08214925e+01  6.43124366e-02  -7.98944326e+01 7.32899972e-06  8.62677953e+01 
                       8.07928025e-06  9.08214110e+01  5.20833494e-02  -8.92450906e+01 9.33631346e-06  9.36734266e+01  6.40115137e-02  -7.96440937e+01
                       6.43116587e-02  -7.98947064e+01 9.33630249e-06  9.36734593e+01  5.27134882e-02  -8.95072901e+01 8.18719880e-06  9.03806491e+01 
                       7.32901679e-06  8.62677788e+01  6.40107337e-02  -7.96443654e+01 8.18721329e-06  9.03807372e+01  5.24207048e-02  -8.93101142e+01
0.2000000000           4.22834639e-02  -9.87275761e+01 8.84435202e-06  8.73323820e+01  4.74901856e-02  -8.57711553e+01 8.02833414e-06  8.26219847e+01 
                       8.84436400e-06  8.73323174e+01  4.18859142e-02  -9.84217756e+01 1.02094039e-05  9.04578691e+01  4.71462369e-02  -8.54073937e+01
                       4.74895047e-02  -8.57713675e+01 1.02093906e-05  9.04578936e+01  4.26097065e-02  -9.87319317e+01 8.95995806e-06  8.69085101e+01 
                       8.02834942e-06  8.26219736e+01  4.71455545e-02  -8.54076016e+01 8.95997204e-06  8.69085918e+01  4.22663693e-02  -9.84982365e+01
0.2100000000           3.12632521e-02  -1.08488466e+02 9.53861375e-06  8.36240824e+01  3.00351033e-02  -8.75623944e+01 8.66047289e-06  7.86908122e+01 
                       9.53862577e-06  8.36240313e+01  3.08062759e-02  -1.08105072e+02 1.10097499e-05  8.70663840e+01  2.96752546e-02  -8.68925266e+01
                       3.00345190e-02  -8.75625644e+01 1.10097356e-05  8.70664042e+01  3.16204754e-02  -1.08483293e+02 9.66043940e-06  8.32119751e+01 
                       8.66048721e-06  7.86908134e+01  2.96746684e-02  -8.68926831e+01 9.66045289e-06  8.32120531e+01  3.12271898e-02  -1.08193849e+02
0.2200000000           1.95582023e-02  -1.19576034e+02 1.01333155e-05  7.98752799e+01  1.38726617e-02  -6.97613604e+01 9.19594712e-06  7.46600721e+01 
                       1.01333273e-05  7.98752403e+01  1.90421024e-02  -1.19059524e+02 1.17086990e-05  8.36668565e+01  1.36671658e-02  -6.76691334e+01
                       1.38722160e-02  -6.97606363e+01 1.17086835e-05  8.36668751e+01  1.99418640e-02  -1.19522858e+02 1.02594174e-05  7.94708082e+01 
                       9.19595969e-06  7.46600856e+01  1.36667273e-02  -6.76683283e+01 1.02594302e-05  7.94708842e+01  1.94996924e-02  -1.19142968e+02
0.2300000000           7.49244468e-03  -1.38129824e+02 1.06087893e-05  7.62732440e+01  1.38220058e-02  7.76527338e+00  9.61324458e-06  7.07257044e+01 
                       1.06088007e-05  7.62732140e+01  6.91262374e-03  -1.37675781e+02 1.22879540e-05  8.04330642e+01  1.43260759e-02  8.93470248e+00 
                       1.38221253e-02  7.76679022e+00  1.22879382e-05  8.04330816e+01  7.88910185e-03  -1.37491443e+02 1.07369135e-05  7.58730867e+01 
                       9.61325600e-06  7.07257321e+01  1.43262041e-02  8.93615670e+00  1.07369259e-05  7.58731626e+01  7.39693118e-03  -1.37213198e+02
0.2400000000           5.63390743e-03  6.91220832e+01  1.09588081e-05  7.30072140e+01  3.00644100e-02  2.58191398e+01  9.90301956e-06  6.70888856e+01 
                       1.09588189e-05  7.30071913e+01  6.12682518e-03  6.55502517e+01  1.27440970e-05  7.75359130e+01  3.06710177e-02  2.59489415e+01 
                       3.00646285e-02  2.58195194e+01  1.27440809e-05  7.75359330e+01  5.25035166e-03  7.09601174e+01  1.10865898e-05  7.26086073e+01 
                       9.90302983e-06  6.70889283e+01  3.06712380e-02  2.59493120e+01  1.10866016e-05  7.26086838e+01  5.66546080e-03  6.76720581e+01 
0.2500000000           1.78743769e-02  4.57586622e+01  1.11936128e-05  7.02569828e+01  4.77164592e-02  2.40907891e+01  1.00711528e-05  6.39473638e+01 
                       1.11936229e-05  7.02569663e+01  1.84713227e-02  4.50529376e+01  1.30914215e-05  7.51298490e+01  4.83486575e-02  2.41242597e+01 
                       4.77166420e-02  2.40909235e+01  1.30914057e-05  7.51298723e+01  1.74498354e-02  4.59790497e+01  1.13187496e-05  6.98576166e+01 
                       1.00711622e-05  6.39474239e+01  4.83488406e-02  2.41243912e+01  1.13187617e-05  6.98576932e+01  1.79575839e-02  4.53966937e+01 
0.2600000000           3.00829886e-02  3.41393208e+01  1.13407456e-05  6.81752105e+01  6.48168130e-02  1.82666504e+01  1.01399541e-05  6.14810760e+01 
                       1.13407551e-05  6.81751985e+01  3.07132846e-02  3.38239888e+01  1.33621240e-05  7.33341191e+01  6.54623726e-02  1.82943250e+01 
                       6.48169443e-02  1.82666972e+01  1.33621099e-05  7.33341446e+01  2.96546330e-02  3.42277895e+01  1.14611296e-05  6.77733756e+01 
                       1.01399629e-05  6.14811523e+01  6.54625051e-02  1.82943710e+01  1.14611406e-05  6.77734569e+01  3.01878555e-02  3.39751736e+01 
0.2700000000           4.18433921e-02  2.40714932e+01  1.14430680e-05  6.68625847e+01  8.07740001e-02  1.10328961e+01  1.01469832e-05  5.98295775e+01 
                       1.14430767e-05  6.68625761e+01  4.24903113e-02  2.39109332e+01  1.36032335e-05  7.22101500e+01  8.14226763e-02  1.10707812e+01 
                       8.07740788e-02  1.10329016e+01  1.36032215e-05  7.22101774e+01  4.14213114e-02  2.41193974e+01  1.15568425e-05  6.64577487e+01 
                       1.01469925e-05  5.98296693e+01  8.14227553e-02  1.10707862e+01  1.15568545e-05  6.64578304e+01  4.19652677e-02  2.39939780e+01 
0.2800000000           5.29222837e-02  1.45231979e+01  1.15537555e-05  6.63394143e+01  9.52123848e-02  3.18620426e+00  1.01412536e-05  5.90617603e+01 
                       1.15537635e-05  6.63394087e+01  5.35732705e-02  1.44506305e+01  1.38703397e-05  7.17409393e+01  9.58536102e-02  3.23827546e+00 
                       9.52124141e-02  3.18618684e+00  1.38703294e-05  7.17409700e+01  5.25154380e-02  1.45516941e+01  1.16593334e-05  6.59332314e+01 
                       1.01412641e-05  5.90618654e+01  9.58536398e-02  3.23825781e+00  1.16593458e-05  6.59333147e+01  5.30591447e-02  1.44979335e+01 
0.2900000000           6.31234968e-02  5.22279234e+00  1.17285751e-05  6.65238748e+01  1.07847806e-01  -4.95400651e+00 1.01768324e-05  5.91444548e+01 
                       1.17285825e-05  6.65238718e+01  6.37671072e-02  5.21107161e+00  1.42189785e-05  7.18225081e+01  1.08470962e-01  -4.88638554e+00
                       1.07847781e-01  -4.95404154e+00 1.42189712e-05  7.18225384e+01  6.27406910e-02  5.23943313e+00  1.18246579e-05  6.61213642e+01 
                       1.01768448e-05  5.91445707e+01  1.08470937e-01  -4.88642057e+00 1.18246712e-05  6.61214478e+01  6.32742425e-02  5.23515219e+00 
0.3000000000           7.22783100e-02  -3.93592145e+00 1.20169996e-05  6.72330544e+01  1.18461785e-01  -1.32344720e+01 1.03047168e-05  5.99263624e+01 
                       1.20170065e-05  6.72330530e+01  7.29037076e-02  -3.89994108e+00 1.46958731e-05  7.22778912e+01  1.19056550e-01  -1.31505080e+01
                       1.18461727e-01  -1.32345123e+01 1.46958681e-05  7.22779165e+01  7.19281975e-02  -3.92786640e+00 1.21026561e-05  6.68432894e+01 
                       1.03047316e-05  5.99264821e+01  1.19056493e-01  -1.31505482e+01 1.21026706e-05  6.68433714e+01  7.24423429e-02  -3.89330368e+00
0.3100000000           8.02416156e-02  -1.30083355e+01 1.24547605e-05  6.82168924e+01  1.26891813e-01  -2.15727434e+01 1.05649542e-05  6.11558254e+01 
                       1.24547670e-05  6.82168926e+01  8.08384200e-02  -1.29316090e+01 1.53327232e-05  7.28942020e+01  1.27448377e-01  -2.14716679e+01
                       1.26891695e-01  -2.15727931e+01 1.53327217e-05  7.28942250e+01  7.99325676e-02  -1.30073000e+01 1.25295823e-05  6.78524510e+01 
                       1.05649722e-05  6.11559444e+01  1.27448259e-01  -2.14717174e+01 1.25295981e-05  6.78525296e+01  8.04185778e-02  -1.29395148e+01
0.3200000000           8.68877667e-02  -2.20314251e+01 1.30605937e-05  6.92159717e+01  1.33024190e-01  -2.99209156e+01 1.09818321e-05  6.25360129e+01 
