# GHz S MA R 50
! S-Parameters data
! Freq  magS11  angS11  magS12  angS12  magS13  angS13  magS14  angS14
!       magS21  angS21  magS22  angS22  magS23  angS23  magS24  angS24
!       magS31  angS31  magS32  angS32  magS33  angS33  magS34  angS34
!       magS41  angS41  magS42  angS42  magS43  angS43  magS44  angS44
!     
0.0000000000           7.85441485e-03  3.68540141e+01  4.53653263e-05  -1.04801341e+02 1.67413393e-03  2.67641199e+01  6.45669448e-05  -1.03973702e+02
                       4.53653176e-05  -1.04801341e+02 8.05035837e-03  3.75223308e+01  3.34616787e-05  -1.04352968e+02 1.67151140e-03  2.97763983e+01 
                       1.67410705e-03  2.67640580e+01  3.34616916e-05  -1.04352964e+02 8.15788665e-03  3.48997861e+01  5.10648614e-05  -1.03679211e+02
                       6.45669266e-05  -1.03973703e+02 1.67148346e-03  2.97768196e+01  5.10648462e-05  -1.03679214e+02 8.28983534e-03  3.60855162e+01 
0.0100000000           1.63813749e-02  4.23594730e+01  6.10305735e-05  -1.13120544e+02 2.19632115e-02  7.49138678e+01  8.90692105e-05  -1.12200266e+02
                       6.10305735e-05  -1.13120544e+02 1.64503188e-02  4.23142012e+01  4.35041983e-05  -1.13423093e+02 2.20759744e-02  7.68499036e+01 
                       2.19632116e-02  7.49138678e+01  4.35041983e-05  -1.13423093e+02 1.63989916e-02  4.26202089e+01  6.93939588e-05  -1.12285345e+02
                       8.90692009e-05  -1.12200268e+02 2.20759739e-02  7.68499035e+01  6.93939588e-05  -1.12285345e+02 1.64550864e-02  4.24521201e+01 
0.0200000000           2.51178841e-02  3.51171725e+01  1.15112602e-04  -1.22529837e+02 4.27929257e-02  6.46814011e+01  1.68334519e-04  -1.21395591e+02
                       1.15112600e-04  -1.22529834e+02 2.54140024e-02  3.52290363e+01  8.18912997e-05  -1.23394203e+02 4.30587169e-02  6.84778696e+01 
                       4.27928797e-02  6.46814046e+01  8.18913271e-05  -1.23394214e+02 2.51678726e-02  3.54233963e+01  1.31075571e-04  -1.21859893e+02
                       1.68334517e-04  -1.21395593e+02 4.30586973e-02  6.84778593e+01  1.31075542e-04  -1.21859887e+02 2.54583476e-02  3.53174742e+01 
0.0300000000           3.09476983e-02  2.60706330e+01  1.63658188e-04  -1.33203868e+02 6.22983060e-02  5.39210928e+01  2.40401381e-04  -1.31747414e+02
                       1.63658184e-04  -1.33203865e+02 3.16756109e-02  2.61048910e+01  1.15844241e-04  -1.34532346e+02 6.27366306e-02  5.95743714e+01 
                       6.22982983e-02  5.39210929e+01  1.15844234e-04  -1.34532349e+02 3.10205714e-02  2.64651511e+01  1.86632626e-04  -1.32518615e+02
                       2.40401376e-04  -1.31747413e+02 6.27366260e-02  5.95743712e+01  1.86632631e-04  -1.32518614e+02 3.17654768e-02  2.61404311e+01 
0.0400000000           3.46833472e-02  1.67003191e+01  2.07423542e-04  -1.43673014e+02 8.02643085e-02  4.31176501e+01  3.06512290e-04  -1.41929473e+02
                       2.07423522e-04  -1.43673016e+02 3.60246784e-02  1.64318220e+01  1.45786368e-04  -1.45373034e+02 8.08880883e-02  5.06303005e+01 
                       8.02643115e-02  4.31176464e+01  1.45786380e-04  -1.45373033e+02 3.47643344e-02  1.71698372e+01  2.36881408e-04  -1.42939468e+02
                       3.06512279e-04  -1.41929474e+02 8.08880933e-02  5.06302973e+01  2.36881400e-04  -1.42939468e+02 3.61625582e-02  1.64066178e+01 
0.0500000000           3.64975786e-02  7.00628317e+00  2.47160183e-04  -1.53740757e+02 9.64564368e-02  3.23227031e+01  3.67875275e-04  -1.51778559e+02
                       2.47160160e-04  -1.53740756e+02 3.86214644e-02  6.24304045e+00  1.72176510e-04  -1.55702123e+02 9.72723981e-02  4.17051690e+01 
                       9.64564397e-02  3.23227013e+01  1.72176531e-04  -1.55702124e+02 3.65679122e-02  7.54910162e+00  2.82670777e-04  -1.52947211e+02
                       3.67875266e-04  -1.51778559e+02 9.72724026e-02  4.17051619e+01  2.82670770e-04  -1.52947211e+02 3.88061644e-02  6.14449163e+00 
0.0600000000           3.64289761e-02  -3.07053109e+00 2.83704131e-04  -1.63348453e+02 1.10642784e-01  2.15397676e+01  4.25760267e-04  -1.61264801e+02
                       2.83704117e-04  -1.63348451e+02 3.95045116e-02  -4.54132683e+00 1.95593204e-04  -1.65428281e+02 1.11652509e-01  3.28069617e+01 
                       1.10642780e-01  2.15397703e+01  1.95593227e-04  -1.65428285e+02 3.64687640e-02  -2.45843818e+00 3.24976477e-04  -1.62492002e+02
                       4.25760259e-04  -1.61264801e+02 1.11652505e-01  3.28069533e+01  3.24976466e-04  -1.62492002e+02 3.97323025e-02  -4.72721778e+00
0.0700000000           3.45187622e-02  -1.36912643e+01 3.18168115e-04  -1.72481666e+02 1.22610943e-01  1.07647953e+01  4.81712727e-04  -1.70401364e+02
                       3.18168104e-04  -1.72481663e+02 3.87237918e-02  -1.61192600e+01 2.16904347e-04  -1.74499510e+02 1.23809243e-01  2.39364634e+01 
                       1.22610934e-01  1.07648053e+01  2.16904365e-04  -1.74499514e+02 3.45073687e-02  -1.30165495e+01 3.65099503e-04  -1.71567682e+02
                       4.81712712e-04  -1.70401365e+02 1.23809230e-01  2.39364556e+01  3.65099484e-04  -1.71567683e+02 3.89901485e-02  -1.64082602e+01
0.0800000000           3.08453804e-02  -2.52165591e+01 3.51987525e-04  1.78824142e+02  1.32179191e-01  -7.66741139e-03 5.37580200e-04  -1.79243203e+02
                       3.51987526e-04  1.78824144e+02  3.63872695e-02  -2.88758974e+01 2.37329183e-04  1.77077711e+02  1.33553005e-01  1.50937895e+01 
                       1.32179183e-01  -7.65238167e-03 2.37329193e-04  1.77077707e+02  3.07628360e-02  -2.44962121e+01 4.04707649e-04  1.79780970e+02 
                       5.37580195e-04  -1.79243204e+02 1.33552987e-01  1.50937838e+01  4.04707629e-04  1.79780970e+02  3.66900261e-02  -2.92870449e+01
0.0900000000           2.55574492e-02  -3.84928732e+01 3.86838880e-04  1.70473032e+02  1.39201883e-01  -1.07835547e+01 5.95376510e-04  1.72111651e+02 
                       3.86838890e-04  1.70473034e+02  3.27112383e-02  -4.35388686e+01 2.58387752e-04  1.69210626e+02  1.40729747e-01  6.27961889e+00 
                       1.39201880e-01  -1.07835444e+01 2.58387755e-04  1.69210623e+02  2.53868466e-02  -3.77749147e+01 4.45718815e-04  1.71449102e+02 
                       5.95376501e-04  1.72111650e+02  1.40729731e-01  6.27961500e+00  4.45718801e-04  1.71449102e+02  3.30539787e-02  -4.40926007e+01
0.1000000000           1.89728342e-02  -5.58852716e+01 4.24452453e-04  1.62309664e+02  1.43570527e-01  -2.15683142e+01 6.57039512e-04  1.63530104e+02 
                       4.24452456e-04  1.62309666e+02  2.81225502e-02  -6.15053898e+01 2.81739582e-04  1.61705380e+02  1.45222766e-01  -2.50341241e+00
                       1.43570509e-01  -2.15683247e+01 2.81739595e-04  1.61705380e+02  1.87082472e-02  -5.53386567e+01 4.90073444e-04  1.63275374e+02 
                       6.57039517e-04  1.63530105e+02  1.45222765e-01  -2.50341433e+00 4.90073449e-04  1.63275373e+02  2.85197740e-02  -6.22075013e+01
0.1100000000           1.21196436e-02  -8.47949418e+01 4.66332657e-04  1.54122466e+02  1.45201949e-01  -3.23645216e+01 7.24133605e-04  1.54850936e+02 
                       4.66332664e-04  1.54122468e+02  2.34999989e-02  -8.51409381e+01 3.08909408e-04  1.54277507e+02  1.46948916e-01  -1.12476642e+01
                       1.45201928e-01  -3.23645290e+01 3.08909416e-04  1.54277507e+02  1.17842787e-02  -8.61014065e+01 5.39428031e-04  1.55057710e+02 
                       7.24133626e-04  1.54850937e+02  1.46948916e-01  -1.12476629e+01 5.39428031e-04  1.55057709e+02  2.39821721e-02  -8.59143115e+01
0.1200000000           9.19617020e-03  -1.47573628e+02 5.13530992e-04  1.45731039e+02  1.44095809e-01  -4.31737771e+01 7.97595926e-04  1.45949246e+02 
                       5.13531005e-04  1.45731040e+02  2.06142401e-02  -1.17450286e+02 3.41035222e-04  1.46628173e+02  1.45894316e-01  -1.99422964e+01
                       1.44095774e-01  -4.31737817e+01 3.41035238e-04  1.46628173e+02  9.49771650e-03  -1.51383445e+02 5.94896291e-04  1.46608841e+02 
                       7.97595946e-04  1.45949247e+02  1.45894318e-01  -1.99422932e+01 5.94896279e-04  1.46608841e+02  2.12024560e-02  -1.17965631e+02
0.1300000000           1.57300988e-02  1.59485170e+02  5.66481772e-04  1.36958485e+02  1.40274451e-01  -5.39963563e+01 8.77626496e-04  1.36707672e+02 
                       5.66481783e-04  1.36958486e+02  2.19006312e-02  -1.54780663e+02 3.78620589e-04  1.38484500e+02  1.42080988e-01  -2.85705154e+01
                       1.40274420e-01  -5.39963571e+01 3.78620607e-04  1.38484501e+02  1.66849212e-02  1.58845672e+02  6.56844264e-04  1.37763353e+02 
                       8.77626520e-04  1.36707671e+02  1.42080988e-01  -2.85705101e+01 6.56844244e-04  1.37763351e+02  2.25404242e-02  -1.54705416e+02
0.1400000000           2.63829023e-02  1.35020119e+02  6.24849379e-04  1.27684319e+02  1.33812392e-01  -6.48284505e+01 9.63543161e-04  1.27051092e+02 
                       6.24849397e-04  1.27684319e+02  2.78642109e-02  1.73644353e+02  4.21425785e-04  1.29665315e+02  1.35587298e-01  -3.71055109e+01
                       1.33812363e-01  -6.48284512e+01 4.21425804e-04  1.29665315e+02  2.76148209e-02  1.35574912e+02  7.24785634e-04  1.28413830e+02 
                       9.63543187e-04  1.27051093e+02  1.35587312e-01  -3.71055029e+01 7.24785618e-04  1.28413830e+02  2.84841835e-02  1.74022224e+02 
0.1500000000           3.82903595e-02  1.19079631e+02  6.87555938e-04  1.17855581e+02  1.24838851e-01  -7.56613107e+01 1.05381239e-03  1.16951497e+02 
                       6.87555980e-04  1.17855581e+02  3.68175436e-02  1.50437615e+02  4.68510672e-04  1.20098448e+02  1.26550859e-01  -4.55058950e+01
                       1.24838828e-01  -7.56613114e+01 4.68510680e-04  1.20098448e+02  3.96968792e-02  1.20053833e+02  7.97412075e-04  1.18518268e+02 
                       1.05381244e-03  1.16951498e+02  1.26550870e-01  -4.55058846e+01 7.97412060e-04  1.18518269e+02  3.74106654e-02  1.50798587e+02 
0.1600000000           5.05810949e-02  1.06054878e+02  7.52902168e-04  1.07481852e+02  1.13538885e-01  -8.64805554e+01 1.14620026e-03  1.06424374e+02 
                       7.52902182e-04  1.07481851e+02  4.72094127e-02  1.32597179e+02  5.18380146e-04  1.09806068e+02  1.15169467e-01  -5.37079622e+01
                       1.13538853e-01  -8.64805539e+01 5.18380175e-04  1.09806068e+02  5.21078292e-02  1.07244122e+02  8.72753265e-04  1.08093356e+02 
                       1.14620030e-03  1.06424375e+02  1.15169479e-01  -5.37079526e+01 8.72753247e-04  1.08093358e+02  4.77883445e-02  1.32844472e+02 
0.1700000000           6.27011835e-02  9.42900605e+01  8.18772214e-04  9.66212936e+01  1.00150574e-01  -9.72644281e+01 1.23800396e-03  9.55203046e+01 
                       8.18772222e-04  9.66212922e+01  5.80742861e-02  1.17720128e+02  5.69185490e-04  9.88756130e+01  1.01699033e-01  -6.16092105e+01
                       1.00150549e-01  -9.72644249e+01 5.69185522e-04  9.88756147e+01  6.43020078e-02  9.56254019e+01  9.48398770e-04  9.72003461e+01 
                       1.23800400e-03  9.55203042e+01  1.01699048e-01  -6.16092020e+01 9.48398748e-04  9.72003454e+01  5.86436339e-02  1.17842533e+02 
0.1800000000           7.41562322e-02  8.31609258e+01  8.82873622e-04  8.53642686e+01  8.49578261e-02  -1.07978659e+02 1.32633801e-03  8.43148993e+01 
                       8.82873626e-04  8.53642685e+01  6.87432314e-02  1.04514750e+02  6.18940449e-04  8.74311242e+01  8.64489102e-02  -6.90298325e+01
                       8.49578040e-02  -1.07978655e+02 6.18940488e-04  8.74311246e+01  7.57860974e-02  8.46146017e+01  1.02176334e-03  8.59295813e+01 
                       1.32633807e-03  8.43149012e+01  8.64489351e-02  -6.90298272e+01 1.02176332e-03  8.59295830e+01  6.92971189e-02  1.04520433e+02 
0.1900000000           8.44725895e-02  7.23933949e+01  9.42980552e-04  7.38187565e+01  6.82794244e-02  -1.18560914e+02 1.40843621e-03  7.28992283e+01 
                       9.42980543e-04  7.38187563e+01  7.86752956e-02  9.23050033e+01  6.65725730e-04  7.56114949e+01  6.97814094e-02  -7.56110899e+01
                       6.82794116e-02  -1.18560909e+02 6.65725776e-04  7.56114958e+01  8.60861917e-02  7.39529391e+01  1.09035390e-03  7.43871151e+01 
                       1.40843627e-03  7.28992304e+01  6.97814342e-02  -7.56110879e+01 1.09035389e-03  7.43871165e+01  7.92000036e-02  9.22040554e+01 
0.2000000000           9.32040405e-02  6.18584707e+01  9.97165951e-04  6.20991533e+01  5.04571161e-02  -1.28868560e+02 1.48194091e-03  6.13718244e+01 
                       9.97165927e-04  6.20991530e+01  8.73985360e-02  8.07221062e+01  7.07871287e-04  6.35564335e+01  5.21360255e-02  -8.04972779e+01
                       5.04570998e-02  -1.28868552e+02 7.07871347e-04  6.35564339e+01  9.47552745e-02  6.35178866e+01  1.15201233e-03  6.26846084e+01 
                       1.48194098e-03  6.13718261e+01  5.21360431e-02  -8.04972783e+01 1.15201233e-03  6.26846101e+01  8.78743462e-02  8.05224553e+01 
0.2100000000           9.99481463e-02  5.14962727e+01  1.04396411e-03  5.03184159e+01  3.18461610e-02  -1.38430780e+02 1.54512833e-03  4.98323991e+01 
                       1.04396407e-03  5.03184157e+01  9.44949038e-02  6.95543462e+01  7.44083491e-04  5.13981989e+01  3.41797080e-02  -8.10237370e+01
                       3.18461468e-02  -1.38430768e+02 7.44083560e-04  5.13981990e+01  1.01391361e-01  5.32528712e+01  1.20510645e-03  5.09323107e+01 
                       1.54512841e-03  4.98324007e+01  3.41797223e-02  -8.10237462e+01 1.20510646e-03  5.09323126e+01  9.48988713e-02  6.92613447e+01 
0.2200000000           1.04366108e-01  4.12841367e+01  1.08248703e-03  3.85831181e+01  1.28472339e-02  -1.43984678e+02 1.59707617e-03  3.83773958e+01 
                       1.08248699e-03  3.85831158e+01  9.96039897e-02  5.86744562e+01  7.73526075e-04  3.92576332e+01  1.79425226e-02  -6.47852363e+01
                       1.28472208e-02  -1.43984644e+02 7.73526148e-04  3.92576342e+01  1.05657139e-01  4.31371287e+01  1.24865382e-03  3.92347153e+01 
                       1.59707625e-03  3.83773964e+01  1.79425306e-02  -6.47852658e+01 1.24865383e-03  3.92347170e+01  9.99118522e-02  5.82908325e+01 
0.2300000000           1.06197923e-01  3.12218872e+01  1.11245625e-03  2.69906811e+01  6.81855851e-03  -6.63807272e-01 1.63771595e-03  2.70966976e+01 
                       1.11245619e-03  2.69906818e+01  1.02430920e-01  4.80020687e+01  7.95832955e-04  2.72430014e+01  1.52265468e-02  -1.47720380e+00
                       6.81856580e-03  -6.63840481e-01 7.95833039e-04  2.72430014e+01  1.07294525e-01  3.31719618e+01  1.28235250e-03  2.76882607e+01 
                       1.63771604e-03  2.70966973e+01  1.52265459e-02  -1.47720575e+00 1.28235251e-03  2.76882597e+01  1.02617981e-01  4.75279086e+01 
0.2400000000           1.05273698e-01  2.13262437e+01  1.13419407e-03  1.56283794e+01  2.56222782e-02  9.55184519e-01  1.66785935e-03  1.60713154e+01 
                       1.13419401e-03  1.56283781e+01  1.02755162e-01  3.74831646e+01  8.11093629e-04  1.54508865e+01  3.00178991e-02  2.43388125e+01 
                       2.56222871e-02  9.55169977e-01  8.11093711e-04  1.54508865e+01  1.06137337e-01  2.33757047e+01  1.30659853e-03  1.63803199e+01 
                       1.66785944e-03  1.60713154e+01  3.00178989e-02  2.43388094e+01  1.30659855e-03  1.63803211e+01  1.02798575e-01  3.69157079e+01 
0.2500000000           1.01518546e-01  1.16310091e+01  1.14857441e-03  4.57300425e+00  4.41128898e-02  -8.05884653e+00 1.68914410e-03  5.37112207e+00 
                       1.14857435e-03  4.57300404e+00  1.00436646e-01  2.70777074e+01  8.19805007e-04  3.96831234e+00  4.78008150e-02  2.59557097e+01 
                       4.41128944e-02  -8.05885447e+00 8.19805091e-04  3.96831259e+00  1.02115350e-01  1.37845246e+01  1.32243318e-03  5.38886971e+00 
                       1.68914419e-03  5.37112088e+00  4.78008204e-02  2.59557040e+01  1.32243321e-03  5.38886897e+00  1.00316614e-01  2.64106835e+01 
0.2600000000           9.49531882e-02  2.19408235e+00  1.15697514e-03  -6.10959803e+00 6.18291911e-02  -1.82233561e+01 1.70396540e-03  -4.94842619e+00
                       1.15697508e-03  -6.10959598e+00 9.54197076e-02  1.67507583e+01  8.22836806e-04  -7.12503473e+00 6.55239672e-02  2.19007224e+01 
                       6.18291929e-02  -1.82233617e+01 8.22836885e-04  -7.12503688e+00 9.52551888e-02  4.46041281e+00  1.33150747e-03  -5.21860234e+00
                       1.70396549e-03  -4.94842576e+00 6.55239766e-02  2.19007144e+01  1.33150749e-03  -5.21860189e+00 9.51209138e-02  1.59729622e+01 
0.2700000000           8.56900726e-02  -6.88309121e+00 1.16123009e-03  -1.63662059e+01 7.84705998e-02  -2.87732559e+01 1.71538358e-03  -1.48508378e+01
                       1.16123003e-03  -1.63662058e+01 8.77330507e-02  6.46386789e+00  8.21409546e-04  -1.77555024e+01 8.24288053e-02  1.58337060e+01 
                       7.84706009e-02  -2.87732609e+01 8.21409622e-04  -1.77555033e+01 8.56769702e-02  -4.48736197e+00 1.33603851e-03  -1.53877462e+01
                       1.71538366e-03  -1.48508382e+01 8.24288124e-02  1.58336962e+01  1.33603853e-03  -1.53877459e+01 8.72462901e-02  5.55616333e+00 
0.2800000000           7.39298321e-02  -1.54075489e+01 1.16360054e-03  -2.61607852e+01 9.37528907e-02  -3.95218539e+01 1.72698288e-03  -2.43256099e+01
                       1.16360050e-03  -2.61607846e+01 7.74877273e-02  -3.83829183e+00 8.17108346e-04  -2.78573444e+01 9.80781258e-02  8.83199486e+00 
                       9.37528863e-02  -3.95218574e+01 8.17108417e-04  -2.78573447e+01 7.35908839e-02  -1.28482293e+01 1.33876677e-03  -2.50831762e+01
                       1.72698296e-03  -2.43256116e+01 9.80781331e-02  8.83198285e+00  1.33876677e-03  -2.50831782e+01 7.68107397e-02  -4.90893066e+00
0.2900000000           5.99638736e-02  -2.29586222e+01 1.16671763e-03  -3.54823091e+01 1.07402229e-01  -5.04021298e+01 1.74269072e-03  -3.33961011e+01
                       1.16671758e-03  -3.54823083e+01 6.48711807e-02  -1.42564095e+01 8.11906557e-04  -3.73801552e+01 1.12116261e-01  1.32136029e+00 
                       1.07402225e-01  -5.04021335e+01 8.11906626e-04  -3.73801561e+01 5.93038273e-02  -2.01585174e+01 1.34289378e-03  -3.42980415e+01
                       1.74269079e-03  -3.33961015e+01 1.12116265e-01  1.32134868e+00  1.34289379e-03  -3.42980415e+01 6.40121062e-02  -1.55533190e+01
0.3000000000           4.42144071e-02  -2.84246614e+01 1.17350001e-03  -4.43559140e+01 1.19159188e-01  -6.13824085e+01 1.76646677e-03  -4.21266111e+01
                       1.17349996e-03  -4.43559136e+01 5.01426696e-02  -2.50235340e+01 8.08174860e-04  -4.63037789e+01 1.24226832e-01  -6.49115950e+00
                       1.19159183e-01  -6.13824118e+01 8.08174929e-04  -4.63037804e+01 4.32676637e-02  -2.51665376e+01 1.35191152e-03  -4.30660362e+01
                       1.76646685e-03  -4.21266114e+01 1.24226832e-01  -6.49117081e+00 1.35191152e-03  -4.30660363e+01 4.91226000e-02  -2.66856953e+01
0.3100000000           2.74827607e-02  -2.77731303e+01 1.18694548e-03  -5.28541576e+01 1.28787039e-01  -7.24424161e+01 1.80191338e-03  -5.06240552e+01
                       1.18694544e-03  -5.28541573e+01 3.36342425e-02  -3.68688211e+01 8.08604739e-04  -5.46605675e+01 1.34131625e-01  -1.44854918e+01
                       1.28787032e-01  -7.24424189e+01 8.08604808e-04  -5.46605682e+01 2.63912005e-02  -2.31881335e+01 1.36933608e-03  -5.14721558e+01
                       1.80191346e-03  -5.06240556e+01 1.34131620e-01  -1.44855031e+01 1.36933607e-03  -5.14721559e+01 3.25007842e-02  -3.93018182e+01
0.3200000000           1.33944853e-02  2.13272941e+00  1.20982021e-03  -6.11023983e+01 1.36082944e-01  -8.35650346e+01 1.85180338e-03  -5.90304549e+01
