# GHz S MA R 50
! S-Parameters data
! Freq  magS11  angS11  magS12  angS12  magS13  angS13  magS14  angS14
!       magS21  angS21  magS22  angS22  magS23  angS23  magS24  angS24
!       magS31  angS31  magS32  angS32  magS33  angS33  magS34  angS34
!       magS41  angS41  magS42  angS42  magS43  angS43  magS44  angS44
!     
0.0000000000           8.11096833e-03  3.67618368e+01  7.37451218e-08  8.15399129e+01  1.65117043e-03  2.90377415e+01  9.57300358e-08  8.05927221e+01 
                       7.37460263e-08  8.15397792e+01  8.05035837e-03  3.75223308e+01  6.52306127e-08  8.21111852e+01  1.67151140e-03  2.97763983e+01 
                       1.65109192e-03  2.90346503e+01  6.52332916e-08  8.21112009e+01  8.35408678e-03  3.53568739e+01  9.23890497e-08  8.10466703e+01 
                       9.57313581e-08  8.05929358e+01  1.67148346e-03  2.97768196e+01  9.23844418e-08  8.10464214e+01  8.28983534e-03  3.60855162e+01 
0.0100000000           1.65115426e-02  4.17145641e+01  4.12740013e-07  9.23275266e+01  2.21423993e-02  7.67971143e+01  5.97968336e-07  8.47041500e+01 
                       4.12740012e-07  9.23275267e+01  1.64503188e-02  4.23142012e+01  3.70274603e-07  9.55895425e+01  2.20759744e-02  7.68499036e+01 
                       2.21423993e-02  7.67971143e+01  3.70274604e-07  9.55895426e+01  1.65030461e-02  4.18644990e+01  5.80681146e-07  8.66339933e+01 
                       5.97968335e-07  8.47041501e+01  2.20759739e-02  7.68499035e+01  5.80681146e-07  8.66339936e+01  1.64550864e-02  4.24521201e+01 
0.0200000000           2.53862437e-02  3.46192512e+01  9.09554511e-07  1.00178076e+02  4.31736646e-02  6.83762671e+01  1.19401595e-06  8.71312390e+01 
                       9.09550604e-07  1.00178419e+02  2.54140024e-02  3.52290363e+01  8.71200007e-07  1.07352559e+02  4.30587169e-02  6.84778696e+01 
                       4.31733738e-02  6.83769317e+01  8.71200723e-07  1.07352538e+02  2.54054042e-02  3.47670574e+01  1.18713301e-06  9.12577569e+01 
                       1.19401062e-06  8.71309912e+01  4.30586973e-02  6.84778593e+01  1.18712709e-06  9.12578214e+01  2.54583476e-02  3.53174742e+01 
0.0300000000           3.15692414e-02  2.54747183e+01  1.55694481e-06  1.03020317e+02  6.28818115e-02  5.94199212e+01  1.83448511e-06  8.81605124e+01 
                       1.55694459e-06  1.03020350e+02  3.16756109e-02  2.61048910e+01  1.59094969e-06  1.10692976e+02  6.27366306e-02  5.95743714e+01 
                       6.28817643e-02  5.94200025e+01  1.59094963e-06  1.10692969e+02  3.15880100e-02  2.56537327e+01  1.88593979e-06  9.34508229e+01 
                       1.83448403e-06  8.81605158e+01  6.27366260e-02  5.95743712e+01  1.88593931e-06  9.34508458e+01  3.17654768e-02  2.61404311e+01 
0.0400000000           3.58215385e-02  1.57711343e+01  2.36779939e-06  1.02176039e+02  8.10323281e-02  5.04308932e+01  2.54803035e-06  8.79530736e+01 
                       2.36779929e-06  1.02176010e+02  3.60246784e-02  1.64318220e+01  2.52491993e-06  1.09060095e+02  8.08880883e-02  5.06303005e+01 
                       8.10324065e-02  5.04307845e+01  2.52492032e-06  1.09060102e+02  3.58501344e-02  1.59811972e+01  2.70739966e-06  9.35017764e+01 
                       2.54803150e-06  8.79530533e+01  8.08880933e-02  5.06302973e+01  2.70739959e-06  9.35017484e+01  3.61625582e-02  1.64066178e+01 
0.0500000000           3.83190601e-02  5.56349806e+00  3.31442716e-06  9.88577633e+01  9.73810220e-02  4.14663862e+01  3.33638157e-06  8.65141451e+01 
                       3.31442689e-06  9.88577552e+01  3.86214644e-02  6.24304045e+00  3.62732596e-06  1.04665708e+02  9.72723981e-02  4.17051690e+01 
                       9.73810823e-02  4.14663282e+01  3.62732650e-06  1.04665709e+02  3.83532747e-02  5.80093417e+00  3.64295449e-06  9.17201400e+01 
                       3.33638199e-06  8.65141332e+01  9.72724026e-02  4.17051619e+01  3.64295406e-06  9.17201291e+01  3.88061644e-02  6.14449163e+00 
0.0600000000           3.91123379e-02  -5.23090650e+00 4.35077002e-06  9.39757918e+01  1.11688405e-01  3.25352766e+01  4.18322172e-06  8.40218982e+01 
                       4.35076985e-06  9.39758051e+01  3.95045116e-02  -4.54132683e+00 4.83667945e-06  9.87263948e+01  1.11652509e-01  3.28069617e+01 
                       1.11688320e-01  3.25353381e+01  4.83667904e-06  9.87263877e+01  3.91443140e-02  -4.96359998e+00 4.66139694e-06  8.85581908e+01 
                       4.18322114e-06  8.40219108e+01  1.11652505e-01  3.28069533e+01  4.66139746e-06  8.85581999e+01  3.97323025e-02  -4.72721778e+00
0.0700000000           3.82597914e-02  -1.68124589e+01 5.42197656e-06  8.81222685e+01  1.23735904e-01  2.36399559e+01  5.06094029e-06  8.07123317e+01 
                       5.42197584e-06  8.81222934e+01  3.87237918e-02  -1.61192600e+01 6.08389207e-06  9.19029508e+01  1.23809243e-01  2.39364634e+01 
                       1.23735585e-01  2.36401212e+01  6.08388965e-06  9.19029341e+01  3.82796942e-02  -1.65109325e+01 5.71928523e-06  8.44281642e+01 
                       5.06093911e-06  8.07123582e+01  1.23809230e-01  2.39364556e+01  5.71928762e-06  8.44281812e+01  3.89901485e-02  -1.64082602e+01
0.0800000000           3.58764382e-02  -2.95692750e+01 6.46884379e-06  8.16833561e+01  1.33337912e-01  1.47822341e+01  5.93526821e-06  7.68215828e+01 
                       6.46884126e-06  8.16833834e+01  3.63872695e-02  -2.88758974e+01 7.29610417e-06  8.45802872e+01  1.33553005e-01  1.50937895e+01 
                       1.33337330e-01  1.47824599e+01  7.29610000e-06  8.45802769e+01  3.58721330e-02  -2.92300320e+01 6.76698699e-06  7.96629468e+01 
                       5.93526576e-06  7.68216095e+01  1.33552987e-01  1.50937838e+01  6.76699090e-06  7.96629595e+01  3.66900261e-02  -2.92870449e+01
0.0900000000           3.21832705e-02  -4.42351024e+01 7.43096808e-06  7.49301124e+01  1.40347636e-01  5.96453244e+00  6.76903847e-06  7.25709229e+01 
                       7.43096247e-06  7.49301323e+01  3.27112383e-02  -4.35388686e+01 8.39977147e-06  7.70089075e+01  1.40729747e-01  6.27961889e+00 
                       1.40346816e-01  5.96477800e+00  8.39976478e-06  7.70088944e+01  3.21392058e-02  -4.38594993e+01 7.75289643e-06  7.45308053e+01 
                       6.76903352e-06  7.25709394e+01  1.40729731e-01  6.27961500e+00  7.75290214e-06  7.45308125e+01  3.30539787e-02  -4.40926007e+01
0.1000000000           2.76078202e-02  -6.22202062e+01 8.24978093e-06  6.80773191e+01  1.44658630e-01  -2.80864282e+00 7.52584435e-06  6.81697181e+01 
                       8.24977109e-06  6.80773193e+01  2.81225502e-02  -6.15053898e+01 9.32375894e-06  6.93784788e+01  1.45222766e-01  -2.50341241e+00
                       1.44657644e-01  -2.80840560e+00 9.32375201e-06  6.93784808e+01  2.75053543e-02  -6.18302102e+01 8.62720498e-06  6.92613316e+01 
                       7.52583504e-06  6.81697175e+01  1.45222765e-01  -2.50341433e+00 8.62721167e-06  6.92613300e+01  2.85197740e-02  -6.22075013e+01
0.1100000000           2.30157886e-02  -8.59154206e+01 8.87824309e-06  6.13389001e+01  1.46199787e-01  -1.15280494e+01 8.17276527e-06  6.38823122e+01 
                       8.87823295e-06  6.13388997e+01  2.34999989e-02  -8.51409381e+01 1.00104938e-05  6.18794895e+01  1.46948916e-01  -1.12476642e+01
                       1.46198922e-01  -1.15278299e+01 1.00104869e-05  6.18794916e+01  2.28407445e-02  -8.56169602e+01 9.35599524e-06  6.40978424e+01 
                       8.17275735e-06  6.38823090e+01  1.46948916e-01  -1.12476629e+01 9.35600217e-06  6.40978416e+01  2.39821721e-02  -8.59143115e+01
0.1200000000           2.01693367e-02  -1.18338621e+02 9.26527279e-06  5.49170644e+01  1.44972436e-01  -2.01797452e+01 8.68811269e-06  5.98358127e+01 
                       9.26526254e-06  5.49170623e+01  2.06142401e-02  -1.17450286e+02 1.03978876e-05  5.46819098e+01  1.45894316e-01  -1.99422964e+01
                       1.44971669e-01  -2.01795439e+01 1.03978808e-05  5.46819113e+01  1.99458323e-02  -1.18376946e+02 9.89553346e-06  5.92250336e+01 
                       8.68810615e-06  5.98358078e+01  1.45894318e-01  -1.99422932e+01 9.89554130e-06  5.92250348e+01  2.12024560e-02  -1.17965631e+02
0.1300000000           2.14580184e-02  -1.55712971e+02 9.38268126e-06  4.90923859e+01  1.41014767e-01  -2.87438715e+01 9.06364998e-06  5.62704647e+01 
                       9.38267128e-06  4.90923816e+01  2.19006312e-02  -1.54780663e+02 1.04469615e-05  4.80440183e+01  1.42080988e-01  -2.85705154e+01
                       1.41014077e-01  -2.87436875e+01 1.04469543e-05  4.80440169e+01  2.12797884e-02  -1.56194454e+02 1.02287828e-05  5.48987709e+01 
                       9.06364465e-06  5.62704578e+01  1.42080988e-01  -2.85705101e+01 1.02287904e-05  5.48987733e+01  2.25404242e-02  -1.54705416e+02
0.1400000000           2.73299179e-02  1.72813912e+02  9.22568067e-06  4.42500536e+01  1.34421412e-01  -3.71896177e+01 9.31109119e-06  5.34325380e+01 
                       9.22567062e-06  4.42500449e+01  2.78642109e-02  1.73644353e+02  1.01428482e-05  4.23459584e+01  1.35587298e-01  -3.71055109e+01
                       1.34420806e-01  -3.71894472e+01 1.01428414e-05  4.23459546e+01  2.72698504e-02  1.72205326e+02  1.03625077e-05  5.14146849e+01 
                       9.31108700e-06  5.34325290e+01  1.35587312e-01  -3.71055029e+01 1.03625151e-05  5.14146890e+01  2.84841835e-02  1.74022224e+02 
0.1500000000           3.60981464e-02  1.49737119e+02  8.82434147e-06  4.09425145e+01  1.25345361e-01  -4.54700031e+01 9.46681651e-06  5.15514052e+01 
                       8.82433172e-06  4.09425029e+01  3.68175436e-02  1.50437615e+02  9.50713896e-06  3.81910011e+01  1.26550859e-01  -4.55058950e+01
                       1.25344809e-01  -4.54698443e+01 9.50713238e-06  3.81909960e+01  3.61588307e-02  1.49192522e+02  1.03352000e-05  4.91058759e+01 
                       9.46681333e-06  5.15513953e+01  1.26550870e-01  -4.55058846e+01 1.03352072e-05  4.91058799e+01  3.74106654e-02  1.50798587e+02 
0.1600000000           4.62414763e-02  1.32008987e+02  8.26094567e-06  3.99444200e+01  1.13998178e-01  -5.35128525e+01 9.59378579e-06  5.07823853e+01 
                       8.26093590e-06  3.99444065e+01  4.72094127e-02  1.32597179e+02  8.61997842e-06  3.65667841e+01  1.15169467e-01  -5.37079622e+01
                       1.13997680e-01  -5.35127060e+01 8.61997208e-06  3.65667749e+01  4.64071109e-02  1.31551412e+02  1.02247020e-05  4.82976748e+01 
                       9.59378241e-06  5.07823721e+01  1.15169479e-01  -5.37079526e+01 1.02247104e-05  4.82976807e+01  4.77883445e-02  1.32844472e+02 
0.1700000000           5.68193758e-02  1.17230178e+02  7.69430415e-06  4.21676311e+01  1.00647701e-01  -6.12019908e+01 9.77698677e-06  5.11135371e+01 
                       7.69429386e-06  4.21676194e+01  5.80742861e-02  1.17720128e+02  7.66184251e-06  3.89885150e+01  1.01699033e-01  -6.16092105e+01
                       1.00647256e-01  -6.12018523e+01 7.66183552e-06  3.89885067e+01  5.70748668e-02  1.16843815e+02  1.01507569e-05  4.91799723e+01 
                       9.77698358e-06  5.11135238e+01  1.01699048e-01  -6.16092020e+01 1.01507656e-05  4.91799758e+01  5.86436339e-02  1.17842533e+02 
0.1800000000           6.71824680e-02  1.04116737e+02  7.37504519e-06  4.80597816e+01  8.56142457e-02  -6.83338482e+01 1.01086371e-05  5.22756517e+01 
                       7.37503427e-06  4.80597782e+01  6.87432314e-02  1.04514750e+02  6.97417834e-06  4.69795542e+01  8.64489102e-02  -6.90298325e+01
                       8.56138536e-02  -6.83337140e+01 6.97417045e-06  4.69795563e+01  6.75140927e-02  1.03784681e+02  1.02627424e-05  5.15870631e+01 
                       1.01086330e-05  5.22756407e+01  8.64489351e-02  -6.90298272e+01 1.02627514e-05  5.15870634e+01  6.92971189e-02  1.04520433e+02 
0.1900000000           7.68075844e-02  9.19979036e+01  7.59075297e-06  5.63258777e+01  6.92733025e-02  -7.45052030e+01 1.06641219e-05  5.37466819e+01 
                       7.59074142e-06  5.63258907e+01  7.86752956e-02  9.23050033e+01  7.03286350e-06  5.93960606e+01  6.97814094e-02  -7.56110899e+01
                       6.92729527e-02  -7.45050619e+01 7.03285535e-06  5.93960812e+01  7.72017145e-02  9.17077724e+01  1.07027028e-05  5.48270673e+01 
                       1.06641172e-05  5.37466747e+01  6.97814342e-02  -7.56110879e+01 1.07027130e-05  5.48270624e+01  7.92000036e-02  9.22040554e+01 
0.2000000000           8.52401693e-02  8.05081953e+01  8.50103565e-06  6.38254168e+01  5.20895224e-02  -7.87718137e+01 1.14790395e-05  5.49112358e+01 
                       8.50102383e-06  6.38254446e+01  8.73985360e-02  8.07221062e+01  8.12428480e-06  7.06418115e+01  5.21360255e-02  -8.04972779e+01
                       5.20892108e-02  -7.87716427e+01 8.12427804e-06  7.06418449e+01  8.56817290e-02  8.02515095e+01  1.15534562e-05  5.78457253e+01 
                       1.14790354e-05  5.49112314e+01  5.21360431e-02  -8.04972783e+01 1.15534656e-05  5.78457156e+01  8.78743462e-02  8.05224553e+01 
0.2100000000           9.20793483e-02  6.94380823e+01  1.00361793e-05  6.81271662e+01  3.47993969e-02  -7.83210196e+01 1.25413087e-05  5.52849675e+01 
                       1.00361687e-05  6.81271994e+01  9.44949038e-02  6.95543462e+01  1.00886437e-05  7.65409961e+01  3.41797080e-02  -8.10237370e+01
                       3.47991339e-02  -7.83207486e+01 1.00886376e-05  7.65410313e+01  9.25520239e-02  6.92094630e+01  1.28090946e-05  5.97220639e+01 
                       1.25413054e-05  5.52849674e+01  3.41797223e-02  -8.10237462e+01 1.28091051e-05  5.97220507e+01  9.48988713e-02  6.92613447e+01 
0.2200000000           9.69809978e-02  5.86619612e+01  1.19976687e-05  6.89327686e+01  1.96012427e-02  -6.17067784e+01 1.38011492e-05  5.46371181e+01 
                       1.19976582e-05  6.89328020e+01  9.96039897e-02  5.86744562e+01  1.25822194e-05  7.74172104e+01  1.79425226e-02  -6.47852363e+01
                       1.96010811e-02  -6.17061260e+01 1.25822136e-05  7.74172422e+01  9.74673128e-02  5.84582975e+01  1.43906062e-05  6.00274747e+01 
                       1.38011458e-05  5.46371204e+01  1.79425306e-02  -6.47852658e+01 1.43906157e-05  6.00274592e+01  9.99118522e-02  5.82908325e+01 
0.2300000000           9.96646556e-02  4.81010449e+01  1.41835759e-05  6.70215906e+01  1.66770160e-02  -7.23957334e+00 1.51888475e-05  5.29629439e+01 
                       1.41835665e-05  6.70216206e+01  1.02430920e-01  4.80020687e+01  1.53194494e-05  7.49427044e+01  1.52265468e-02  -1.47720380e+00
                       1.66771217e-02  -7.23878559e+00 1.53194453e-05  7.49427298e+01  1.00145512e-01  4.79210636e+01  1.61840738e-05  5.87835294e+01 
                       1.51888447e-05  5.29629471e+01  1.52265459e-02  -1.47720575e+00 1.61840835e-05  5.87835142e+01  1.02617981e-01  4.75279086e+01 
0.2400000000           9.99213882e-02  3.77032457e+01  1.64282532e-05  6.32416783e+01  2.98615838e-02  1.97699906e+01  1.66293946e-05  5.03880441e+01 
                       1.64282437e-05  6.32417043e+01  1.02755162e-01  3.74831646e+01  1.80937686e-05  7.04087562e+01  3.00178991e-02  2.43388125e+01 
                       2.98617731e-02  1.97702084e+01  1.80937650e-05  7.04087771e+01  1.00377127e-01  3.75474311e+01  1.80702421e-05  5.62367045e+01 
                       1.66293928e-05  5.03880483e+01  3.00178989e-02  2.43388094e+01  1.80702518e-05  5.62366899e+01  1.02798575e-01  3.69157079e+01 
0.2500000000           9.76190869e-02  2.74314270e+01  1.85983310e-05  5.82240155e+01  4.66941227e-02  2.30711284e+01  1.80505318e-05  4.70847262e+01 
                       1.85983224e-05  5.82240368e+01  1.00436646e-01  2.70777074e+01  2.07463353e-05  6.46110923e+01  4.78008150e-02  2.59557097e+01 
                       4.66943087e-02  2.30712054e+01  2.07463310e-05  6.46111103e+01  9.80297941e-02  2.73022183e+01  1.99379640e-05  5.26838667e+01 
                       1.80505303e-05  4.70847300e+01  4.78008204e-02  2.59557040e+01  1.99379728e-05  5.26838538e+01  1.00316614e-01  2.64106835e+01 
0.2600000000           9.27058380e-02  1.72554659e+01  2.05824580e-05  5.23965077e+01  6.37087148e-02  1.99579562e+01  1.93855762e-05  4.32258374e+01 
                       2.05824503e-05  5.23965249e+01  9.54197076e-02  1.67507583e+01  2.31447708e-05  5.80293939e+01  6.55239672e-02  2.19007224e+01 
                       6.37088836e-02  1.99579868e+01  2.31447673e-05  5.80294071e+01  9.30518623e-02  1.71578780e+01  2.16873964e-05  4.83950715e+01 
                       1.93855751e-05  4.32258404e+01  6.55239766e-02  2.19007144e+01  2.16874051e-05  4.83950604e+01  9.51209138e-02  1.59729622e+01 
0.2700000000           8.52096690e-02  7.14553392e+00  2.22840944e-05  4.60496220e+01  8.00302945e-02  1.45067217e+01  2.05735890e-05  3.89684763e+01 
                       2.22840875e-05  4.60496357e+01  8.77330507e-02  6.46386789e+00  2.51730769e-05  5.09658317e+01  8.24288053e-02  1.58337060e+01 
                       8.00304403e-02  1.45067313e+01  2.51730741e-05  5.09658423e+01  8.54724184e-02  7.08841902e+00  2.32293986e-05  4.35962318e+01 
                       2.05735881e-05  3.89684788e+01  8.24288124e-02  1.58336962e+01  2.32294065e-05  4.35962222e+01  8.72462901e-02  5.55616333e+00 
0.2800000000           7.52366910e-02  -2.93724027e+00 2.36178474e-05  3.93918690e+01  9.52044876e-02  7.96518188e+00  2.15589379e-05  3.44548545e+01 
                       2.36178413e-05  3.93918791e+01  7.74877273e-02  -3.83829183e+00 2.67278876e-05  4.36276855e+01  9.80781258e-02  8.83199486e+00 
                       9.52046117e-02  7.96517769e+00  2.67278847e-05  4.36276927e+01  7.53983727e-02  -2.93785774e+00 2.44846098e-05  3.84771502e+01 
                       2.15589381e-05  3.44548563e+01  9.80781331e-02  8.83198285e+00  2.44846166e-05  3.84771424e+01  7.68107397e-02  -4.90893066e+00
0.2900000000           6.29651970e-02  -1.30590614e+01 2.45084139e-05  3.25898210e+01  1.08885729e-01  8.31181968e-01  2.22916468e-05  2.98216453e+01 
                       2.45084098e-05  3.25898284e+01  6.48711807e-02  -1.42564095e+01 2.77183884e-05  3.61772110e+01  1.12116261e-01  1.32136029e+00 
                       1.08885832e-01  8.31170750e-01  2.77183853e-05  3.61772163e+01  6.30106422e-02  -1.29740478e+01 2.53839029e-05  3.32083671e+01 
                       2.22916471e-05  2.98216470e+01  1.12116265e-01  1.32134868e+00  2.53839087e-05  3.32083609e+01  6.40121062e-02  -1.55533190e+01
0.3000000000           4.86404150e-02  -2.33690844e+01 2.48921516e-05  2.57993672e+01  1.20775504e-01  -6.65446381e+00 2.27295004e-05  2.52134181e+01 
                       2.48921485e-05  2.57993719e+01  5.01426696e-02  -2.50235340e+01 2.80687904e-05  2.87660633e+01  1.24226832e-01  -6.49115950e+00
                       1.20775586e-01  -6.65448048e+00 2.80687882e-05  2.87660663e+01  4.85557649e-02  -2.31368549e+01 2.58707949e-05  2.79601855e+01 
                       2.27295008e-05  2.52134189e+01  1.24226832e-01  -6.49117081e+00 2.58708007e-05  2.79601816e+01  4.91226000e-02  -2.66856953e+01
0.3100000000           3.25688332e-02  -3.43304641e+01 2.47210128e-05  1.91944934e+01  1.30613446e-01  -1.43548592e+01 2.28427872e-05  2.07984903e+01 
                       2.47210107e-05  1.91944954e+01  3.36342425e-02  -3.68688211e+01 2.77233679e-05  2.15661456e+01  1.34131625e-01  -1.44854918e+01
                       1.30613509e-01  -1.43548804e+01 2.77233663e-05  2.15661455e+01  3.23404588e-02  -3.37911230e+01 2.59069407e-05  2.29239681e+01 
                       2.28427873e-05  2.07984905e+01  1.34131620e-01  -1.44855031e+01 2.59069443e-05  2.29239655e+01  3.25007842e-02  -3.93018182e+01
0.3200000000           1.51481182e-02  -4.86319605e+01 2.39698195e-05  1.30013197e+01  1.38183925e-01  -2.21798409e+01 2.26222533e-05  1.67859844e+01 
