# GHz S MA R 50
! S-Parameters data
! Freq  magS11  angS11  magS12  angS12  magS13  angS13  magS14  angS14
!       magS21  angS21  magS22  angS22  magS23  angS23  magS24  angS24
!       magS31  angS31  magS32  angS32  magS33  angS33  magS34  angS34
!       magS41  angS41  magS42  angS42  magS43  angS43  magS44  angS44
!     
0.0000000000           1.26293418e-02  -3.62593320e+00 1.05421190e-07  -1.00504287e+02 1.36798077e-03  3.68299319e+01  8.39937474e-08  -1.00547546e+02
                       1.05425476e-07  -1.00504385e+02 1.26335831e-02  -3.50002205e+00 1.21690261e-07  -1.00602392e+02 1.37810493e-03  3.71316099e+01 
                       1.37253995e-03  3.66782516e+01  1.21706485e-07  -1.00602403e+02 1.26464892e-02  -3.58050681e+00 1.09744800e-07  -1.00509298e+02
                       8.40073814e-08  -1.00547734e+02 1.38261720e-03  3.69786375e+01  1.09738799e-07  -1.00508781e+02 1.26483755e-02  -3.54569310e+00
0.0100000000           2.07920462e-02  4.01473228e+01  7.26233194e-07  7.95397261e+01  2.04366275e-02  7.66476029e+01  5.72004324e-07  7.90241833e+01 
                       7.26230929e-07  7.95397516e+01  2.08160963e-02  4.01720137e+01  9.45610821e-07  8.00221793e+01  2.04466574e-02  7.66347809e+01 
                       2.04362438e-02  7.66314960e+01  9.45602442e-07  8.00223025e+01  2.08076257e-02  4.01168854e+01  7.12052456e-07  7.95377751e+01 
                       5.71995958e-07  7.90243786e+01  2.04462746e-02  7.66186815e+01  7.12050587e-07  7.95378301e+01  2.08093238e-02  4.01094010e+01 
0.0200000000           3.42263007e-02  4.47072121e+01  1.36216857e-06  7.81943661e+01  4.00615893e-02  6.81507224e+01  1.06875572e-06  7.72630169e+01 
                       1.36217529e-06  7.81945877e+01  3.42923771e-02  4.47066514e+01  1.78120086e-06  7.91856878e+01  4.00787463e-02  6.81333996e+01 
                       4.00605536e-02  6.81428953e+01  1.78115122e-06  7.91858149e+01  3.42622946e-02  4.46770373e+01  1.33502289e-06  7.82037669e+01 
                       1.06872874e-06  7.72634926e+01  4.00775767e-02  6.81256251e+01  1.33502522e-06  7.82033310e+01  3.42643988e-02  4.46628022e+01 
0.0300000000           4.72235043e-02  3.99661318e+01  1.90838615e-06  7.69030920e+01  5.84548770e-02  5.88696465e+01  1.48714731e-06  7.56253778e+01 
                       1.90838530e-06  7.69031235e+01  4.72920007e-02  3.99549178e+01  2.51562280e-06  7.82991843e+01  5.84786161e-02  5.88505756e+01 
                       5.84531917e-02  5.88647639e+01  2.51559995e-06  7.82996909e+01  4.72457178e-02  3.99426235e+01  1.86935033e-06  7.69323285e+01 
                       1.48712878e-06  7.56260378e+01  5.84769205e-02  5.88457055e+01  1.86934600e-06  7.69323434e+01  4.72492705e-02  3.99214645e+01 
0.0400000000           5.85740215e-02  3.27004646e+01  2.37004405e-06  7.65066788e+01  7.52623208e-02  4.95536970e+01  1.83033333e-06  7.50205233e+01 
                       2.37003660e-06  7.65071679e+01  5.86567023e-02  3.26815209e+01  3.15790050e-06  7.81436385e+01  7.52900507e-02  4.95312089e+01 
                       7.52602453e-02  4.95503410e+01  3.15789563e-06  7.81434652e+01  5.85998017e-02  3.26812927e+01  2.31980076e-06  7.65734248e+01 
                       1.83032630e-06  7.50208528e+01  7.52879905e-02  4.95278329e+01  2.31979987e-06  7.65737446e+01  5.86044899e-02  3.26531431e+01 
0.0500000000           6.80450171e-02  2.47053467e+01  2.76198348e-06  7.72439236e+01  9.02441930e-02  4.03301860e+01  2.11077776e-06  7.57365025e+01 
                       2.76199236e-06  7.72448105e+01  6.81388070e-02  2.46745320e+01  3.72720937e-06  7.88994128e+01  9.02736540e-02  4.03040424e+01 
                       9.02419165e-02  4.03277388e+01  3.72718794e-06  7.88988507e+01  6.80761404e-02  2.46839806e+01  2.70133583e-06  7.73729638e+01 
                       2.11077394e-06  7.57366918e+01  9.02713865e-02  4.03015730e+01  2.70134098e-06  7.73733909e+01  6.80820216e-02  2.46487356e+01 
0.0600000000           7.56877172e-02  1.65660056e+01  3.11094698e-06  7.91859699e+01  1.03231965e-01  3.12172444e+01  2.35217450e-06  7.78873627e+01 
                       3.11098585e-06  7.91868613e+01  7.57869861e-02  1.65235670e+01  4.25423474e-06  8.05819433e+01  1.03261203e-01  3.11874448e+01 
                       1.03229601e-01  3.12153932e+01  4.25418882e-06  8.05815105e+01  7.57233525e-02  1.65417989e+01  3.04087740e-06  7.94032223e+01 
                       2.35217518e-06  7.78878013e+01  1.03258836e-01  3.11855779e+01  3.04088747e-06  7.94036516e+01  7.57304900e-02  1.64991285e+01 
0.0700000000           8.16505837e-02  8.48195117e+00  3.45301491e-06  8.22429966e+01  1.14096015e-01  2.22038688e+01  2.58716441e-06  8.13898406e+01 
                       3.45307921e-06  8.22435591e+01  8.17504421e-02  8.42835769e+00  4.77797753e-06  8.30827963e+01  1.14123156e-01  2.21703723e+01 
                       1.14093653e-01  2.22024317e+01  4.77792427e-06  8.30827782e+01  8.16908669e-02  8.45508476e+00  3.37474316e-06  8.25698963e+01 
                       2.58718193e-06  8.13906889e+01  1.14120782e-01  2.21689262e+01  3.37475571e-06  8.25702686e+01  8.16991459e-02  8.40459454e+00 
0.0800000000           8.60951878e-02  5.03529738e-01  3.82946239e-06  8.61515745e+01  1.22730214e-01  1.32728363e+01  2.85307815e-06  8.59246239e+01 
                       3.82953386e-06  8.61517132e+01  8.61905359e-02  4.38623814e-01  5.34154190e-06  8.61844578e+01  1.22753340e-01  1.32355471e+01 
                       1.22727931e-01  1.32716951e+01  5.34150796e-06  8.61848338e+01  8.61403068e-02  4.73728157e-01  3.74443893e-06  8.65969688e+01 
                       2.85312279e-06  8.59256854e+01  1.22751040e-01  1.32344017e+01  3.74445082e-06  8.65972445e+01  8.61494176e-02  4.15057999e-01 
0.0900000000           8.91576164e-02  -7.38021385e+00 4.28162151e-06  9.04996796e+01  1.29047906e-01  4.40830757e+00  3.18636933e-06  9.09659912e+01 
                       4.28167727e-06  9.04995793e+01  8.92423336e-02  -7.45687514e+00 5.98773494e-06  8.95897282e+01  1.29065022e-01  4.36709481e+00 
                       1.29045721e-01  4.40738979e+00  5.98773749e-06  8.95902551e+01  8.92068127e-02  -7.41352906e+00 4.19133312e-06  9.10539110e+01 
                       3.18643120e-06  9.09668990e+01  1.29062823e-01  4.36617504e+00  4.19133967e-06  9.10540674e+01  8.92163354e-02  -7.48065371e+00
0.1000000000           9.09355889e-02  -1.52042799e+01 4.84582925e-06  9.48125486e+01  1.32983200e-01  -4.40195839e+00 3.61745050e-06  9.59150814e+01 
                       4.84585369e-06  9.48125821e+01  9.10023724e-02  -1.52930618e+01 6.75516615e-06  9.29731440e+01  1.32992246e-01  -4.44726049e+00
                       1.32981168e-01  -4.40271142e+00 6.75519402e-06  9.29735233e+01  9.09868635e-02  -1.52417162e+01 4.75144556e-06  9.54491289e+01 
                       3.61748396e-06  9.59156593e+01  1.32990212e-01  -4.44801699e+00 4.75144028e-06  9.54491662e+01  9.09963928e-02  -1.53174817e+01
0.1100000000           9.15408069e-02  -2.30133432e+01 5.55276862e-06  9.86586442e+01  1.34494971e-01  -1.31660220e+01 4.17021986e-06  1.00259199e+02 
                       5.55279417e-06  9.86586237e+01  9.15842440e-02  -2.31137513e+01 7.67968783e-06  9.60338302e+01  1.34494030e-01  -1.32156070e+01
                       1.34493076e-01  -1.31666476e+01 7.67972040e-06  9.60341145e+01  9.15942824e-02  -2.30545222e+01 5.45460572e-06  9.93422002e+01 
                       4.17025786e-06  1.00259598e+02  1.34492134e-01  -1.32162353e+01 5.45460113e-06  9.93422379e+01  9.16034919e-02  -2.31393501e+01
0.1200000000           9.09271354e-02  -3.08475827e+01 6.41866893e-06  1.01747578e+02  1.33565231e-01  -2.18872038e+01 4.85655681e-06  1.03689221e+02 
                       6.41869454e-06  1.01747522e+02  9.09413882e-02  -3.09592904e+01 8.78030243e-06  9.85489225e+01  1.33552384e-01  -2.19413144e+01
                       1.33563504e-01  -2.18877389e+01 8.78033730e-06  9.85491306e+01  9.09818374e-02  -3.08925391e+01 6.31644491e-06  1.02446607e+02 
                       4.85659723e-06  1.03689484e+02  1.33550657e-01  -2.19418527e+01 6.31644073e-06  1.02446643e+02  9.09902718e-02  -3.09866449e+01
0.1300000000           8.91010802e-02  -3.87449851e+01 7.45501420e-06  1.03925058e+02  1.30206701e-01  -3.05638520e+01 5.68510999e-06  1.06068212e+02 
                       7.45503911e-06  1.03924980e+02  8.90808158e-02  -3.88675149e+01 1.00729928e-05  1.00378872e+02  1.30180084e-01  -3.06227652e+01
                       1.30205129e-01  -3.05643147e+01 1.00730292e-05  1.00379015e+02  8.91561288e-02  -3.87936890e+01 7.34775343e-06  1.04616012e+02 
                       5.68515133e-06  1.06068375e+02  1.30178512e-01  -3.06232303e+01 7.34774963e-06  1.04616045e+02  8.91634439e-02  -3.88973006e+01
0.1400000000           8.60533490e-02  -4.67392201e+01 8.66603826e-06  1.05143596e+02  1.24463233e-01  -3.91867981e+01 6.65968450e-06  1.07374013e+02 
                       8.66606159e-06  1.05143511e+02  8.59938896e-02  -4.68719782e+01 1.15655563e-05  1.01454959e+02  1.24421072e-01  -3.92508278e+01
                       1.24461800e-01  -3.91871994e+01 1.15655929e-05  1.01455052e+02  8.61078769e-02  -4.67915550e+01 8.55226250e-06  1.05811801e+02 
                       6.65972574e-06  1.07374101e+02  1.24419639e-01  -3.92512311e+01 8.55225936e-06  1.05811829e+02  8.61138942e-02  -4.69049399e+01
0.1500000000           8.17690790e-02  -5.48589901e+01 1.00480148e-05  1.05423877e+02  1.16412648e-01  -4.77351943e+01 7.77808449e-06  1.07647034e+02 
                       1.00480371e-05  1.05423788e+02  8.16665756e-02  -5.50012978e+01 1.32564043e-05  1.01762186e+02  1.16353348e-01  -4.78046530e+01
                       1.16411360e-01  -4.77355507e+01 1.32564395e-05  1.01762243e+02  8.18222789e-02  -5.49147734e+01 9.92594246e-06  1.06061837e+02 
                       7.77812442e-06  1.07647075e+02  1.16352061e-01  -4.78050120e+01 9.92593904e-06  1.06061865e+02  8.18270214e-02  -5.50382739e+01
0.1600000000           7.62388525e-02  -6.31285878e+01 1.15874926e-05  1.04826880e+02  1.06171033e-01  -5.61686356e+01 9.02974409e-06  1.06961663e+02 
                       1.15875132e-05  1.04826797e+02  7.60904512e-02  -6.32796954e+01 1.51326460e-05  1.01324297e+02  1.06093253e-01  -5.62438294e+01
                       1.06169883e-01  -5.61689578e+01 1.51326781e-05  1.01324331e+02  7.62900012e-02  -6.31875795e+01 1.14552002e-05  1.05432051e+02 
                       9.02978200e-06  1.06961673e+02  1.06092103e-01  -5.62441537e+01 1.14551971e-05  1.05432075e+02  7.62937366e-02  -6.33216709e+01
0.1700000000           6.94691639e-02  -7.15697479e+01 1.32593007e-05  1.03438822e+02  9.38973504e-02  -6.44108365e+01 1.03933097e-05  1.05414993e+02 
                       1.32593198e-05  1.03438746e+02  6.92731667e-02  -7.17288624e+01 1.71680572e-05  1.00193901e+02  9.38001337e-02  -6.44919633e+01
                       9.38963385e-02  -6.44111414e+01 1.71680869e-05  1.00193917e+02  6.95175707e-02  -7.16315899e+01 1.31148564e-05  1.04011760e+02 
                       1.03933452e-05  1.05414985e+02  9.37991226e-02  -6.44922703e+01 1.31148541e-05  1.04011779e+02  6.95208512e-02  -7.17769812e+01
0.1800000000           6.14922228e-02  -8.02059021e+01 1.50254450e-05  1.01364189e+02  7.98000858e-02  -7.23124628e+01 1.18353410e-05  1.03123107e+02 
                       1.50254629e-05  1.01364120e+02  6.12482484e-02  -8.03722169e+01 1.93219821e-05  9.84465667e+01  7.96829628e-02  -7.23993819e+01
                       7.97991935e-02  -7.23127487e+01 1.93220070e-05  9.84465741e+01  6.15372823e-02  -8.02700870e+01 1.48670218e-05  1.01907398e+02 
                       1.18353731e-05  1.03123090e+02  7.96820712e-02  -7.23996698e+01 1.48670189e-05  1.01907418e+02  6.15409703e-02  -8.04279019e+01
0.1900000000           5.23742616e-02  -8.90722237e+01 1.68357436e-05  9.87226208e+01  6.41483864e-02  -7.95527131e+01 1.33109009e-05  1.00219182e+02 
                       1.68357604e-05  9.87225583e+01  5.20833494e-02  -8.92450906e+01 2.15400195e-05  9.61771470e+01  6.40115137e-02  -7.96440937e+01
                       6.41476053e-02  -7.95529826e+01 2.15400402e-05  9.61771495e+01  5.24154017e-02  -8.91379657e+01 1.66617402e-05  9.92398762e+01 
                       1.33109291e-05  1.00219162e+02  6.40107337e-02  -7.96443654e+01 1.66617378e-05  9.92398926e+01  5.24207048e-02  -8.93101142e+01
0.2000000000           4.22211697e-02  -9.82422796e+01 1.86307659e-05  9.56467148e+01  4.73018265e-02  -8.53178304e+01 1.47664320e-05  9.68512304e+01 
                       1.86307808e-05  9.56466599e+01  4.18859142e-02  -9.84217756e+01 2.37571598e-05  9.34966485e+01  4.71462369e-02  -8.54073937e+01
                       4.73011435e-02  -8.53180369e+01 2.37571751e-05  9.34966440e+01  4.22578875e-02  -9.83081409e+01 1.84399486e-05  9.61427311e+01 
                       1.47664552e-05  9.68512090e+01  4.71455545e-02  -8.54076016e+01 1.84399457e-05  9.61427469e+01  4.22663693e-02  -9.84982365e+01
0.2100000000           3.11817508e-02  -1.07915077e+02 2.03471472e-05  9.22797243e+01  2.98461133e-02  -8.68404882e+01 1.61448735e-05  9.31792426e+01 
                       2.03471610e-05  9.22796767e+01  3.08062759e-02  -1.08105072e+02 2.59034903e-05  9.05289033e+01  2.96752546e-02  -8.68925266e+01
                       2.98455265e-02  -8.68406440e+01 2.59035025e-05  9.05289015e+01  3.12135679e-02  -1.07977947e+02 2.01388098e-05  9.27600027e+01 
                       1.61448927e-05  9.31792287e+01  2.96746684e-02  -8.68926831e+01 2.01388064e-05  9.27600180e+01  3.12271898e-02  -1.08193849e+02
0.2200000000           1.94519560e-02  -1.18829008e+02 2.19248262e-05  8.87724623e+01  1.38195660e-02  -6.80169429e+01 1.73925154e-05  8.93716787e+01 
                       2.19248383e-05  8.87724199e+01  1.90421024e-02  -1.19059524e+02 2.79120258e-05  8.74065696e+01  1.36671658e-02  -6.76691334e+01
                       1.38191256e-02  -6.80161632e+01 2.79120333e-05  8.74065694e+01  1.94782982e-02  -1.18879404e+02 2.16989555e-05  8.92432164e+01 
                       1.73925302e-05  8.93716703e+01  1.36667273e-02  -6.76683283e+01 2.16989536e-05  8.92432313e+01  1.94996924e-02  -1.19142968e+02
0.2300000000           7.34283636e-03  -1.36833530e+02 2.33152242e-05  8.52791276e+01  1.42267367e-02  8.35541117e+00  1.84666484e-05  8.56010497e+01 
                       2.33152350e-05  8.52790891e+01  6.91262374e-03  -1.37675781e+02 2.97276016e-05  8.42661201e+01  1.43260759e-02  8.93470248e+00 
                       1.42268606e-02  8.35688633e+00  2.97276066e-05  8.42661213e+01  7.36165557e-03  -1.36802093e+02 2.30726619e-05  8.57472009e+01 
                       1.84666603e-05  8.56010475e+01  1.43262041e-02  8.93615670e+00  2.30726596e-05  8.57472173e+01  7.39693118e-03  -1.37213198e+02
0.2400000000           5.70566408e-03  6.74720514e+01  2.44889427e-05  8.19518154e+01  3.05019014e-02  2.58437945e+01  1.93426937e-05  8.20381846e+01 
                       2.44889517e-05  8.19517833e+01  6.12682518e-03  6.55502517e+01  3.13152665e-05  8.12418682e+01  3.06710177e-02  2.59489415e+01 
                       3.05021203e-02  2.58441706e+01  3.13152685e-05  8.12418726e+01  5.68632428e-03  6.73280659e+01  2.42315060e-05  8.24245111e+01 
                       1.93427024e-05  8.20381885e+01  3.06712380e-02  2.59493120e+01  2.42315036e-05  8.24245264e+01  5.66546080e-03  6.76720581e+01 
0.2500000000           1.80132101e-02  4.55500231e+01  2.54415575e-05  7.89331117e+01  4.81653316e-02  2.41239852e+01  2.00194953e-05  7.88441082e+01 
                       2.54415658e-05  7.89330808e+01  1.84713227e-02  4.50529376e+01  3.26665970e-05  7.84586806e+01  4.83486575e-02  2.41242597e+01 
                       4.81655149e-02  2.41241198e+01  3.26665962e-05  7.84586870e+01  1.80009038e-02  4.54204301e+01  2.51721008e-05  7.94178409e+01 
                       2.00195017e-05  7.88441184e+01  4.83488406e-02  2.41243912e+01  2.51720990e-05  7.94178577e+01  1.79575839e-02  4.53966937e+01 
0.2600000000           3.02522730e-02  3.41871452e+01  2.61962322e-05  7.63468198e+01  6.52770354e-02  1.83349597e+01  2.05215645e-05  7.61591058e+01 
                       2.61962381e-05  7.63467948e+01  3.07132846e-02  3.38239888e+01  3.38025835e-05  7.60237823e+01  6.54623726e-02  1.82943250e+01 
                       6.52771675e-02  1.83350073e+01  3.38025821e-05  7.60237911e+01  3.02458718e-02  3.40651023e+01  2.59186129e-05  7.68505088e+01 
                       2.05215699e-05  7.61591244e+01  6.54625051e-02  1.82943710e+01  2.59186125e-05  7.68505292e+01  3.01878555e-02  3.39751736e+01 
0.2700000000           4.20383407e-02  2.42336505e+01  2.68023699e-05  7.42868092e+01  8.12420681e-02  1.11336427e+01  2.08974936e-05  7.40885515e+01 
                       2.68023736e-05  7.42867869e+01  4.24903113e-02  2.39109332e+01  3.47723115e-05  7.40178864e+01  8.14226763e-02  1.10707812e+01 
                       8.12421476e-02  1.11336492e+01  3.47723101e-05  7.40178995e+01  4.20375623e-02  2.41136122e+01  2.65212805e-05  7.48149890e+01 
                       2.08974988e-05  7.40885777e+01  8.14227553e-02  1.10707862e+01  2.65212812e-05  7.48150113e+01  4.19652677e-02  2.39939780e+01 
0.2800000000           5.31408274e-02  1.47560889e+01  2.73304400e-05  7.28053909e+01  9.56829343e-02  3.31584524e+00  2.12145234e-05  7.26872672e+01 
                       2.73304420e-05  7.28053725e+01  5.35732705e-02  1.44506305e+01  3.56477480e-05  7.24869867e+01  9.58536102e-02  3.23827546e+00 
                       9.56829644e-02  3.31582891e+00  3.56477469e-05  7.24870000e+01  5.31454837e-02  1.46359070e+01  2.70510742e-05  7.33610706e+01 
                       2.12145280e-05  7.26872990e+01  9.58536398e-02  3.23825781e+00  2.70510759e-05  7.33610932e+01  5.30591447e-02  1.44979335e+01 
0.2900000000           6.33640835e-02  5.50791850e+00  2.78635804e-05  7.19037489e+01  1.08314660e-01  -4.79770435e+00 2.15498110e-05  7.19462591e+01 
                       2.78635809e-05  7.19037346e+01  6.37671072e-02  5.21107161e+00  3.65154006e-05  7.14363723e+01  1.08470962e-01  -4.88638554e+00
                       1.08314635e-01  -4.79773852e+00 3.65154005e-05  7.14363879e+01  6.33740088e-02  5.38663371e+00  2.75911170e-05  7.24863159e+01 
                       2.15498175e-05  7.19462932e+01  1.08470937e-01  -4.88642057e+00 2.75911207e-05  7.24863404e+01  6.32742425e-02  5.23515219e+00 
0.3000000000           7.25394289e-02  -3.60773275e+00 2.84877291e-05  7.15285342e+01  1.18918544e-01  -1.30525737e+01 2.19801948e-05  7.17885614e+01 
                       2.84877274e-05  7.15285217e+01  7.29037076e-02  -3.89994108e+00 3.74667336e-05  7.08293262e+01  1.19056550e-01  -1.31505080e+01
                       1.18918486e-01  -1.30526131e+01 3.74667359e-05  7.08293401e+01  7.25544660e-02  -3.73062742e+00 2.82266755e-05  7.21331339e+01 
                       2.19802023e-05  7.17885953e+01  1.19056493e-01  -1.31505482e+01 2.82266820e-05  7.21331579e+01  7.24423429e-02  -3.89330368e+00
0.3100000000           8.05215429e-02  -1.26419341e+01 2.92823369e-05  7.15777318e+01  1.27332165e-01  -2.13654164e+01 2.25728605e-05  7.20794424e+01 
                       2.92823343e-05  7.15777234e+01  8.08384200e-02  -1.29316090e+01 3.85892367e-05  7.05917188e+01  1.27448377e-01  -2.14716679e+01
                       1.27332047e-01  -2.13654652e+01 3.85892411e-05  7.05917332e+01  8.05415710e-02  -1.27667241e+01 2.90358571e-05  7.21955894e+01 
                       2.25728711e-05  7.20794782e+01  1.27448259e-01  -2.14717174e+01 2.90358657e-05  7.21956123e+01  8.04185778e-02  -1.29395148e+01
0.3200000000           8.71844350e-02  -2.16293604e+01 3.03139588e-05  7.19161428e+01  1.33442144e-01  -2.96876115e+01 2.33796755e-05  7.26507340e+01 
