# GHz S MA R 50
! S-Parameters data
! Freq  magS11  angS11  magS12  angS12  magS13  angS13  magS14  angS14
!       magS21  angS21  magS22  angS22  magS23  angS23  magS24  angS24
!       magS31  angS31  magS32  angS32  magS33  angS33  magS34  angS34
!       magS41  angS41  magS42  angS42  magS43  angS43  magS44  angS44
!     
0.0000000000           7.93928773e-03  3.66909577e+01  9.89657173e-01  -2.82062607e+00 1.69449258e-03  2.75430416e+01  1.49203562e-03  -1.67915208e+02
                       9.89657174e-01  -2.82062608e+00 8.05035837e-03  3.75223308e+01  1.50105439e-03  -1.68017640e+02 1.67151140e-03  2.97763983e+01 
                       1.69447246e-03  2.75433412e+01  1.50107407e-03  -1.68017711e+02 8.24586523e-03  3.47780192e+01  9.89411992e-01  -2.82012783e+00
                       1.49207187e-03  -1.67915451e+02 1.67148346e-03  2.97768196e+01  9.89411992e-01  -2.82012781e+00 8.28983534e-03  3.60855162e+01 
0.0100000000           1.63647888e-02  4.15162521e+01  9.85570649e-01  -1.08969812e+01 2.20129941e-02  7.47650925e+01  1.75795079e-03  -1.61280419e+02
                       9.85570649e-01  -1.08969812e+01 1.64503188e-02  4.23142012e+01  1.75679717e-03  -1.61252468e+02 2.20759744e-02  7.68499036e+01 
                       2.20129936e-02  7.47650920e+01  1.75679734e-03  -1.61252452e+02 1.63494532e-02  4.17303745e+01  9.85609300e-01  -1.08704913e+01
                       1.75795096e-03  -1.61280404e+02 2.20759739e-02  7.68499035e+01  9.85609300e-01  -1.08704913e+01 1.64550864e-02  4.24521201e+01 
0.0200000000           2.50764106e-02  3.39103935e+01  9.78553285e-01  -2.13710027e+01 4.28847777e-02  6.43967512e+01  2.70747314e-03  -1.77648410e+02
                       9.78553285e-01  -2.13710027e+01 2.54140024e-02  3.52290363e+01  2.70375320e-03  -1.77561246e+02 4.30587169e-02  6.84778696e+01 
                       4.28847735e-02  6.43967547e+01  2.70375673e-03  -1.77560991e+02 2.50599399e-02  3.42030054e+01  9.78598887e-01  -2.13184720e+01
                       2.70747589e-03  -1.77648162e+02 4.30586973e-02  6.84778593e+01  9.78598887e-01  -2.13184720e+01 2.54583476e-02  3.53174742e+01 
0.0300000000           3.09510345e-02  2.44522187e+01  9.72641817e-01  -3.17070279e+01 6.24241074e-02  5.35033440e+01  3.53937057e-03  1.60536899e+02 
                       9.72641817e-01  -3.17070279e+01 3.16756109e-02  2.61048910e+01  3.53167737e-03  1.60687272e+02  6.27366306e-02  5.95743714e+01 
                       6.24241080e-02  5.35033455e+01  3.53167889e-03  1.60687318e+02  3.09206602e-02  2.48439728e+01  9.72694047e-01  -3.16286416e+01
                       3.53937176e-03  1.60536929e+02  6.27366260e-02  5.95743712e+01  9.72694047e-01  -3.16286416e+01 3.17654768e-02  2.61404311e+01 
0.0400000000           3.48123047e-02  1.46128954e+01  9.67342701e-01  -4.19727215e+01 8.04147753e-02  4.25654334e+01  4.28446714e-03  1.37716885e+02 
                       9.67342700e-01  -4.19727215e+01 3.60246784e-02  1.64318220e+01  4.27131166e-03  1.37930017e+02  8.08880883e-02  5.06303005e+01 
                       8.04147769e-02  4.25654332e+01  4.27130795e-03  1.37930009e+02  3.47554270e-02  1.51130768e+01  9.67404278e-01  -4.18684920e+01
                       4.28446351e-03  1.37716864e+02  8.08880933e-02  5.06302973e+01  9.67404278e-01  -4.18684920e+01 3.61625582e-02  1.64066178e+01 
0.0500000000           3.68365100e-02  4.40642881e+00  9.62465356e-01  -5.21862724e+01 9.66210639e-02  3.16368019e+01  4.97764917e-03  1.14763930e+02 
                       9.62465356e-01  -5.21862724e+01 3.86214644e-02  6.24304045e+00  4.95760348e-03  1.15039341e+02  9.72723981e-02  4.17051690e+01 
                       9.66210643e-02  3.16368009e+01  4.95759640e-03  1.15039354e+02  3.67388044e-02  5.02123879e+00  9.62534472e-01  -5.20562979e+01
                       4.97764235e-03  1.14763931e+02  9.72724026e-02  4.17051619e+01  9.62534472e-01  -5.20562979e+01 3.88061644e-02  6.14449163e+00 
0.0600000000           3.70648590e-02  -6.23027941e+00 9.57965290e-01  -6.23572245e+01 1.10810621e-01  2.07210387e+01  5.63504583e-03  9.18964192e+01 
                       9.57965290e-01  -6.23572245e+01 3.95045116e-02  -4.54132683e+00 5.60680868e-03  9.22321920e+01  1.11652509e-01  3.28069617e+01 
                       1.10810620e-01  2.07210379e+01  5.60680090e-03  9.22322311e+01  3.69112180e-02  -5.49516872e+00 9.58042073e-01  -6.22013741e+01
                       5.63503745e-03  9.18964656e+01  1.11652505e-01  3.28069533e+01  9.58042073e-01  -6.22013740e+01 3.97323025e-02  -4.72721778e+00
0.0700000000           3.55379435e-02  -1.74651143e+01 9.53848991e-01  -7.24927321e+01 1.22770595e-01  9.81419906e+00  6.25962192e-03  6.91860694e+01 
                       9.53848991e-01  -7.24927321e+01 3.87237918e-02  -1.61192600e+01 6.22206612e-03  6.95787542e+01  1.23809243e-01  2.39364634e+01 
                       1.22770596e-01  9.81419853e+00  6.22205872e-03  6.95788217e+01  3.53131132e-02  -1.66049645e+01 9.53931635e-01  -7.23108568e+01
                       6.25961444e-03  6.91861357e+01  1.23809230e-01  2.39364556e+01  9.53931636e-01  -7.23108568e+01 3.89901485e-02  -1.64082602e+01
0.0800000000           3.23334501e-02  -2.96586486e+01 9.50136974e-01  -8.25992917e+01 1.32319188e-01  -1.08899060e+00 6.84568822e-03  4.66517809e+01 
                       9.50136974e-01  -8.25992917e+01 3.63872695e-02  -2.88758974e+01 6.79789615e-03  4.70969095e+01  1.33553005e-01  1.50937895e+01 
                       1.32319188e-01  -1.08899106e+00 6.79788993e-03  4.70969841e+01  3.20226462e-02  -2.86739683e+01 9.50229878e-01  -8.23915501e+01
                       6.84568187e-03  4.66518550e+01  1.33552987e-01  1.50937838e+01  9.50229878e-01  -8.23915502e+01 3.66900261e-02  -2.92870449e+01
0.0900000000           2.76034575e-02  -4.35985394e+01 9.46855463e-01  -9.26835040e+01 1.39311324e-01  -1.19943384e+01 7.38149010e-03  2.42817736e+01 
                       9.46855463e-01  -9.26835040e+01 3.27112383e-02  -4.35388686e+01 7.32280855e-03  2.47738947e+01  1.40729747e-01  6.27961889e+00 
                       1.39311323e-01  -1.19943384e+01 7.32280390e-03  2.47739499e+01  2.71921411e-02  -4.25100448e+01 9.46960664e-01  -9.24504959e+01
                       7.38148626e-03  2.42818249e+01  1.40729731e-01  6.27961500e+00  9.46960664e-01  -9.24504960e+01 3.30539787e-02  -4.40926007e+01
0.1000000000           2.16690758e-02  -6.12265391e+01 9.44012758e-01  -1.02752265e+02 1.43639497e-01  -2.29072734e+01 7.85094963e-03  2.04049778e+00 
                       9.44012758e-01  -1.02752265e+02 2.81225502e-02  -6.15053898e+01 7.78105229e-03  2.57319975e+00  1.45222766e-01  -2.50341241e+00
                       1.43639497e-01  -2.29072734e+01 7.78105015e-03  2.57320384e+00  2.11455318e-02  -6.01456856e+01 9.44124373e-01  -1.02494959e+02
                       7.85094842e-03  2.04050060e+00  1.45222765e-01  -2.50341433e+00 9.44124373e-01  -1.02494959e+02 2.85197740e-02  -6.22075013e+01
0.1100000000           1.54453420e-02  -8.81648601e+01 9.41501965e-01  -1.12811763e+02 1.45224184e-01  -3.38307632e+01 8.24700396e-03  -2.01561945e+01
                       9.41501966e-01  -1.12811763e+02 2.34999989e-02  -8.51409381e+01 8.16592473e-03  -1.95856735e+01 1.46948916e-01  -1.12476642e+01
                       1.45224185e-01  -3.38307632e+01 8.16593267e-03  -1.95856890e+01 1.49575007e-02  -8.72568686e+01 9.41620602e-01  -1.12529259e+02
                       8.24701180e-03  -2.01562107e+01 1.46948916e-01  -1.12476629e+01 9.41620601e-01  -1.12529259e+02 2.39821721e-02  -8.59143115e+01
0.1200000000           1.18715600e-02  -1.36259632e+02 9.39407211e-01  -1.22868868e+02 1.44064531e-01  -4.47663755e+01 8.55889194e-03  -4.23375634e+01
                       9.39407214e-01  -1.22868868e+02 2.06142401e-02  -1.17450286e+02 8.46713534e-03  -4.17369580e+01 1.45894316e-01  -1.99422964e+01
                       1.44064519e-01  -4.47663760e+01 8.46715081e-03  -4.17369680e+01 1.14480039e-02  -1.36666432e+02 9.39532547e-01  -1.22561270e+02
                       8.55890794e-03  -4.23375821e+01 1.45894318e-01  -1.99422932e+01 9.39532544e-01  -1.22561270e+02 2.12024560e-02  -1.17965631e+02
0.1300000000           1.57151832e-02  1.71159294e+02  9.37659553e-01  -1.32929602e+02 1.40184015e-01  -5.57145799e+01 8.77174640e-03  -6.45562740e+01
                       9.37659556e-01  -1.32929602e+02 2.19006312e-02  -1.54780663e+02 8.67029383e-03  -6.39344713e+01 1.42080988e-01  -2.85705154e+01
                       1.40184007e-01  -5.57145786e+01 8.67031838e-03  -6.39344753e+01 1.55632055e-02  1.70217922e+02  9.37784776e-01  -1.32596948e+02
                       8.77177140e-03  -6.45562803e+01 1.42080988e-01  -2.85705101e+01 9.37784773e-01  -1.32596950e+02 2.25404242e-02  -1.54705416e+02
0.1400000000           2.48162847e-02  1.40669811e+02  9.36172747e-01  -1.42998403e+02 1.33657635e-01  -6.66717938e+01 8.87226250e-03  -8.68736634e+01
                       9.36172752e-01  -1.42998403e+02 2.78642109e-02  1.73644353e+02  8.76258048e-03  -8.62411434e+01 1.35587298e-01  -3.71055109e+01
                       1.33657625e-01  -6.66717947e+01 8.76261350e-03  -8.62411311e+01 2.48664200e-02  1.40337054e+02  9.36298822e-01  -1.42640661e+02
                       8.87229489e-03  -8.68736554e+01 1.35587312e-01  -3.71055029e+01 9.36298817e-01  -1.42640661e+02 2.84841835e-02  1.74022224e+02 
0.1500000000           3.58588615e-02  1.21341264e+02  9.34856343e-01  -1.53077865e+02 1.24614214e-01  -7.76293481e+01 8.84950590e-03  -1.09362993e+02
                       9.34856388e-01  -1.53077865e+02 3.68175436e-02  1.50437615e+02  8.73365285e-03  -1.08732439e+02 1.26550859e-01  -4.55058950e+01
                       1.24614209e-01  -7.76293505e+01 8.73369163e-03  -1.08732398e+02 3.60354242e-02  1.21457317e+02  9.34978705e-01  -1.52694925e+02
                       8.84954474e-03  -1.09362958e+02 1.26550870e-01  -4.55058846e+01 9.34978699e-01  -1.52694925e+02 3.74106654e-02  1.50798587e+02 
0.1600000000           4.75910874e-02  1.06292650e+02  9.33615424e-01  -1.63168708e+02 1.13237949e-01  -8.85725168e+01 8.69611359e-03  -1.32116363e+02
                       9.33615431e-01  -1.63168709e+02 4.72094127e-02  1.32597179e+02  8.57676833e-03  -1.31503460e+02 1.15169467e-01  -5.37079622e+01
                       1.13237932e-01  -8.85725189e+01 8.57681089e-03  -1.31503380e+02 4.78586003e-02  1.06715431e+02  9.33732225e-01  -1.62760391e+02
                       8.69615617e-03  -1.32116290e+02 1.15169479e-01  -5.37079526e+01 9.33732219e-01  -1.62760390e+02 4.77883445e-02  1.32844472e+02 
0.1700000000           5.93565215e-02  9.31456576e+01  9.32365985e-01  -1.73269870e+02 9.97658971e-02  -9.94782791e+01 8.40963995e-03  -1.55255883e+02
                       9.32365991e-01  -1.73269870e+02 5.80742861e-02  1.17720128e+02  8.29019355e-03  -1.54680287e+02 1.01699033e-01  -6.16092105e+01
                       9.97658839e-02  -9.94782811e+01 8.29023860e-03  -1.54680156e+02 5.96889341e-02  9.38027466e+01  9.32476575e-01  -1.72835949e+02
                       8.40968704e-03  -1.55255762e+02 1.01699048e-01  -6.16092020e+01 9.32476569e-01  -1.72835951e+02 5.86436339e-02  1.17842533e+02 
0.1800000000           7.06388129e-02  8.09690331e+01  9.31042847e-01  1.76621174e+02  8.44817679e-02  -1.10309274e+02 7.99417171e-03  -1.78951547e+02
                       9.31042853e-01  1.76621176e+02  6.87432314e-02  1.04514750e+02  7.87883258e-03  -1.78438006e+02 8.64489102e-02  -6.90298325e+01
                       8.44817547e-02  -1.10309277e+02 7.87887952e-03  -1.78437812e+02 7.10094429e-02  8.18218258e+01  9.31148063e-01  1.77080938e+02 
                       7.99422089e-03  -1.78951355e+02 8.64489351e-02  -6.90298272e+01 9.31148057e-01  1.77080939e+02  6.92971189e-02  1.04520433e+02 
0.1900000000           8.09650013e-02  6.93443159e+01  9.29601620e-01  1.66507858e+02  6.77054321e-02  -1.20995817e+02 7.46233346e-03  1.56550644e+02 
                       9.29601624e-01  1.66507860e+02  7.86752956e-02  9.23050033e+01  7.35629632e-03  1.56971559e+02  6.97814094e-02  -7.56110899e+01
                       6.77054251e-02  -1.20995821e+02 7.35634128e-03  1.56971850e+02  8.13444043e-02  7.03705675e+01  9.29706054e-01  1.66993687e+02 
                       7.46238126e-03  1.56550921e+02  6.97814342e-02  -7.56110879e+01 9.29706050e-01  1.66993688e+02  7.92000036e-02  9.22040554e+01 
0.2000000000           8.98932868e-02  5.80662869e+01  9.28029865e-01  1.56393897e+02  4.97819179e-02  -1.31375437e+02 6.83855876e-03  1.30885916e+02 
                       9.28029867e-01  1.56393898e+02  8.73985360e-02  8.07221062e+01  6.74823088e-03  1.31179310e+02  5.21360255e-02  -8.04972779e+01
                       4.97819051e-02  -1.31375440e+02 6.74827214e-03  1.31179711e+02  9.02488506e-02  5.92521738e+01  9.28135356e-01  1.56905952e+02 
                       6.83859950e-03  1.30886286e+02  5.21360431e-02  -8.04972783e+01 9.28135354e-01  1.56905953e+02  8.78743462e-02  8.05224553e+01 
0.2100000000           9.70216866e-02  4.70301474e+01  9.26334012e-01  1.46282632e+02  3.10729086e-02  -1.40900388e+02 6.16413997e-03  1.03518236e+02 
                       9.26334012e-01  1.46282633e+02  9.44949038e-02  6.95543462e+01  6.09737562e-03  1.03653601e+02  3.41797080e-02  -8.10237370e+01
                       3.10728960e-02  -1.40900392e+02 6.09740594e-03  1.03654131e+02  9.73193978e-02  4.83669052e+01  9.26445633e-01  1.46820983e+02 
                       6.16417217e-03  1.03518753e+02  3.41797223e-02  -8.10237462e+01 9.26445633e-01  1.46820984e+02  9.48988713e-02  6.92613447e+01 
0.2200000000           1.02004730e-01  3.61836186e+01  9.24541788e-01  1.36176585e+02  1.20040668e-02  -1.45538181e+02 5.50576415e-03  7.37180214e+01 
                       9.24541787e-01  1.36176584e+02  9.96039897e-02  5.86744562e+01  5.47170146e-03  7.36984127e+01  1.79425226e-02  -6.47852363e+01
                       1.20040523e-02  -1.45538182e+02 5.47171748e-03  7.36990443e+01  1.02210701e-01  3.76657848e+01  9.24666973e-01  1.36741177e+02 
                       5.50578224e-03  7.37186428e+01  1.79425306e-02  -6.47852658e+01 9.24666975e-01  1.36741178e+02  9.99118522e-02  5.82908325e+01 
0.2300000000           1.04567394e-01  2.55040667e+01  9.22688145e-01  1.26077113e+02  7.79828384e-03  -2.94103114e+00 4.96544392e-03  4.07398009e+01 
                       9.22688141e-01  1.26077114e+02  1.02430920e-01  4.80020687e+01  4.97264496e-03  4.06686371e+01  1.52265468e-02  -1.47720380e+00
                       7.79829154e-03  -2.94100393e+00 4.97264011e-03  4.06693977e+01  1.04648822e-01  2.71288043e+01  9.22830045e-01  1.26667767e+02 
                       4.96544218e-03  4.07405649e+01  1.52265459e-02  -1.47720575e+00 9.22830049e-01  1.26667766e+02  1.02617981e-01  4.75279086e+01 
0.2400000000           1.04516411e-01  1.49877825e+01  9.20808897e-01  1.15984483e+02  2.66744535e-02  -2.51829343e+00 4.67882270e-03  4.54166786e+00 
                       9.20808890e-01  1.15984483e+02  1.02755162e-01  3.74831646e+01  4.72966397e-03  4.68776920e+00  3.00178991e-02  2.43388125e+01 
                       2.66744652e-02  -2.51829497e+00 4.72963824e-03  4.68848617e+00  1.04443889e-01  1.67549062e+01  9.20971602e-01  1.16600888e+02 
                       4.67879761e-03  4.54240175e+00  3.00178989e-02  2.43388094e+01  9.20971609e-01  1.16600888e+02  1.02798575e-01  3.69157079e+01 
0.2500000000           1.01745601e-01  4.64562949e+00  9.18931226e-01  1.05898064e+02  4.52136115e-02  -1.16174388e+01 4.76875827e-03  -3.31614657e+01
                       9.18931219e-01  1.05898063e+02  1.00436646e-01  2.70777074e+01  4.85247709e-03  -3.24804524e+01 4.78008150e-02  2.59557097e+01 
                       4.52136192e-02  -1.16174414e+01 4.85242855e-03  -3.24799211e+01 1.01494523e-01  6.55824920e+00  9.19116949e-01  1.06539820e+02 
                       4.76870998e-03  -3.31609230e+01 4.78008204e-02  2.59557040e+01  9.19116956e-01  1.06539819e+02  1.00316614e-01  2.64106835e+01 
0.2600000000           9.62370126e-02  -5.49599734e+00 9.17072340e-01  9.58166805e+01  6.29609886e-02  -2.18677756e+01 5.26429807e-03  -6.94384412e+01
                       9.17072332e-01  9.58166820e+01  9.54197076e-02  1.67507583e+01  5.35971650e-03  -6.81356145e+01 6.55239672e-02  2.19007224e+01 
                       6.29609933e-02  -2.18677788e+01 5.35965710e-03  -6.81353457e+01 9.57891661e-02  -3.42991387e+00 9.17281057e-01  9.64833262e+01 
                       5.26423810e-03  -6.94381779e+01 6.55239766e-02  2.19007144e+01  9.17281065e-01  9.64833268e+01  9.51209138e-02  1.59729622e+01 
0.2700000000           8.80569105e-02  -1.53870611e+01 9.15235332e-01  8.57390970e+01  7.96168271e-02  -3.25078910e+01 6.08677878e-03  -1.02465426e+02
                       9.15235323e-01  8.57390964e+01  8.77330507e-02  6.46386789e+00  6.17396703e-03  -1.00693676e+02 8.24288053e-02  1.58337060e+01 
                       7.96168314e-02  -3.25078950e+01 6.17390138e-03  -1.00693635e+02 8.74023822e-02  -1.31514674e+01 9.15465934e-01  8.64301689e+01 
                       6.08671602e-03  -1.02465388e+02 8.24288124e-02  1.58336962e+01  9.15465943e-01  8.64301695e+01  8.72462901e-02  5.55616333e+00 
0.2800000000           7.73502269e-02  -2.49322807e+01 9.13416923e-01  7.56642535e+01  9.49003206e-02  -4.33473176e+01 7.11956110e-03  -1.32211772e+02
                       9.13416914e-01  7.56642530e+01  7.74877273e-02  -3.83829183e+00 7.18564698e-03  -1.30162699e+02 9.80781258e-02  8.83199486e+00 
                       9.49003185e-02  -4.33473210e+01 7.18558448e-03  -1.30162797e+02 7.64887556e-02  -2.24952456e+01 9.13660132e-01  7.63793511e+01 
                       7.11949865e-03  -1.32211883e+02 9.80781331e-02  8.83198285e+00  9.13660141e-01  7.63793495e+01  7.68107397e-02  -4.90893066e+00
0.2900000000           6.43339368e-02  -3.39299173e+01 9.11602328e-01  6.55915655e+01  1.08542050e-01  -5.43176356e+01 8.26128227e-03  -1.59413626e+02
                       9.11602319e-01  6.55915651e+01  6.48711807e-02  -1.42564095e+01 8.29922263e-03  -1.57220776e+02 1.12116261e-01  1.32136029e+00 
                       1.08542048e-01  -5.43176398e+01 8.29916388e-03  -1.57220966e+02 6.32791340e-02  -3.12258278e+01 9.11853975e-01  6.63304081e+01 
                       8.26122779e-03  -1.59413810e+02 1.12116265e-01  1.32134868e+00  9.11853984e-01  6.63304085e+01  6.40121062e-02  -1.55533190e+01
0.3000000000           4.93006845e-02  -4.18783253e+01 9.09780222e-01  5.55209122e+01  1.20286463e-01  -6.53873474e+01 9.43569453e-03  1.75185454e+02 
                       9.09780214e-01  5.55209119e+01  5.01426696e-02  -2.50235340e+01 9.44189438e-03  1.77443174e+02  1.24226832e-01  -6.49115950e+00
                       1.20286458e-01  -6.53873513e+01 9.44184380e-03  1.77442956e+02  4.80861754e-02  -3.87483655e+01 9.10028727e-01  5.62833868e+01 
                       9.43564495e-03  1.75185227e+02  1.24226832e-01  -6.49117081e+00 9.10028736e-01  5.62833871e+01  4.91226000e-02  -2.66856953e+01
0.3100000000           3.26689494e-02  -4.71281164e+01 9.07936638e-01  4.54525932e+01  1.29898727e-01  -7.65372189e+01 1.05855516e-02  1.51032348e+02 
                       9.07936629e-01  4.54525930e+01  3.36342425e-02  -3.68688211e+01 1.05584100e-02  1.53309610e+02  1.34131625e-01  -1.44854918e+01
                       1.29898719e-01  -7.65372224e+01 1.05583671e-02  1.53309366e+02  3.13775552e-02  -4.30606334e+01 9.08171984e-01  4.62388350e+01 
                       1.05855097e-02  1.51032118e+02  1.34131620e-01  -1.44855031e+01 9.08171993e-01  4.62388352e+01  3.25007842e-02  -3.93018182e+01
0.3200000000           1.54833420e-02  -4.01948647e+01 9.06065217e-01  3.53872422e+01  1.37174948e-01  -8.77515220e+01 1.16662275e-02  1.27748641e+02 
