# GHz S MA R 50
! S-Parameters data
! Freq  magS11  angS11  magS12  angS12  magS13  angS13  magS14  angS14
!       magS21  angS21  magS22  angS22  magS23  angS23  magS24  angS24
!       magS31  angS31  magS32  angS32  magS33  angS33  magS34  angS34
!       magS41  angS41  magS42  angS42  magS43  angS43  magS44  angS44
!     
0.0000000000           1.26353343e-02  -6.10554215e+00 4.45864974e-05  -1.04942628e+02 1.34964098e-03  3.44727773e+01  6.34536698e-05  -1.04107664e+02
                       4.45859550e-05  -1.04942631e+02 1.26335831e-02  -3.50002205e+00 3.29131342e-05  -1.04498279e+02 1.37810493e-03  3.71316099e+01 
                       1.35285918e-03  3.43619936e+01  3.29133071e-05  -1.04498268e+02 1.26176813e-02  -6.16985160e+00 5.02228803e-05  -1.03817581e+02
                       6.34536639e-05  -1.04107671e+02 1.38261720e-03  3.69786375e+01  5.02232563e-05  -1.03817589e+02 1.26483755e-02  -3.54569310e+00
0.0100000000           2.08592685e-02  3.70654576e+01  6.17140376e-05  -1.13403352e+02 2.02684090e-02  7.44152816e+01  8.89013581e-05  -1.12482021e+02
                       6.17137878e-05  -1.13403302e+02 2.08160963e-02  4.01720137e+01  4.44445036e-05  -1.13736360e+02 2.04466574e-02  7.66347809e+01 
                       2.02681719e-02  7.44037002e+01  4.44446572e-05  -1.13736348e+02 2.08632982e-02  3.71156072e+01  6.99053046e-05  -1.12605425e+02
                       8.89013568e-05  -1.12482002e+02 2.04462746e-02  7.66186815e+01  6.99054097e-05  -1.12605471e+02 2.08093238e-02  4.01094010e+01 
0.0200000000           3.44025765e-02  3.84719309e+01  1.16678446e-04  -1.23667624e+02 3.96443536e-02  6.38446049e+01  1.68478348e-04  -1.22559821e+02
                       1.16677969e-04  -1.23667567e+02 3.42923771e-02  4.47066514e+01  8.38513893e-05  -1.24541835e+02 4.00787463e-02  6.81333996e+01 
                       3.96435450e-02  6.38389977e+01  8.38517296e-05  -1.24541817e+02 3.44272557e-02  3.84795981e+01  1.32367201e-04  -1.23029751e+02
                       1.68478383e-04  -1.22559777e+02 4.00775767e-02  6.81256251e+01  1.32367344e-04  -1.23029804e+02 3.42643988e-02  4.46628022e+01 
0.0300000000           4.75776783e-02  3.06060313e+01  1.65297690e-04  -1.35231205e+02 5.77487814e-02  5.25227088e+01  2.39691334e-04  -1.33832736e+02
                       1.65297077e-04  -1.35231141e+02 4.72920007e-02  3.99549178e+01  1.18259410e-04  -1.36561375e+02 5.84786161e-02  5.88505756e+01 
                       5.77476399e-02  5.25191574e+01  1.18259846e-04  -1.36561340e+02 4.76242152e-02  3.05992601e+01  1.87842039e-04  -1.34584806e+02
                       2.39691506e-04  -1.33832671e+02 5.84769205e-02  5.88457055e+01  1.87842273e-04  -1.34584875e+02 4.72492705e-02  3.99214645e+01 
0.0400000000           5.92786131e-02  2.02232858e+01  2.07895259e-04  -1.46479768e+02 7.42474395e-02  4.11817181e+01  3.03096387e-04  -1.44815261e+02
                       2.07894508e-04  -1.46479700e+02 5.86567023e-02  3.26815209e+01  1.47801486e-04  -1.48191129e+02 7.52900507e-02  4.95312089e+01 
                       7.42460549e-02  4.11792251e+01  1.47802104e-04  -1.48191082e+02 5.93455355e-02  2.01955549e+01  2.36654314e-04  -1.45799067e+02
                       3.03096682e-04  -1.44815186e+02 7.52879905e-02  4.95278329e+01  2.36654469e-04  -1.45799149e+02 5.86044899e-02  3.26531431e+01 
0.0500000000           6.92526701e-02  9.07486405e+00  2.45168277e-04  -1.57181450e+02 8.89184534e-02  2.99407732e+01  3.59761261e-04  -1.55305960e+02
                       2.45167374e-04  -1.57181372e+02 6.81388070e-02  2.46745320e+01  1.72920026e-04  -1.59184077e+02 9.02736540e-02  4.03040424e+01 
                       8.89168993e-02  2.99389353e+01  1.72920851e-04  -1.59184028e+02 6.93388559e-02  9.02774495e+00  2.79575622e-04  -1.56462365e+02
                       3.59761749e-04  -1.55305879e+02 9.02713865e-02  4.03015730e+01  2.79575701e-04  -1.56462453e+02 6.80820216e-02  2.46487356e+01 
0.0600000000           7.75076517e-02  -2.24588495e+00 2.78003382e-04  -1.67274299e+02 1.01608273e-01  1.88137060e+01  4.10978456e-04  -1.65267912e+02
                       2.78002462e-04  -1.67274212e+02 7.57869861e-02  1.65235670e+01  1.94243735e-04  -1.69450107e+02 1.03261203e-01  3.11874448e+01 
                       1.01606638e-01  1.88123073e+01  1.94244713e-04  -1.69450062e+02 7.76126147e-02  -2.31218165e+00 3.17611497e-04  -1.66521097e+02
                       4.10979288e-04  -1.65267834e+02 1.03258836e-01  3.11855779e+01  3.17611529e-04  -1.66521186e+02 7.57304900e-02  1.64991285e+01 
0.0700000000           8.41412526e-02  -1.35247722e+01 3.07537650e-04  -1.76738780e+02 1.12200695e-01  7.78559727e+00  4.58312026e-04  -1.74706708e+02
                       3.07536666e-04  -1.76738685e+02 8.17504421e-02  8.42835769e+00  2.12650109e-04  -1.78934865e+02 1.14123156e-01  2.21703723e+01 
                       1.12199045e-01  7.78450821e+00  2.12651285e-04  -1.78934832e+02 8.42639590e-02  -1.36101184e+01 3.52059160e-04  -1.75962476e+02
                       4.58313142e-04  -1.74706641e+02 1.14120782e-01  2.21689262e+01  3.52059064e-04  -1.75962560e+02 8.16991459e-02  8.40459454e+00 
0.0800000000           8.92631249e-02  -2.46915668e+01 3.35190371e-04  1.74410737e+02  1.20600908e-01  -3.16473884e+00 5.03611571e-04  1.76341929e+02 
                       3.35189279e-04  1.74410843e+02  8.61905359e-02  4.38623814e-01  2.29310073e-04  1.72380582e+02  1.22753340e-01  1.32355471e+01 
                       1.20599278e-01  -3.16560251e+00 2.29311492e-04  1.72380594e+02  8.94016942e-02  -2.47961521e+01 3.84535173e-04  1.75192083e+02 
                       5.03612955e-04  1.76341980e+02  1.22751040e-01  1.32344017e+01  3.84534936e-04  1.75192008e+02  8.61494176e-02  4.15057999e-01 
0.0900000000           9.29624063e-02  -3.57336072e+01 3.62646745e-04  1.66114296e+02  1.26731088e-01  -1.40572243e+01 5.48972060e-04  1.67807789e+02 
                       3.62645686e-04  1.66114412e+02  8.92423336e-02  -7.45687514e+00 2.45690220e-04  1.64454771e+02  1.29065022e-01  4.36709481e+00 
                       1.26729532e-01  -1.40579318e+01 2.45691816e-04  1.64454751e+02  9.31145178e-02  -3.58578027e+01 4.16944633e-04  1.66875867e+02 
                       5.48973751e-04  1.67807819e+02  1.29062823e-01  4.36617504e+00  4.16944276e-04  1.66875805e+02  8.92163354e-02  -7.48065371e+00
0.1000000000           9.53001407e-02  -4.66602605e+01 3.91778841e-04  1.58253526e+02  1.30531753e-01  -2.49084784e+01 5.96629506e-04  1.59581635e+02 
                       3.91777676e-04  1.58253651e+02  9.10023724e-02  -1.52930618e+01 2.63488620e-04  1.57155386e+02  1.32992246e-01  -4.44726049e+00
                       1.30530246e-01  -2.49090720e+01 2.63490475e-04  1.57155322e+02  9.54629173e-02  -4.68042796e+01 4.51382484e-04  1.58965777e+02 
                       5.96631413e-04  1.59581641e+02  1.32990212e-01  -4.44801699e+00 4.51382013e-04  1.58965732e+02  9.09963928e-02  -1.53174817e+01
0.1100000000           9.63277643e-02  -5.74678773e+01 4.24513109e-04  1.50635788e+02  1.31962385e-01  -3.57316139e+01 6.48826745e-04  1.51506289e+02 
                       4.24511927e-04  1.50635924e+02  9.15842440e-02  -2.31137513e+01 2.84494169e-04  1.50238188e+02  1.34494030e-01  -1.32156070e+01
                       1.31960985e-01  -3.57321149e+01 2.84496203e-04  1.50238072e+02  9.64760555e-02  -5.76520263e+01 4.89989220e-04  1.51275989e+02 
                       6.48828763e-04  1.51506269e+02  1.34492134e-01  -1.32162353e+01 4.89988567e-04  1.51275961e+02  9.16034919e-02  -2.31393501e+01
0.1200000000           9.60482486e-02  -6.82014246e+01 4.62504105e-04  1.43056529e+02  1.31010746e-01  -4.65357923e+01 7.07427741e-04  1.43429167e+02 
                       4.62502939e-04  1.43056673e+02  9.09413882e-02  -3.09592904e+01 3.10280995e-04  1.43390000e+02  1.33552384e-01  -2.19413144e+01
                       1.31009434e-01  -4.65362135e+01 3.10283136e-04  1.43389830e+02  9.61739238e-02  -6.84146793e+01 5.34571762e-04  1.43596620e+02 
                       7.07429979e-04  1.43429122e+02  1.33550657e-01  -2.19418527e+01 5.34571150e-04  1.43596611e+02  9.09902718e-02  -3.09866449e+01
0.1300000000           9.44542660e-02  -7.88693837e+01 5.07075792e-04  1.35279311e+02  1.27688634e-01  -5.73267105e+01 7.73933114e-04  1.35177560e+02 
                       5.07074653e-04  1.35279460e+02  8.90808158e-02  -3.88675149e+01 3.42035103e-04  1.36265862e+02  1.30180084e-01  -3.06227652e+01
                       1.27687427e-01  -5.73270735e+01 3.42037307e-04  1.36265644e+02  9.45549567e-02  -7.91039278e+01 5.86527671e-04  1.35703093e+02 
                       7.73935428e-04  1.35177493e+02  1.30178512e-01  -3.06232303e+01 5.86527039e-04  1.35703100e+02  8.91634439e-02  -3.88973006e+01
0.1400000000           9.15337457e-02  -8.94736249e+01 5.58950445e-04  1.27095809e+02  1.22037532e-01  -6.81051062e+01 8.49171185e-04  1.26599455e+02 
                       5.58949455e-04  1.27095962e+02  8.59938896e-02  -4.68719782e+01 3.80331763e-04  1.28572862e+02  1.24421072e-01  -3.92508278e+01
                       1.22036442e-01  -6.81054284e+01 3.80333914e-04  1.28572608e+02  9.16099931e-02  -8.97242364e+01 6.46580906e-04  1.27401633e+02 
                       8.49173575e-04  1.26599371e+02  1.24419639e-01  -3.92512311e+01 6.46580315e-04  1.27401651e+02  8.61138942e-02  -4.69049399e+01
0.1500000000           8.72763926e-02  -1.00006097e+02 6.18155063e-04  1.18356117e+02  1.14132045e-01  -7.88645742e+01 9.33185712e-04  1.17581661e+02 
                       6.18154009e-04  1.18356270e+02  8.16665756e-02  -5.50012978e+01 4.25076165e-04  1.20120534e+02  1.16353348e-01  -4.78046530e+01
                       1.14131056e-01  -7.88648599e+01 4.25078351e-04  1.20120256e+02  8.73297249e-02  -1.00269619e+02 7.14691300e-04  1.18555493e+02 
                       9.33187879e-04  1.17581565e+02  1.16352061e-01  -4.78050120e+01 7.14690610e-04  1.18555520e+02  8.18270214e-02  -5.50382739e+01
0.1600000000           8.16810885e-02  -1.10443616e+02 6.84017736e-04  1.08979926e+02  1.04083787e-01  -8.95874246e+01 1.02520611e-03  1.08057834e+02 
                       6.84016739e-04  1.08980076e+02  7.60904512e-02  -6.32796954e+01 4.75550887e-04  1.10829805e+02  1.06093253e-01  -5.62438294e+01
                       1.04082898e-01  -8.95876811e+01 4.75552987e-04  1.10829515e+02  8.17129816e-02  -1.10718507e+02 7.90057537e-04  1.09093500e+02 
                       1.02520819e-03  1.08057729e+02  1.06092103e-01  -5.62441537e+01 7.90056908e-04  1.09093532e+02  7.62937366e-02  -6.33216709e+01
0.1700000000           7.47645640e-02  -1.20738529e+02 7.55227201e-04  9.89508011e+01  9.20458494e-02  -1.00236296e+02 1.12368389e-03  9.80071054e+01 
                       7.55226261e-04  9.89509456e+01  6.92731667e-02  -7.17288624e+01 5.30512153e-04  1.00711612e+02  9.38001337e-02  -6.44919633e+01
                       9.20450449e-02  -1.00236520e+02 5.30514104e-04  1.00711317e+02  7.47756238e-02  -1.21024460e+02 8.71182967e-04  9.90037400e+01 
                       1.12368601e-03  9.80069960e+01  9.37991226e-02  -6.44922703e+01 8.71182587e-04  9.90037758e+01  6.95208512e-02  -7.17769812e+01
0.1800000000           6.65706806e-02  -1.30800320e+02 8.29927420e-04  8.83017417e+01  7.82166258e-02  -1.10735018e+02 1.22638139e-03  8.74469487e+01 
                       8.29926537e-04  8.83018809e+01  6.12482484e-02  -8.03722169e+01 5.88296503e-04  8.98361040e+01  7.96829628e-02  -7.23993819e+01
                       7.82159124e-02  -1.10735221e+02 5.88298316e-04  8.98358126e+01  6.65603814e-02  -1.31097916e+02 9.55980569e-04  8.83199878e+01 
                       1.22638339e-03  8.74468382e+01  7.96820712e-02  -7.23996698e+01 9.55980290e-04  8.83200242e+01  6.15409703e-02  -8.04279019e+01
0.1900000000           5.71814621e-02  -1.40455437e+02 9.05837257e-04  7.70998004e+01  6.28439635e-02  -1.20918418e+02 1.33050616e-03  7.64242758e+01 
                       9.05836430e-04  7.70999335e+01  5.20833494e-02  -8.92450906e+01 6.46927090e-04  7.83066065e+01  6.40115137e-02  -7.96440937e+01
                       6.28433370e-02  -1.20918602e+02 6.46928750e-04  7.83063226e+01  5.71479677e-02  -1.40765912e+02 1.04190258e-03  7.71076221e+01 
                       1.33050802e-03  7.64241664e+01  6.40107337e-02  -7.96443654e+01 1.04190240e-03  7.71076577e+01  5.24207048e-02  -8.93101142e+01
0.2000000000           4.67316311e-02  -1.49345244e+02 9.80396047e-04  6.54336255e+01  4.62319981e-02  -1.30365829e+02 1.43289051e-03  6.50072017e+01 
                       9.80395510e-04  6.54337542e+01  4.18859142e-02  -9.84217756e+01 7.04229691e-04  6.62425159e+01  4.71462369e-02  -8.54073937e+01
                       4.62314602e-02  -1.30366030e+02 7.04231143e-04  6.62422424e+01  4.66719916e-02  -1.49669607e+02 1.12610144e-03  6.54523094e+01 
                       1.43289214e-03  6.50070954e+01  4.71455545e-02  -8.54076016e+01 1.12610109e-03  6.54523417e+01  4.22663693e-02  -9.84982365e+01
0.2100000000           3.54390464e-02  -1.56614671e+02 1.05094010e-03  5.34049033e+01  2.87733769e-02  -1.37611038e+02 1.53021412e-03  5.32785014e+01 
                       1.05093938e-03  5.34050242e+01  3.08062759e-02  -1.08105072e+02 7.57968204e-04  5.37699132e+01  2.96752546e-02  -8.68925266e+01
                       2.87729102e-02  -1.37611139e+02 7.57969547e-04  5.37696506e+01  3.53493884e-02  -1.56950086e+02 1.20562174e-03  5.34522481e+01 
                       1.53021570e-03  5.32783986e+01  2.96746684e-02  -8.68926831e+01 1.20562176e-03  5.34522802e+01  3.12271898e-02  -1.08193849e+02
0.2200000000           2.37158632e-02  -1.59669600e+02 1.11490292e-03  4.11227016e+01  1.13286412e-02  -1.31991245e+02 1.61926979e-03  4.13306165e+01 
                       1.11490225e-03  4.11228171e+01  1.90421024e-02  -1.19059524e+02 8.06002274e-04  4.10169588e+01  1.36671658e-02  -6.76691334e+01
                       1.13282623e-02  -1.31990825e+02 8.06003515e-04  4.10167084e+01  2.35927216e-02  -1.59986120e+02 1.27762428e-03  4.12130178e+01 
                       1.61927101e-03  4.13305182e+01  1.36667273e-02  -6.76683283e+01 1.27762409e-03  4.12130469e+01  1.94996924e-02  -1.19142968e+02
0.2300000000           1.29003960e-02  -1.47082411e+02 1.17003361e-03  2.86998629e+01  9.82757435e-03  -2.21244548e+01 1.69723907e-03  2.92617814e+01 
                       1.17003296e-03  2.86999728e+01  6.91262374e-03  -1.37675781e+02 8.46459295e-04  2.81118882e+01  1.43260759e-02  8.93470248e+00 
                       9.82781437e-03  -2.21233154e+01 8.46460326e-04  2.81116502e+01  1.27580623e-02  -1.47098561e+02 1.33962232e-03  2.88442683e+01 
                       1.69724037e-03  2.92616877e+01  1.43262041e-02  8.93615670e+00  1.33962250e-03  2.88442949e+01  7.39693118e-03  -1.37213198e+02
0.2400000000           1.04888154e-02  -8.97247114e+01 1.21459668e-03  1.62504582e+01  2.71072193e-02  -1.25487439e+01 1.76195474e-03  1.71729264e+01 
                       1.21459607e-03  1.62505633e+01  6.12682518e-03  6.55502517e+01  8.77894321e-04  1.51821194e+01  3.06710177e-02  2.59489415e+01 
                       2.71074567e-02  -1.25486430e+01 8.77895207e-04  1.51818935e+01  1.05114430e-02  -8.89966254e+01 1.38970739e-03  1.64573130e+01 
                       1.76195593e-03  1.71728377e+01  3.06712380e-02  2.59493120e+01  1.38970764e-03  1.64573369e+01  5.66546080e-03  6.76720581e+01 
0.2500000000           2.02257917e-02  -6.41795793e+01 1.24754034e-03  3.88774901e+00  4.46013566e-02  -1.93673344e+01 1.81211898e-03  5.16495987e+00 
                       1.24753976e-03  3.88784995e+00  1.84713227e-02  4.50529376e+01  8.99425029e-04  2.35384004e+00  4.83486575e-02  2.41242597e+01 
                       4.46015413e-02  -1.93673471e+01 8.99425783e-04  2.35362622e+00  2.03914952e-02  -6.40515366e+01 1.42673247e-03  4.16324653e+00 
                       1.81212005e-03  5.16487622e+00  4.83488406e-02  2.41243912e+01  1.42673279e-03  4.16326780e+00  1.79575839e-02  4.53966937e+01 
0.2600000000           3.24156306e-02  -6.41773303e+01 1.26860041e-03  -8.27749191e+00 6.12890872e-02  -2.86705491e+01 1.84743826e-03  -6.66374699e+00
                       1.26859986e-03  -8.27739526e+00 3.07132846e-02  3.38239888e+01  9.10817284e-04  -1.02482104e+01 6.54623726e-02  1.82943250e+01 
                       6.12892183e-02  -2.86705941e+01 9.10817920e-04  -1.02484124e+01 3.26476465e-02  -6.42697272e+01 1.45043569e-03  -7.92875145e+00
                       1.84743925e-03  -6.66382580e+00 6.54625051e-02  1.82943710e+01  1.45043603e-03  -7.92873326e+00 3.01878555e-02  3.39751736e+01 
0.2700000000           4.46604201e-02  -7.02643239e+01 1.27834140e-03  -2.01385289e+01 7.67683820e-02  -3.87659297e+01 1.86868572e-03  -1.82196525e+01
                       1.27834088e-03  -2.01384358e+01 4.24903113e-02  2.39109332e+01  9.12518606e-04  -2.25007368e+01 8.14226763e-02  1.10707812e+01 
                       7.67684621e-02  -3.87659874e+01 9.12519141e-04  -2.25009275e+01 4.49430968e-02  -7.04517483e+01 1.46148960e-03  -1.97130207e+01
                       1.86868663e-03  -1.82197263e+01 8.14227553e-02  1.10707862e+01  1.46148997e-03  -1.97130051e+01 4.19652677e-02  2.39939780e+01 
0.2800000000           5.63590012e-02  -7.84174016e+01 1.27813898e-03  -3.15945190e+01 9.07356186e-02  -4.91877819e+01 1.87767083e-03  -2.94167601e+01
                       1.27813849e-03  -3.15944287e+01 5.35732705e-02  1.44506305e+01  9.05649699e-04  -3.42821289e+01 9.58536102e-02  3.23827546e+00 
                       9.07356521e-02  -4.91878448e+01 9.05650154e-04  -3.42823086e+01 5.66859748e-02  -7.86609651e+01 1.46149273e-03  -3.10894227e+01
                       1.87767169e-03  -2.94168292e+01 9.58536398e-02  3.23825781e+00  1.46149311e-03  -3.10894098e+01 5.30591447e-02  1.44979335e+01 
0.2900000000           6.71923977e-02  -8.74489065e+01 1.27011985e-03  -4.25532398e+01 1.02946701e-01  -5.97568374e+01 1.87716748e-03  -4.01798792e+01
                       1.27011965e-03  -4.25531527e+01 6.37671072e-02  5.21107161e+00  8.91967845e-04  -4.54739046e+01 1.08470962e-01  -4.88638554e+00
                       1.02946701e-01  -5.97568980e+01 8.91968114e-04  -4.54740740e+01 6.75585255e-02  -8.77330840e+01 1.45291031e-03  -4.19665511e+01
                       1.87716844e-03  -4.01799443e+01 1.08470937e-01  -4.88642057e+00 1.45291069e-03  -4.19665401e+01 6.32742425e-02  5.23515219e+00 
0.3000000000           7.69338885e-02  -9.68938816e+01 1.25708684e-03  -5.29358440e+01 1.13208870e-01  -7.03914899e+01 1.87079050e-03  -5.04494823e+01
                       1.25708639e-03  -5.29357587e+01 7.29037076e-02  -3.89994108e+00 8.73823436e-04  -5.59649754e+01 1.19056550e-01  -1.31505080e+01
                       1.13208821e-01  -7.03915549e+01 8.73823803e-04  -5.59651341e+01 7.73335478e-02  -9.72114599e+01 1.43899175e-03  -5.22671408e+01
                       1.87079132e-03  -5.04495429e+01 1.19056493e-01  -1.31505482e+01 1.43899212e-03  -5.22671332e+01 7.24423429e-02  -3.89330368e+00
0.3100000000           8.54082477e-02  -1.06536469e+02 1.24242387e-03  -6.26852188e+01 1.21375418e-01  -8.10521125e+01 1.86285541e-03  -6.01887480e+01
                       1.24242368e-03  -6.26851371e+01 8.08384200e-02  -1.29316090e+01 8.54118917e-04  -6.56619336e+01 1.27448377e-01  -2.14716679e+01
                       1.21375359e-01  -8.10521739e+01 8.54119201e-04  -6.56620837e+01 8.58348751e-02  -1.06883892e+02 1.42366756e-03  -6.19373591e+01
                       1.86285613e-03  -6.01888059e+01 1.27448259e-01  -2.14717174e+01 1.42366761e-03  -6.19373520e+01 8.04185778e-02  -1.29395148e+01
0.3200000000           9.24770008e-02  -1.16266015e+02 1.22998887e-03  -7.17790227e+01 1.27340175e-01  -9.17202364e+01 1.85819558e-03  -6.93931429e+01
