# GHz S MA R 50
! S-Parameters data
! Freq  magS11  angS11  magS12  angS12  magS13  angS13  magS14  angS14
!       magS21  angS21  magS22  angS22  magS23  angS23  magS24  angS24
!       magS31  angS31  magS32  angS32  magS33  angS33  magS34  angS34
!       magS41  angS41  magS42  angS42  magS43  angS43  magS44  angS44
!     
0.0000000000           8.11802767e-03  3.68052256e+01  1.04743714e-07  -9.98806763e+01 1.66187577e-03  2.94864047e+01  8.34391749e-08  -9.99063536e+01
                       1.04747807e-07  -9.98807771e+01 8.05035837e-03  3.75223308e+01  1.20819253e-07  -9.99483582e+01 1.67151140e-03  2.97763983e+01 
                       1.66187064e-03  2.94881196e+01  1.20834568e-07  -9.99483963e+01 8.37517874e-03  3.54953541e+01  1.09149422e-07  -9.99072874e+01
                       8.34519011e-08  -9.99065680e+01 1.67148346e-03  2.97768196e+01  1.09143252e-07  -9.99067601e+01 8.28983534e-03  3.60855162e+01 
0.0100000000           1.65106131e-02  4.17494119e+01  2.02282090e-06  6.86278425e+01  2.21716813e-02  7.67939121e+01  1.51264460e-06  6.80659753e+01 
                       2.02282072e-06  6.86278364e+01  1.64503188e-02  4.23142012e+01  2.82433774e-06  6.87985888e+01  2.20759744e-02  7.68499036e+01 
                       2.21716814e-02  7.67939121e+01  2.82433754e-06  6.87985846e+01  1.65385049e-02  4.19246172e+01  2.00272315e-06  6.85569477e+01 
                       1.51264441e-06  6.80659669e+01  2.20759739e-02  7.68499035e+01  2.00272333e-06  6.85569540e+01  1.64550864e-02  4.24521201e+01 
0.0200000000           2.53700009e-02  3.47129502e+01  3.67512428e-06  5.54958980e+01  4.32313592e-02  6.83727579e+01  2.73256575e-06  5.53643038e+01 
                       3.67513235e-06  5.54960093e+01  2.54140024e-02  3.52290363e+01  5.15302257e-06  5.52791324e+01  4.30587169e-02  6.84778696e+01 
                       4.32314755e-02  6.83727008e+01  5.15299148e-06  5.52789339e+01  2.54758305e-02  3.48466516e+01  3.63853722e-06  5.54001494e+01 
                       2.73255281e-06  5.53642271e+01  4.30586973e-02  6.84778593e+01  3.63854726e-06  5.54000104e+01  2.54583476e-02  3.53174742e+01 
0.0300000000           3.15398998e-02  2.56223850e+01  4.93336909e-06  4.15491206e+01  6.29581872e-02  5.94214849e+01  3.65081208e-06  4.17957693e+01 
                       4.93337316e-06  4.15491191e+01  3.16756109e-02  2.61048910e+01  6.95056099e-06  4.09521824e+01  6.27366306e-02  5.95743714e+01 
                       6.29581946e-02  5.94214740e+01  6.95055058e-06  4.09521912e+01  3.16890964e-02  2.57068820e+01  4.88643496e-06  4.14195238e+01 
                       3.65080790e-06  4.17957745e+01  6.27366260e-02  5.95743712e+01  4.88643654e-06  4.14194932e+01  3.17654768e-02  2.61404311e+01 
0.0400000000           3.57691041e-02  1.59909182e+01  5.71953023e-06  2.66732602e+01  8.11253984e-02  5.04352778e+01  4.21051293e-06  2.73231625e+01 
                       5.71951664e-06  2.66733299e+01  3.60246784e-02  1.64318220e+01  8.10786355e-06  2.56635184e+01  8.08880883e-02  5.06303005e+01 
                       8.11253911e-02  5.04352935e+01  8.10789289e-06  2.56634261e+01  3.59760707e-02  1.60237473e+01  5.67024647e-06  2.64991385e+01 
                       4.21052468e-06  2.73231215e+01  8.08880933e-02  5.06302973e+01  5.67024257e-06  2.64992098e+01  3.61625582e-02  1.64066178e+01 
0.0500000000           3.82394195e-02  5.86926342e+00  5.98557696e-06  1.02039898e+01  9.74860801e-02  4.14734343e+01  4.37534260e-06  1.13008772e+01 
                       5.98554891e-06  1.02042270e+01  3.86214644e-02  6.24304045e+00  8.56066111e-06  8.75838912e+00  9.72723981e-02  4.17051690e+01 
                       9.74860798e-02  4.14734474e+01  8.56071532e-06  8.75815642e+00  3.85007421e-02  5.83103916e+00  5.94394432e-06  9.97537433e+00 
                       4.37536113e-06  1.13008119e+01  9.72724026e-02  4.17051619e+01  5.94393524e-06  9.97549127e+00  3.88061644e-02  6.14449163e+00 
0.0600000000           3.90012249e-02  -4.82540623e+00 5.75267408e-06  -9.24255649e+00 1.11799744e-01  3.25451946e+01  4.15807359e-06  -7.68624607e+00
                       5.75263557e-06  -9.24215065e+00 3.95045116e-02  -4.54132683e+00 8.34393049e-06  -1.10638589e+01 1.11652509e-01  3.28069617e+01 
                       1.11799747e-01  3.25451993e+01  8.34399255e-06  -1.10641569e+01 3.93071618e-02  -4.94859635e+00 5.73053666e-06  -9.52252463e+00
                       4.15808373e-06  -7.68624099e+00 1.11652505e-01  3.28069533e+01  5.73052215e-06  -9.52241494e+00 3.97323025e-02  -4.72721778e+00
0.0700000000           3.81111775e-02  -1.62903416e+01 5.18361549e-06  -3.44491422e+01 1.23847333e-01  2.36529067e+01  3.67453846e-06  -3.26703556e+01
                       5.18356557e-06  -3.44486528e+01 3.87237918e-02  -1.61192600e+01 7.68796703e-06  -3.62330196e+01 1.23809243e-01  2.39364634e+01 
                       1.23847334e-01  2.36529056e+01  7.68802261e-06  -3.62332925e+01 3.84515416e-02  -1.65132178e+01 5.19303004e-06  -3.46999610e+01
                       3.67452483e-06  -3.26702701e+01 1.23809230e-01  2.39364556e+01  5.19301272e-06  -3.46999218e+01 3.89901485e-02  -1.64082602e+01
0.0800000000           3.56806332e-02  -2.89099443e+01 4.75682775e-06  -6.93679964e+01 1.33442965e-01  1.47983078e+01  3.28912130e-06  -6.85021819e+01
                       4.75676718e-06  -6.93676789e+01 3.63872695e-02  -2.88758974e+01 7.22107918e-06  -6.98020511e+01 1.33553005e-01  1.50937895e+01 
                       1.33442965e-01  1.47983043e+01  7.22111827e-06  -6.98022545e+01 3.60473491e-02  -2.92526575e+01 4.79985307e-06  -6.92612440e+01
                       3.28908214e-06  -6.85023759e+01 1.33552987e-01  1.50937838e+01  4.79984089e-06  -6.92613158e+01 3.66900261e-02  -2.92870449e+01
0.0900000000           3.19236395e-02  -4.34180126e+01 5.34044420e-06  -1.11043082e+02 1.40439727e-01  5.98376849e+00  3.70768085e-06  -1.12238457e+02
                       5.34039417e-06  -1.11043135e+02 3.27112383e-02  -4.35388686e+01 8.02138123e-06  -1.09193149e+02 1.40729747e-01  6.27961889e+00 
                       1.40439726e-01  5.98376500e+00  8.02140610e-06  -1.09193321e+02 3.23135629e-02  -4.39065393e+01 5.38515461e-06  -1.10261887e+02
                       3.70765396e-06  -1.12239120e+02 1.40729731e-01  6.27961500e+00  5.38515471e-06  -1.10261943e+02 3.30539787e-02  -4.40926007e+01
0.1000000000           2.72564419e-02  -6.12483427e+01 7.37317510e-06  -1.46033615e+02 1.44731152e-01  -2.78622994e+00 5.26615111e-06  -1.47844048e+02
                       7.37316463e-06  -1.46033721e+02 2.81225502e-02  -6.15053898e+01 1.06980639e-05  -1.43582870e+02 1.45222766e-01  -2.50341241e+00
                       1.44731154e-01  -2.78622975e+00 1.06980828e-05  -1.43582960e+02 2.76775841e-02  -6.19038696e+01 7.37851832e-06  -1.44967490e+02
                       5.26616444e-06  -1.47844243e+02 1.45222765e-01  -2.50341433e+00 7.37852219e-06  -1.44967407e+02 2.85197740e-02  -6.22075013e+01
0.1100000000           2.25330660e-02  -8.49269466e+01 1.04974225e-05  -1.71173409e+02 1.46246126e-01  -1.15022966e+01 7.64190682e-06  -1.72543948e+02
                       1.04974172e-05  -1.71173501e+02 2.34999989e-02  -8.51409381e+01 1.48836627e-05  -1.69301293e+02 1.46948916e-01  -1.12476642e+01
                       1.46246128e-01  -1.15022939e+01 1.48836859e-05  -1.69301319e+02 2.30207415e-02  -8.56743118e+01 1.04504942e-05  -1.70130318e+02
                       7.64192514e-06  -1.72544029e+02 1.46948916e-01  -1.12476629e+01 1.04504943e-05  -1.70130255e+02 2.39821721e-02  -8.59143115e+01
0.1200000000           1.95520846e-02  -1.17813018e+02 1.42796349e-05  1.69539206e+02  1.44985801e-01  -2.01504760e+01 1.04998643e-05  1.68726509e+02 
                       1.42796344e-05  1.69539134e+02  2.06142401e-02  -1.17450286e+02 2.00089959e-05  1.70699195e+02  1.45894316e-01  -1.99422964e+01
                       1.44985803e-01  -2.01504708e+01 2.00090190e-05  1.70699201e+02  2.01390056e-02  -1.18345362e+02 1.41807915e-05  1.70500271e+02 
                       1.04998842e-05  1.68726484e+02  1.45894318e-01  -1.99422932e+01 1.41807889e-05  1.70500316e+02  2.12024560e-02  -1.17965631e+02
0.1300000000           2.08283847e-02  -1.56056558e+02 1.84149935e-05  1.53309057e+02  1.40988478e-01  -2.87107568e+01 1.36182109e-05  1.52977778e+02 
                       1.84149971e-05  1.53309001e+02  2.19006312e-02  -1.54780663e+02 2.56430154e-05  1.53862896e+02  1.42080988e-01  -2.85705154e+01
                       1.40988478e-01  -2.87107502e+01 2.56430364e-05  1.53862913e+02  2.14847662e-02  -1.56021164e+02 1.82681944e-05  1.54196788e+02 
                       1.36182308e-05  1.52977781e+02  1.42080988e-01  -2.85705101e+01 1.82681898e-05  1.54196822e+02  2.25404242e-02  -1.54705416e+02
0.1400000000           2.68149062e-02  1.72102424e+02  2.26450634e-05  1.38735169e+02  1.34349058e-01  -3.71520101e+01 1.68080577e-05  1.38803108e+02 
                       2.26450707e-05  1.38735127e+02  2.78642109e-02  1.73644353e+02  3.14223751e-05  1.38794086e+02  1.35587298e-01  -3.71055109e+01
                       1.34349073e-01  -3.71520010e+01 3.14223922e-05  1.38794110e+02  2.74928045e-02  1.72431780e+02  2.24565458e-05  1.39565929e+02 
                       1.68080762e-05  1.38803128e+02  1.35587312e-01  -3.71055029e+01 2.24565398e-05  1.39565953e+02  2.84841835e-02  1.74022224e+02 
0.1500000000           3.57130941e-02  1.49089360e+02  2.67169074e-05  1.25114359e+02  1.25221069e-01  -4.54266438e+01 1.98808270e-05  1.25520974e+02 
                       2.67169182e-05  1.25114326e+02  3.68175436e-02  1.50437615e+02  3.69993109e-05  1.24758833e+02  1.26550859e-01  -4.55058950e+01
                       1.25221080e-01  -4.54266320e+01 3.69993231e-05  1.24758858e+02  3.64186789e-02  1.49402998e+02  2.64946688e-05  1.25901194e+02 
                       1.98808432e-05  1.25521002e+02  1.26550870e-01  -4.55058846e+01 2.64946614e-05  1.25901214e+02  3.74106654e-02  1.50798587e+02 
0.1600000000           4.59696505e-02  1.31525288e+02  3.03736280e-05  1.12075034e+02  1.13817034e-01  -5.34613372e+01 2.26421006e-05  1.12782594e+02 
                       3.03736416e-05  1.12075009e+02  4.72094127e-02  1.32597179e+02  4.20271533e-05  1.11354723e+02  1.15169467e-01  -5.37079622e+01
                       1.13817045e-01  -5.34613266e+01 4.20271619e-05  1.11354749e+02  4.67207552e-02  1.31730143e+02  3.01277846e-05  1.12827783e+02 
                       2.26421153e-05  1.12782627e+02  1.15169479e-01  -5.37079526e+01 3.01277764e-05  1.12827798e+02  4.77883445e-02  1.32844472e+02 
0.1700000000           5.66504571e-02  1.16907394e+02  3.33621940e-05  9.94123399e+01  1.00406298e-01  -6.11377181e+01 2.48996122e-05  1.00404054e+02 
                       3.33622100e-05  9.94123222e+01  5.80742861e-02  1.17720128e+02  4.61659544e-05  9.83491604e+01  1.01699033e-01  -6.16092105e+01
                       1.00406312e-01  -6.11377085e+01 4.61659598e-05  9.83491836e+01  5.74530074e-02  1.16990991e+02  3.31037040e-05  1.00139145e+02 
                       2.48996249e-05  1.00404087e+02  1.01699048e-01  -6.16092020e+01 3.31036959e-05  1.00139156e+02  5.86436339e-02  1.17842533e+02 
0.1800000000           6.71150032e-02  1.03934787e+02  3.54434726e-05  8.70130509e+01  8.53114873e-02  -6.82476667e+01 2.64697140e-05  8.82961709e+01 
                       3.54434905e-05  8.70130385e+01  6.87432314e-02  1.04514750e+02  4.90978032e-05  8.55990661e+01  8.64489102e-02  -6.90298325e+01
                       8.53115115e-02  -6.82476607e+01 4.90978039e-05  8.55990887e+01  6.79618788e-02  1.03903093e+02  3.51863697e-05  8.77188565e+01 
                       2.64697242e-05  8.82962066e+01  8.64489351e-02  -6.90298272e+01 3.51863602e-05  8.77188663e+01  6.92971189e-02  1.04520433e+02 
0.1900000000           7.68457795e-02  9.19386646e+01  3.64124539e-05  7.48089130e+01  6.89117539e-02  -7.43772362e+01 2.71970216e-05  7.64141900e+01 
                       3.64124732e-05  7.48089050e+01  7.86752956e-02  9.23050033e+01  5.05457295e-05  7.30064971e+01  6.97814094e-02  -7.56110899e+01
                       6.89117775e-02  -7.43772335e+01 5.05457270e-05  7.30065179e+01  7.77196707e-02  9.18000401e+01  3.61719166e-05  7.54990041e+01 
                       2.71970292e-05  7.64142258e+01  6.97814342e-02  -7.56110879e+01 3.61719075e-05  7.54990111e+01  7.92000036e-02  9.22040554e+01 
0.2000000000           8.53911050e-02  8.05583961e+01  3.61108769e-05  6.27559465e+01  5.16788982e-02  -7.85515165e+01 2.69630471e-05  6.47458136e+01 
                       3.61108963e-05  6.27559426e+01  8.73985360e-02  8.07221062e+01  5.02920775e-05  6.04887611e+01  5.21360255e-02  -8.04972779e+01
                       5.16789150e-02  -7.85515172e+01 5.02920731e-05  6.04887780e+01  8.62664577e-02  8.03196848e+01  3.59032518e-05  6.34344284e+01 
                       2.69630520e-05  6.47458492e+01  5.21360431e-02  -8.04972783e+01 3.59032422e-05  6.34344335e+01  8.78743462e-02  8.05224553e+01 
0.2100000000           9.23509090e-02  6.95889716e+01  3.44378018e-05  5.08124559e+01  3.43709762e-02  -7.78423903e+01 2.56950279e-05  5.32939133e+01 
                       3.44378208e-05  5.08124557e+01  9.44949038e-02  6.95543462e+01  4.81922528e-05  4.79503298e+01  3.41797080e-02  -8.10237370e+01
                       3.43709894e-02  -7.78424002e+01 4.81922460e-05  4.79503451e+01  9.31969019e-02  6.92550786e+01  3.42803995e-05  5.14819823e+01 
                       2.56950291e-05  5.32939486e+01  3.41797223e-02  -8.10237462e+01 3.42803894e-05  5.14819847e+01  9.48988713e-02  6.92613447e+01 
0.2200000000           9.73803665e-02  5.89086821e+01  3.13544907e-05  3.89156820e+01  1.93059217e-02  -6.02658287e+01 2.33688364e-05  4.20687207e+01 
                       3.13545088e-05  3.89156848e+01  9.96039897e-02  5.86744562e+01  4.41836165e-05  3.52424889e+01  1.79425226e-02  -6.47852363e+01
                       1.93059283e-02  -6.02658596e+01 4.41836082e-05  3.52425023e+01  9.81631250e-02  5.84824233e+01  3.12647756e-05  3.95764467e+01 
                       2.33688352e-05  4.20687566e+01  1.79425306e-02  -6.47852658e+01 3.12647664e-05  3.95764496e+01  9.99118522e-02  5.82908325e+01 
0.2300000000           1.00197258e-01  4.84422444e+01  2.68829599e-05  2.69382697e+01  1.70000562e-02  -5.44406625e+00 2.00060706e-05  3.10851734e+01 
                       2.68829771e-05  2.69382756e+01  1.02430920e-01  4.80020687e+01  3.82900373e-05  2.20784979e+01  1.52265468e-02  -1.47720380e+00
                       1.70000551e-02  -5.44406502e+00 3.82900269e-05  2.20785048e+01  1.00881136e-01  4.79242858e+01  2.68772367e-05  2.75867686e+01 
                       2.00060659e-05  3.10852066e+01  1.52265459e-02  -1.47720575e+00 2.68772266e-05  2.75867695e+01  1.02617981e-01  4.75279086e+01 
0.2400000000           1.00589959e-01  3.81410912e+01  2.11017325e-05  1.45635940e+01  3.04608160e-02  2.02810736e+01  1.56676117e-05  2.03694089e+01 
                       2.11017471e-05  1.45636056e+01  1.02755162e-01  3.74831646e+01  3.06333300e-05  7.78785956e+00  3.00178991e-02  2.43388125e+01 
                       3.04608153e-02  2.02810720e+01  3.06333204e-05  7.78786373e+00  1.01140188e-01  3.75297570e+01  2.11941728e-05  1.51901616e+01 
                       1.56676057e-05  2.03694444e+01  3.00178989e-02  2.43388094e+01  2.11941631e-05  1.51901585e+01  1.02798575e-01  3.69157079e+01 
0.2500000000           9.84229252e-02  2.79721238e+01  1.41470872e-05  7.39242379e-01  4.73611653e-02  2.32602497e+01  1.04449266e-05  1.00071526e+01 
                       1.41471010e-05  7.39266548e-01  1.00436646e-01  2.70777074e+01  2.14917525e-05  -9.65821129e+00 4.78008150e-02  2.59557097e+01 
                       4.73611713e-02  2.32602461e+01  2.14917429e-05  -9.65822117e+00 9.88072405e-02  2.72628566e+01  1.43486892e-05  1.33494582e+00 
                       1.04449182e-05  1.00071896e+01  4.78008204e-02  2.59557040e+01  1.43486794e-05  1.33493776e+00  1.00316614e-01  2.64106835e+01 
0.2600000000           9.36400710e-02  1.79106184e+01  6.30144734e-06  -2.13069299e+01 6.44031855e-02  2.00499443e+01  4.45257050e-06  6.34546197e-01 
                       6.30145685e-06  -2.13068658e+01 9.54197076e-02  1.67507583e+01  1.17536165e-05  -3.97641863e+01 6.55239672e-02  2.19007224e+01 
                       6.44031948e-02  2.00499374e+01  1.17536097e-05  -3.97642283e+01 9.38304084e-02  1.70948510e+01  6.61740923e-06  -2.04019262e+01
                       4.45255934e-06  6.34612880e-01  6.55239766e-02  2.19007144e+01  6.61739861e-06  -2.04019591e+01 9.51209138e-02  1.59729622e+01 
0.2700000000           8.62645909e-02  7.93504580e+00  3.72100354e-06  -1.56044031e+02 8.07341920e-02  1.45611403e+01  2.18876580e-06  1.64707237e+02 
                       3.72099403e-06  -1.56043975e+02 8.77330507e-02  6.46386789e+00  8.11442550e-06  -1.24895253e+02 8.24288053e-02  1.58337060e+01 
                       8.07341998e-02  1.45611315e+01  8.11443358e-06  -1.24895310e+02 8.62389728e-02  6.99784091e+00  3.47846334e-06  -1.49682438e+02
                       2.18877899e-06  1.64707180e+02  8.24288124e-02  1.58336962e+01  3.47847251e-06  -1.49682567e+02 8.72462901e-02  5.55616333e+00 
0.2800000000           7.63969388e-02  -1.97885652e+00 1.28172276e-05  1.67580990e+02  9.59042306e-02  8.00328943e+00  9.31583315e-06  1.57458221e+02 
                       1.28172196e-05  1.67580987e+02  7.74877273e-02  -3.83829183e+00 1.81359862e-05  -1.78010157e+02 9.80781258e-02  8.83199486e+00 
                       9.59042386e-02  8.00327813e+00  1.81359985e-05  -1.78010156e+02 7.61402724e-02  -3.06319748e+00 1.23510188e-05  1.69493533e+02 
                       9.31584845e-06  1.57458221e+02  9.80781331e-02  8.83198285e+00  1.23510309e-05  1.69493526e+02  7.68107397e-02  -4.90893066e+00
0.2900000000           6.42089280e-02  -1.18676319e+01 2.27904102e-05  1.52952497e+02  1.09568850e-01  8.62120169e-01  1.67839763e-05  1.47804734e+02 
                       2.27904040e-05  1.52952495e+02  6.48711807e-02  -1.42564095e+01 3.13837447e-05  1.60746278e+02  1.12116261e-01  1.32136029e+00 
                       1.09568853e-01  8.62108770e-01  3.13837556e-05  1.60746286e+02  6.37159476e-02  -1.31479127e+01 2.22334462e-05  1.54404186e+02 
                       1.67839912e-05  1.47804737e+02  1.12116265e-01  1.32134868e+00  2.22334593e-05  1.54404184e+02  6.40121062e-02  -1.55533190e+01
0.3000000000           4.99376898e-02  -2.18080013e+01 3.30062382e-05  1.40983422e+02  1.21429590e-01  -6.62634146e+00 2.44137572e-05  1.37974997e+02 
                       3.30062323e-05  1.40983422e+02  5.01426696e-02  -2.50235340e+01 4.53273858e-05  1.45811532e+02  1.24226832e-01  -6.49115950e+00
                       1.21429589e-01  -6.62635263e+00 4.53273955e-05  1.45811537e+02  4.92136126e-02  -2.33880533e+01 3.23911322e-05  1.42286813e+02 
                       2.44137725e-05  1.37975001e+02  1.24226832e-01  -6.49117081e+00 3.23911462e-05  1.42286811e+02  4.91226000e-02  -2.66856953e+01
0.3100000000           3.38767821e-02  -3.20260555e+01 4.31506144e-05  1.29865265e+02  1.31225605e-01  -1.43273756e+01 3.20058855e-05  1.28107848e+02 
                       4.31506093e-05  1.29865266e+02  3.36342425e-02  -3.68688211e+01 5.92696066e-05  1.32953759e+02  1.34131625e-01  -1.44854918e+01
                       1.31225599e-01  -1.43273868e+01 5.92696158e-05  1.32953763e+02  3.29422505e-02  -3.41927894e+01 4.25075528e-05  1.31096512e+02 
                       3.20059018e-05  1.28107852e+02  1.34131620e-01  -1.44855031e+01 4.25075670e-05  1.31096511e+02  3.25007842e-02  -3.93018182e+01
0.3200000000           1.63762097e-02  -4.37483097e+01 5.29051616e-05  1.19127223e+02  1.38740462e-01  -2.21518372e+01 3.93353422e-05  1.18223800e+02 
