# GHz S MA R 50
! S-Parameters data
! Freq  magS11  angS11  magS12  angS12  magS13  angS13  magS14  angS14
!       magS21  angS21  magS22  angS22  magS23  angS23  magS24  angS24
!       magS31  angS31  magS32  angS32  magS33  angS33  magS34  angS34
!       magS41  angS41  magS42  angS42  magS43  angS43  magS44  angS44
!     
0.0000000000           1.26353830e-02  -6.03605227e+00 6.40932565e-06  -1.00830224e+02 1.36130364e-03  3.49192523e+01  5.54985698e-06  -1.01365607e+02
                       6.40939525e-06  -1.00830131e+02 1.26335831e-02  -3.50002205e+00 6.38877714e-06  -1.00094317e+02 1.37810493e-03  3.71316099e+01 
                       1.36460169e-03  3.48132024e+01  6.38880536e-06  -1.00094303e+02 1.26152791e-02  -5.99473695e+00 6.28942587e-06  -1.00535362e+02
                       5.54987665e-06  -1.01365552e+02 1.38261720e-03  3.69786375e+01  6.28935771e-06  -1.00535431e+02 1.26483755e-02  -3.54569310e+00
0.0100000000           2.08877047e-02  3.71096701e+01  5.69385087e-05  -1.08361364e+02 2.03059738e-02  7.44034151e+01  5.05311000e-05  -1.08469263e+02
                       5.69391822e-05  -1.08361464e+02 2.08160963e-02  4.01720137e+01  6.12559075e-05  -1.08165628e+02 2.04466574e-02  7.66347809e+01 
                       2.03057361e-02  7.43918540e+01  6.12559062e-05  -1.08165599e+02 2.09014106e-02  3.71872009e+01  5.84767500e-05  -1.08373255e+02
                       5.05309834e-05  -1.08469205e+02 2.04462746e-02  7.66186815e+01  5.84759291e-05  -1.08373127e+02 2.08093238e-02  4.01094010e+01 
0.0200000000           3.44830299e-02  3.84680241e+01  1.08928939e-04  -1.20340994e+02 3.97126442e-02  6.38189039e+01  9.66907731e-05  -1.20908675e+02
                       1.08930171e-04  -1.20341242e+02 3.42923771e-02  4.47066514e+01  1.17235374e-04  -1.20341139e+02 4.00787463e-02  6.81333996e+01 
                       3.97122536e-02  6.38131252e+01  1.17235415e-04  -1.20341078e+02 3.45466680e-02  3.84285717e+01  1.11822650e-04  -1.20672100e+02
                       9.66906147e-05  -1.20908607e+02 4.00775767e-02  6.81256251e+01  1.11821172e-04  -1.20671838e+02 3.42643988e-02  4.46628022e+01 
0.0300000000           4.76673079e-02  3.06079957e+01  1.55764291e-04  -1.32402750e+02 5.78459178e-02  5.24988019e+01  1.37932136e-04  -1.33393379e+02
                       1.55765866e-04  -1.32403051e+02 4.72920007e-02  3.99549178e+01  1.67630725e-04  -1.32550893e+02 5.84786161e-02  5.88505756e+01 
                       5.78448047e-02  5.24952265e+01  1.67630801e-04  -1.32550796e+02 4.77365517e-02  3.06385623e+01  1.59657290e-04  -1.33011972e+02
                       1.37931978e-04  -1.33393209e+02 5.84769205e-02  5.88457055e+01  1.59655431e-04  -1.33011601e+02 4.72492705e-02  3.99214645e+01 
0.0400000000           5.93930845e-02  2.02170895e+01  1.97448007e-04  -1.43988330e+02 7.43660103e-02  4.11524045e+01  1.74076667e-04  -1.45359590e+02
                       1.97449741e-04  -1.43988692e+02 5.86567023e-02  3.26815209e+01  2.12306901e-04  -1.44270086e+02 7.52900507e-02  4.95312089e+01 
                       7.43646229e-02  4.11499510e+01  2.12307158e-04  -1.44269962e+02 5.94919931e-02  2.02404962e+01  2.01794724e-04  -1.44848170e+02
                       1.74076644e-04  -1.45359369e+02 7.52879905e-02  4.95278329e+01  2.01792681e-04  -1.44847716e+02 5.86044899e-02  3.26531431e+01 
0.0500000000           6.93843702e-02  9.05532536e+00  2.34238609e-04  -1.54988610e+02 8.90501834e-02  2.99064140e+01  2.05223639e-04  -1.56678925e+02
                       2.34240269e-04  -1.54989018e+02 6.81388070e-02  2.46745320e+01  2.51468102e-04  -1.55384359e+02 9.02736540e-02  4.03040424e+01 
                       8.90486362e-02  2.99045911e+01  2.51468592e-04  -1.55384227e+02 6.94985211e-02  9.06827838e+00  2.38389092e-04  -1.56056006e+02
                       2.05223771e-04  -1.56678684e+02 9.02713865e-02  4.03015730e+01  2.38387110e-04  -1.56055492e+02 6.80820216e-02  2.46487356e+01 
0.0600000000           7.76503375e-02  -2.27772227e+00 2.66766708e-04  -1.65356997e+02 1.01745736e-01  1.87746603e+01  2.31860254e-04  -1.67274238e+02
                       2.66768235e-04  -1.65357428e+02 7.57869861e-02  1.65235670e+01  2.85748241e-04  -1.65837461e+02 1.03261203e-01  3.11874448e+01 
                       1.01744091e-01  1.87732497e+01  2.85748932e-04  -1.65837329e+02 7.77763383e-02  -2.27260750e+00 2.70028259e-04  -1.66567122e+02
                       2.31860698e-04  -1.67273988e+02 1.03258836e-01  3.11855779e+01  2.70026601e-04  -1.66566576e+02 7.57304900e-02  1.64991285e+01 
0.0700000000           8.42906012e-02  -1.35690924e+01 2.96002080e-04  -1.75080090e+02 1.12336306e-01  7.74178611e+00  2.54858945e-04  -1.77093845e+02
                       2.96003324e-04  -1.75080525e+02 8.17504421e-02  8.42835769e+00  3.16185568e-04  -1.75603050e+02 1.14123156e-01  2.21703723e+01 
                       1.12334615e-01  7.74067392e+00  3.16186538e-04  -1.75602928e+02 8.44256501e-02  -1.35729820e+01 2.97721130e-04  -1.76341435e+02
                       2.54859703e-04  -1.77093601e+02 1.14120782e-01  2.21689262e+01  2.97719860e-04  -1.76340885e+02 8.16991459e-02  8.40459454e+00 
0.0800000000           8.94131420e-02  -2.47497991e+01 3.23208860e-04  1.75825699e+02  1.20726509e-01  -3.21353984e+00 2.75467060e-04  1.73884910e+02 
                       3.23209734e-04  1.75825280e+02  8.61905359e-02  4.38623814e-01  3.44188651e-04  1.75315277e+02  1.22753340e-01  1.32355471e+01 
                       1.20724820e-01  -3.21442424e+00 3.44189922e-04  1.75315378e+02  8.95518246e-02  -2.47639891e+01 3.22875773e-04  1.74630542e+02 
                       2.75468112e-04  1.73885131e+02  1.22751040e-01  1.32344017e+01  3.22874946e-04  1.74631074e+02  8.61494176e-02  4.15057999e-01 
0.0900000000           9.31059014e-02  -3.58069515e+01 3.49910714e-04  1.67306308e+02  1.26838147e-01  -1.41112564e+01 2.95298140e-04  1.65635719e+02 
                       3.49911340e-04  1.67305916e+02  8.92423336e-02  -7.45687514e+00 3.71505397e-04  1.66871849e+02  1.29065022e-01  4.36709481e+00 
                       1.26836545e-01  -1.41119729e+01 3.71506999e-04  1.66871919e+02  9.32421260e-02  -3.58316502e+01 3.47277593e-04  1.66311405e+02 
                       2.95299641e-04  1.65635903e+02  1.29062823e-01  4.36617504e+00  3.47277222e-04  1.66311903e+02  8.92163354e-02  -7.48065371e+00
0.1000000000           9.54300479e-02  -4.67490596e+01 3.77830682e-04  1.59258189e+02  1.30611511e-01  -2.49679547e+01 3.16276659e-04  1.58054866e+02 
                       3.77830964e-04  1.59257834e+02  9.10023724e-02  -1.52930618e+01 4.00153464e-04  1.58962058e+02  1.32992246e-01  -4.44726049e+00
                       1.30610023e-01  -2.49685443e+01 4.00155376e-04  1.58962087e+02  9.55592254e-02  -4.67840375e+01 3.73020094e-04  1.58594186e+02 
                       3.16278448e-04  1.58054995e+02  1.32990212e-01  -4.44801699e+00 3.73020134e-04  1.58594635e+02  9.09963928e-02  -1.53174817e+01
0.1100000000           9.64160228e-02  -5.75937123e+01 4.08806383e-04  1.51523321e+02  1.32008451e-01  -3.57968371e+01 3.40512830e-04  1.50941048e+02 
                       4.08806410e-04  1.51523010e+02  9.15842440e-02  -2.31137513e+01 4.32304570e-04  1.51413760e+02  1.34494030e-01  -1.32156070e+01
                       1.32007069e-01  -3.57973369e+01 4.32306808e-04  1.51413744e+02  9.65307258e-02  -5.76404338e+01 4.02374923e-04  1.51288684e+02 
                       3.40514908e-04  1.50941114e+02  1.34492134e-01  -1.32162353e+01 4.02375252e-04  1.51289072e+02  9.16034919e-02  -2.31393501e+01
0.1200000000           9.60833482e-02  -6.83547670e+01 4.44516510e-04  1.43892414e+02  1.31014634e-01  -4.66073897e+01 3.69970257e-04  1.44000780e+02 
                       4.44516367e-04  1.43892148e+02  9.09413882e-02  -3.09592904e+01 4.69953838e-04  1.43990931e+02  1.33552384e-01  -2.19413144e+01
                       1.31013338e-01  -4.66078124e+01 4.69956138e-04  1.43990870e+02  9.61778443e-02  -6.84139395e+01 4.37430330e-04  1.44126957e+02 
                       3.69972550e-04  1.44000783e+02  1.33550657e-01  -2.19418527e+01 4.37431002e-04  1.44127283e+02  9.09902718e-02  -3.09866449e+01
0.1300000000           9.44305897e-02  -7.90440096e+01 4.86370582e-04  1.36138662e+02  1.27642048e-01  -5.74052995e+01 4.06241455e-04  1.36900607e+02 
                       4.86370338e-04  1.36138438e+02  8.90808158e-02  -3.88675149e+01 5.14750433e-04  1.36434311e+02  1.30180084e-01  -3.06227652e+01
                       1.27640854e-01  -5.74056655e+01 5.14752819e-04  1.36434208e+02  9.44991856e-02  -7.91165625e+01 4.79888240e-04  1.36811042e+02 
                       4.06243881e-04  1.36900549e+02  1.30178512e-01  -3.06232303e+01 4.79889068e-04  1.36811307e+02  8.91634439e-02  -3.88973006e+01
0.1400000000           9.14489393e-02  -8.96660503e+01 5.35289891e-04  1.28049416e+02  1.21932721e-01  -6.81912829e+01 4.50268131e-04  1.29334475e+02 
                       5.35289714e-04  1.28049231e+02  8.59938896e-02  -4.68719782e+01 5.67729691e-04  1.28502977e+02  1.24421072e-01  -3.92508278e+01
                       1.21931640e-01  -6.81916088e+01 5.67732095e-04  1.28502840e+02  9.14859742e-02  -8.97530980e+01 5.30772241e-04  1.29067323e+02 
                       4.50270710e-04  1.29334366e+02  1.24419639e-01  -3.92512311e+01 5.30773141e-04  1.29067536e+02  8.61138942e-02  -4.69049399e+01
0.1500000000           8.71294737e-02  -1.00215038e+02 5.91579856e-04  1.19458117e+02  1.13962021e-01  -7.89589018e+01 5.02217723e-04  1.21082019e+02 
                       5.91579614e-04  1.19457961e+02  8.16665756e-02  -5.50012978e+01 6.29171983e-04  1.20013895e+02  1.16353348e-01  -4.78046530e+01
                       1.13961039e-01  -7.89591923e+01 6.29174460e-04  1.20013734e+02  8.71295217e-02  -1.00317919e+02 5.90291875e-04  1.20695027e+02 
                       5.02220175e-04  1.21081875e+02  1.16352061e-01  -4.78050120e+01 5.90292628e-04  1.20695200e+02  8.18270214e-02  -5.50382739e+01
0.1600000000           8.14715258e-02  -1.10669499e+02 6.54883526e-04  1.10261416e+02  1.03842765e-01  -8.96903678e+01 5.61498356e-04  1.12030461e+02 
                       6.54883371e-04  1.10261283e+02  7.60904512e-02  -6.32796954e+01 6.98575775e-04  1.10860681e+02  1.06093253e-01  -5.62438294e+01
                       1.03841879e-01  -8.96906299e+01 6.98578155e-04  1.10860505e+02  8.14295626e-02  -1.10789845e+02 6.57840925e-04  1.11586069e+02 
                       5.61500742e-04  1.12030295e+02  1.06092103e-01  -5.62441537e+01 6.57841587e-04  1.11586212e+02  7.62937366e-02  -6.33216709e+01
0.1700000000           7.44916378e-02  -1.20983059e+02 7.24202429e-04  1.00419640e+02  9.17294632e-02  -1.00347997e+02 6.26857078e-04  1.02162428e+02 
                       7.24202393e-04  1.00419520e+02  6.92731667e-02  -7.17288624e+01 7.74712380e-04  1.01010584e+02  9.38001337e-02  -6.44919633e+01
                       9.17286598e-02  -1.00348227e+02 7.74714476e-04  1.01010403e+02  7.44031630e-02  -1.21122837e+02 7.32082978e-04  1.01717083e+02 
                       6.26859357e-04  1.02162252e+02  9.37991226e-02  -6.44922703e+01 7.32083656e-04  1.01717207e+02  6.95208512e-02  -7.17769812e+01
0.1800000000           6.62334286e-02  -1.31065961e+02 7.97962571e-04  8.99461495e+01  7.78224322e-02  -1.10854788e+02 6.96504197e-04  9.15280192e+01 
                       7.97962673e-04  8.99460413e+01  6.12482484e-02  -8.03722169e+01 8.55727725e-04  9.04886783e+01  7.96829628e-02  -7.23993819e+01
                       7.78217175e-02  -1.10854998e+02 8.55729642e-04  9.04884957e+01  6.60945993e-02  -1.31227549e+02 8.11074937e-04  9.11273236e+01 
                       6.96506336e-04  9.15278393e+01  7.96820712e-02  -7.23996698e+01 8.11075463e-04  9.11274346e+01  6.15409703e-02  -8.04279019e+01
0.1900000000           5.67786472e-02  -1.40744318e+02 8.74112226e-04  7.88930798e+01  6.23717449e-02  -1.21042848e+02 7.68239687e-04  8.02174210e+01 
                       8.74112476e-04  7.88929786e+01  5.20833494e-02  -8.92450906e+01 9.39267993e-04  7.93593751e+01  6.40115137e-02  -7.96440937e+01
                       6.23711158e-02  -1.21043039e+02 9.39269725e-04  7.93591952e+01  5.65864494e-02  -1.40930285e+02 8.92401929e-04  7.98955680e+01 
                       7.68241692e-04  8.02172430e+01  6.40107337e-02  -7.96443654e+01 8.92402310e-04  7.98956706e+01  5.24207048e-02  -8.93101142e+01
0.2000000000           4.62621516e-02  -1.49655599e+02 9.50250224e-04  6.73383261e+01  4.56843874e-02  -1.30480838e+02 8.39585509e-04  6.83411900e+01 
                       9.50250852e-04  6.73382308e+01  4.18859142e-02  -9.84217756e+01 1.02262573e-03  6.77110541e+01  4.71462369e-02  -8.54073937e+01
                       4.56838462e-02  -1.30481047e+02 1.02262746e-03  6.77108776e+01  4.60142941e-02  -1.49867238e+02 9.73325691e-04  6.81224733e+01 
                       8.39587506e-04  6.83410143e+01  4.71455545e-02  -8.54076016e+01 9.73325678e-04  6.81225687e+01  4.22663693e-02  -9.84982365e+01
0.2100000000           3.49023940e-02  -1.56924961e+02 1.02378414e-03  5.53757185e+01  2.81577213e-02  -1.37638561e+02 9.07933254e-04  5.60184660e+01 
                       1.02378467e-03  5.53756239e+01  3.08062759e-02  -1.08105072e+02 1.10291294e-03  5.56454131e+01  2.96752546e-02  -8.68925266e+01
                       2.81572512e-02  -1.37638667e+02 1.10291430e-03  5.56452454e+01  3.45973607e-02  -1.57153983e+02 1.05095296e-03  5.59193489e+01 
                       9.07934963e-04  5.60182984e+01  2.96746684e-02  -8.68926831e+01 1.05095304e-03  5.59194436e+01  3.12271898e-02  -1.08193849e+02
0.2200000000           2.31165491e-02  -1.59842729e+02 1.09211672e-03  4.31081804e+01  1.06992468e-02  -1.30790678e+02 9.70713075e-04  4.33707809e+01 
                       1.09211740e-03  4.31080876e+01  1.90421024e-02  -1.19059524e+02 1.17725858e-03  4.32707739e+01  1.36671658e-02  -6.76691334e+01
                       1.06988669e-02  -1.30790185e+02 1.17725997e-03  4.32706130e+01  2.27552095e-02  -1.60013071e+02 1.12242927e-03  4.34017437e+01 
                       9.70714614e-04  4.33706206e+01  1.36667273e-02  -6.76683283e+01 1.12242897e-03  4.34018366e+01  1.94996924e-02  -1.19142968e+02
0.2300000000           1.23138758e-02  -1.45994472e+02 1.15285283e-03  3.06431612e+01  1.04183280e-02  -1.98273169e+01 1.02558072e-03  3.05191147e+01 
                       1.15285360e-03  3.06430683e+01  6.91262374e-03  -1.37675781e+02 1.24302604e-03  3.06980386e+01  1.43260759e-02  8.93470248e+00 
                       1.04185791e-02  -1.98262861e+01 1.24302703e-03  3.06978868e+01  1.19402147e-02  -1.45358626e+02 1.18514696e-03  3.06860233e+01 
                       1.02558214e-03  3.05189635e+01  1.43262041e-02  8.93615670e+00  1.18514681e-03  3.06861160e+01  7.39693118e-03  -1.37213198e+02
0.2400000000           1.05633450e-02  -8.61643102e+01 1.20399525e-03  1.80894933e+01  2.78458134e-02  -1.22461482e+01 1.07059564e-03  1.75826106e+01 
                       1.20399612e-03  1.80894000e+01  6.12682518e-03  6.55502517e+01  1.29801987e-03  1.80382562e+01  3.06710177e-02  2.59489415e+01 
                       2.78460549e-02  -1.22460532e+01 1.29802070e-03  1.80381127e+01  1.06103077e-02  -8.38923792e+01 1.23694960e-03  1.78875962e+01 
                       1.07059693e-03  1.75824672e+01  3.06712380e-02  2.59493120e+01  1.23694935e-03  1.78876896e+01  5.66546080e-03  6.76720581e+01 
0.2500000000           2.07179368e-02  -6.28790869e+01 1.24411705e-03  5.55514362e+00  4.53771449e-02  -1.93093788e+01 1.10437828e-03  4.67804294e+00 
                       1.24411799e-03  5.55504947e+00  1.84713227e-02  4.50529376e+01  1.34066667e-03  5.40106168e+00  4.83486575e-02  2.41242597e+01 
                       4.53773326e-02  -1.93093935e+01 1.34066735e-03  5.40092635e+00  2.10291595e-02  -6.20155199e+01 1.27630364e-03  5.11995912e+00 
                       1.10437944e-03  4.67790769e+00  4.83488406e-02  2.41243912e+01  1.27630332e-03  5.12005301e+00  1.79575839e-02  4.53966937e+01 
0.2600000000           3.30241295e-02  -6.36127656e+01 1.27247752e-03  -6.85436012e+00 6.20775500e-02  -2.86954831e+01 1.12621824e-03  -8.08017607e+00
                       1.27247850e-03  -6.85445552e+00 3.07132846e-02  3.38239888e+01  1.37014055e-03  -7.10624527e+00 6.54623726e-02  1.82943250e+01 
                       6.20776830e-02  -2.86955296e+01 1.37014110e-03  -7.10637234e+00 3.34172662e-02  -6.32108785e+01 1.30242199e-03  -7.50566841e+00
                       1.12621929e-03  -8.08030325e+00 6.54625051e-02  1.82943710e+01  1.30242162e-03  -7.50557348e+00 3.01878555e-02  3.39751736e+01 
0.2700000000           4.53191586e-02  -6.99882647e+01 1.28908055e-03  -1.90369011e+01 7.75510825e-02  -3.88321492e+01 1.13613105e-03  -2.05795242e+01
                       1.28908155e-03  -1.90369980e+01 4.24903113e-02  2.39109332e+01  1.38642800e-03  -1.93790682e+01 8.14226763e-02  1.10707812e+01 
                       7.75511642e-02  -3.88322082e+01 1.38642845e-03  -1.93791875e+01 4.57521802e-02  -6.97734208e+01 1.31532631e-03  -1.98802044e+01
                       1.13613200e-03  -2.05796433e+01 8.14227553e-02  1.10707862e+01  1.31532591e-03  -1.98801076e+01 4.19652677e-02  2.39939780e+01 
0.2800000000           5.70394783e-02  -7.82921990e+01 1.29467748e-03  -3.08944229e+01 9.14956835e-02  -4.92792061e+01 1.13486661e-03  -3.27086391e+01
                       1.29467848e-03  -3.08945214e+01 5.35732705e-02  1.44506305e+01  1.39033754e-03  -3.13156134e+01 9.58536102e-02  3.23827546e+00 
                       9.14957165e-02  -4.92792699e+01 1.39033789e-03  -3.13157251e+01 5.74930777e-02  -7.81775570e+01 1.31585685e-03  -3.18963191e+01
                       1.13486748e-03  -3.27087502e+01 9.58536398e-02  3.23825781e+00  1.31585644e-03  -3.18962204e+01 5.30591447e-02  1.44979335e+01 
0.2900000000           6.78753203e-02  -8.74185456e+01 1.29073165e-03  -4.23335577e+01 1.03668402e-01  -5.98657945e+01 1.12388813e-03  -4.43566842e+01
                       1.29073289e-03  -4.23336590e+01 6.37671072e-02  5.21107161e+00  1.38347377e-03  -4.28170778e+01 1.08470962e-01  -4.88638554e+00
                       1.03668402e-01  -5.98658563e+01 1.38347405e-03  -4.28171809e+01 6.83358126e-02  -8.73680091e+01 1.30565109e-03  -4.34481912e+01
                       1.12388915e-03  -4.43567864e+01 1.08470937e-01  -4.88642057e+00 1.30565069e-03  -4.34480892e+01 6.32742425e-02  5.23515219e+00 
0.3000000000           7.76032247e-02  -9.69311571e+01 1.27936875e-03  -5.32670796e+01 1.13877605e-01  -7.05139195e+01 1.10534453e-03  -5.54139030e+01
                       1.27936967e-03  -5.32671821e+01 7.29037076e-02  -3.89994108e+00 1.36819669e-03  -5.37888350e+01 1.19056550e-01  -1.31505080e+01
                       1.13877555e-01  -7.05139854e+01 1.36819695e-03  -5.37889318e+01 7.80588005e-02  -9.69269361e+01 1.28711007e-03  -5.44324504e+01
                       1.10534528e-03  -5.54139988e+01 1.19056493e-01  -1.31505482e+01 1.28710971e-03  -5.44323467e+01 7.24423429e-02  -3.89330368e+00
0.3100000000           8.60494398e-02  -1.06626739e+02 1.26332877e-03  -6.36175506e+01 1.21977634e-01  -8.11858469e+01 1.08205244e-03  -6.57754873e+01
                       1.26332987e-03  -6.36176564e+01 8.08384200e-02  -1.29316090e+01 1.34758811e-03  -6.41443147e+01 1.27448377e-01  -2.14716679e+01
                       1.21977573e-01  -8.11859091e+01 1.34758865e-03  -6.41444027e+01 8.64890168e-02  -1.06659121e+02 1.26337706e-03  -6.47523123e+01
                       1.08205341e-03  -6.57755732e+01 1.27448259e-01  -2.14717174e+01 1.26337652e-03  -6.47522041e+01 8.04185778e-02  -1.29395148e+01
0.3200000000           9.30763470e-02  -1.16400999e+02 1.24592952e-03  -7.33250680e+01 1.27863410e-01  -9.18642810e+01 1.05749391e-03  -7.53519901e+01
