# GHz S MA R 50
! S-Parameters data
! Freq  magS11  angS11  magS12  angS12  magS13  angS13  magS14  angS14
!       magS21  angS21  magS22  angS22  magS23  angS23  magS24  angS24
!       magS31  angS31  magS32  angS32  magS33  angS33  magS34  angS34
!       magS41  angS41  magS42  angS42  magS43  angS43  magS44  angS44
!     
0.0000000000           1.26302338e-02  -3.61292486e+00 8.63200948e-08  7.99808900e+01  1.36835140e-03  3.68814923e+01  1.00089911e-07  7.92602144e+01 
                       8.63228906e-08  7.99804451e+01  1.26335831e-02  -3.50002205e+00 8.91425528e-08  8.03677580e+01  1.37810493e-03  3.71316099e+01 
                       1.37169765e-03  3.66693448e+01  8.91411857e-08  8.03678098e+01  1.26478192e-02  -3.62235900e+00 1.04007380e-07  7.96308935e+01 
                       1.00091333e-07  7.92597542e+01  1.38261720e-03  3.69786375e+01  1.04007824e-07  7.96308445e+01  1.26483755e-02  -3.54569310e+00
0.0100000000           2.07507401e-02  4.00439934e+01  6.48169772e-07  7.70742359e+01  2.03936550e-02  7.66405531e+01  6.90885121e-07  7.65739062e+01 
                       6.48169697e-07  7.70742316e+01  2.08160963e-02  4.01720137e+01  7.01652767e-07  7.75460595e+01  2.04466574e-02  7.66347809e+01 
                       2.03932711e-02  7.66244124e+01  7.01644760e-07  7.75462156e+01  2.07799367e-02  4.00575410e+01  7.48536909e-07  7.70403731e+01 
                       6.90877072e-07  7.65740537e+01  2.04462746e-02  7.66186815e+01  7.48536819e-07  7.70403685e+01  2.08093238e-02  4.01094010e+01 
0.0200000000           3.41558734e-02  4.46045825e+01  1.22130400e-06  7.25452994e+01  4.00018276e-02  6.81009827e+01  1.29943443e-06  7.22537819e+01 
                       1.22131458e-06  7.25457834e+01  3.42923771e-02  4.47066514e+01  1.32525161e-06  7.31039743e+01  4.00787463e-02  6.81333996e+01 
                       3.99947625e-02  6.80917335e+01  1.32523869e-06  7.31042272e+01  3.41763364e-02  4.46419366e+01  1.41119706e-06  7.28188726e+01 
                       1.29943121e-06  7.22545653e+01  4.00775767e-02  6.81256251e+01  1.41119623e-06  7.28189046e+01  3.42643988e-02  4.46628022e+01 
0.0300000000           4.70958926e-02  3.98607367e+01  1.71493918e-06  6.79374779e+01  5.83401782e-02  5.88470786e+01  1.82411738e-06  6.77655111e+01 
                       1.71494116e-06  6.79374737e+01  4.72920007e-02  3.99549178e+01  1.86596445e-06  6.86079057e+01  5.84786161e-02  5.88505756e+01 
                       5.83377496e-02  5.88423090e+01  1.86594813e-06  6.86082978e+01  4.71609032e-02  3.98959958e+01  1.98632734e-06  6.84524927e+01 
                       1.82410329e-06  6.77659078e+01  5.84769205e-02  5.88457055e+01  1.98632714e-06  6.84524970e+01  4.72492705e-02  3.99214645e+01 
0.0400000000           5.84175660e-02  3.25868425e+01  2.12945198e-06  6.40082108e+01  7.51224610e-02  4.95254335e+01  2.26659750e-06  6.39158956e+01 
                       2.12944915e-06  6.40082663e+01  5.86567023e-02  3.26815209e+01  2.32441318e-06  6.47715370e+01  7.52900507e-02  4.95312089e+01 
                       7.51214142e-02  4.95218047e+01  2.32439783e-06  6.47720201e+01  5.84981605e-02  3.26255511e+01  2.47602522e-06  6.47059177e+01 
                       2.26657899e-06  6.39164266e+01  7.52879905e-02  4.95278329e+01  2.47602469e-06  6.47059131e+01  5.86044899e-02  3.26531431e+01 
0.0500000000           6.78731448e-02  2.45746764e+01  2.46987228e-06  6.09351226e+01  9.00862460e-02  4.02921249e+01  2.63256622e-06  6.08852639e+01 
                       2.46987103e-06  6.09351604e+01  6.81388070e-02  2.46745320e+01  2.70595354e-06  6.17580818e+01  9.02736540e-02  4.03040424e+01 
                       9.00845798e-02  4.02895028e+01  2.70594160e-06  6.17586007e+01  6.79637012e-02  2.46243978e+01  2.88640986e-06  6.17453938e+01 
                       2.63255251e-06  6.08858217e+01  9.02713865e-02  4.03015730e+01  2.88640913e-06  6.17453953e+01  6.80820216e-02  2.46487356e+01 
0.0600000000           7.55111327e-02  1.64166305e+01  2.74748122e-06  5.88162375e+01  1.03065246e-01  3.11690425e+01  2.93383225e-06  5.87686977e+01 
                       2.74748083e-06  5.88162181e+01  7.57869861e-02  1.65235670e+01  3.02248537e-06  5.96520105e+01  1.03261203e-01  3.11874448e+01 
                       1.03062165e-01  3.11673558e+01  3.02247759e-06  5.96525335e+01  7.56085250e-02  1.64764498e+01  3.23000159e-06  5.96526739e+01 
                       2.93382438e-06  5.87692097e+01  1.03258836e-01  3.11855779e+01  3.23000150e-06  5.96526812e+01  7.57304900e-02  1.64991285e+01 
0.0700000000           8.14811183e-02  8.31363068e+00  2.97911965e-06  5.76980613e+01  1.13930312e-01  2.21451394e+01  3.18777103e-06  5.76086846e+01 
                       2.97911765e-06  5.76979866e+01  8.17504421e-02  8.42835769e+00  3.29157156e-06  5.84864120e+01  1.14123156e-01  2.21703723e+01 
                       1.13925814e-01  2.21441737e+01  3.29156859e-06  5.84869236e+01  8.15800450e-02  8.38177889e+00  3.52497884e-06  5.84568129e+01 
                       3.18776705e-06  5.76091239e+01  1.14120782e-01  2.21689262e+01  3.52497970e-06  5.84568158e+01  8.16991459e-02  8.40459454e+00 
0.0800000000           8.59449480e-02  3.15647016e-01  3.18588180e-06  5.75697933e+01  1.22574763e-01  1.32031206e+01  3.41603649e-06  5.73916898e+01 
                       3.18587931e-06  5.75697328e+01  8.61905359e-02  4.38623814e-01  3.53503949e-06  5.82406624e+01  1.22753340e-01  1.32355471e+01 
                       1.22569505e-01  1.32025573e+01  3.53504229e-06  5.82411440e+01  8.60393033e-02  3.91290113e-01  3.79378169e-06  5.81340844e+01 
                       3.41603769e-06  5.73921031e+01  1.22751040e-01  1.32344017e+01  3.79378254e-06  5.81340787e+01  8.61494176e-02  4.15057999e-01 
0.0900000000           8.90379770e-02  -7.58877601e+00 3.39186432e-06  5.83473488e+01  1.28911101e-01  4.32716205e+00  3.64331167e-06  5.80348078e+01 
                       3.39186371e-06  5.83473171e+01  8.92423336e-02  -7.45687514e+00 3.77772190e-06  5.88284701e+01  1.29065022e-01  4.36709481e+00 
                       1.28906312e-01  4.32662775e+00  3.77773167e-06  5.88288907e+01  8.91221181e-02  -7.50563226e+00 4.06183823e-06  5.85985803e+01 
                       3.64332046e-06  5.80351932e+01  1.29062823e-01  4.36617504e+00  4.06183790e-06  5.85985800e+01  8.92163354e-02  -7.48065371e+00
0.1000000000           9.08567298e-02  -1.54349729e+01 3.62290996e-06  5.98572752e+01  1.32872532e-01  -4.49499296e+00 3.89606125e-06  5.93720594e+01 
                       3.62291453e-06  5.98572598e+01  9.10023724e-02  -1.52930618e+01 4.04622240e-06  6.00854081e+01  1.32992246e-01  -4.44726049e+00
                       1.32870114e-01  -4.49591432e+00 4.04623913e-06  6.00857315e+01  9.09261846e-02  -1.53438171e+01 4.35632874e-06  5.96921900e+01 
                       3.89608031e-06  5.93723906e+01  1.32990212e-01  -4.44801699e+00 4.35632616e-06  5.96922166e+01  9.09963928e-02  -1.53174817e+01
0.1100000000           9.15155490e-02  -2.32676605e+01 3.90521185e-06  6.18234709e+01  1.34422056e-01  -1.32722697e+01 4.20175809e-06  6.11394868e+01 
                       3.90521540e-06  6.18234503e+01  9.15842440e-02  -2.31137513e+01 4.36783169e-06  6.17575699e+01  1.34494030e-01  -1.32156070e+01
                       1.34419845e-01  -1.32730412e+01 4.36785197e-06  6.17578161e+01  9.15632936e-02  -2.31685618e+01 4.70556096e-06  6.11722415e+01 
                       4.20178009e-06  6.11397334e+01  1.34492134e-01  -1.32162353e+01 4.70555905e-06  6.11722680e+01  9.16034919e-02  -2.31393501e+01
0.1200000000           9.09661665e-02  -3.11265243e+01 4.26322826e-06  6.39236707e+01  1.33539518e-01  -2.20078002e+01 4.58473232e-06  6.30354009e+01 
                       4.26323097e-06  6.39236496e+01  9.09413882e-02  -3.09592904e+01 4.76751563e-06  6.35520481e+01  1.33552384e-01  -2.19413144e+01
                       1.33537535e-01  -2.20084654e+01 4.76753828e-06  6.35522238e+01  9.09872315e-02  -3.10191658e+01 5.13445266e-06  6.27661642e+01 
                       4.58475611e-06  6.30355719e+01  1.33550657e-01  -2.19418527e+01 5.13445132e-06  6.27661892e+01  9.09902718e-02  -3.09866449e+01
0.1300000000           8.92152340e-02  -3.90499082e+01 4.71860441e-06  6.57943499e+01  1.30237365e-01  -3.07003770e+01 5.06729939e-06  6.47179723e+01 
                       4.71860655e-06  6.57943313e+01  8.90808158e-02  -3.88675149e+01 5.26775580e-06  6.51400795e+01  1.30180084e-01  -3.06227652e+01
                       1.30235588e-01  -3.07009584e+01 5.26778003e-06  6.51401895e+01  8.92047544e-02  -3.89338277e+01 5.66605074e-06  6.41663814e+01 
                       5.06732430e-06  6.47180762e+01  1.30178512e-01  -3.06232303e+01 5.66604982e-06  6.41664023e+01  8.91634439e-02  -3.88973006e+01
0.1400000000           8.62533672e-02  -4.70719890e+01 5.28774332e-06  6.71016806e+01  1.24558947e-01  -3.93415389e+01 5.66646469e-06  6.58702801e+01 
                       5.28774505e-06  6.71016636e+01  8.59938896e-02  -4.68719782e+01 5.88572859e-06  6.62166501e+01  1.24421072e-01  -3.92508278e+01
                       1.24557353e-01  -3.93420506e+01 5.88575365e-06  6.62167031e+01  8.62066717e-02  -4.69465277e+01 6.31806245e-06  6.50853769e+01 
                       5.66649009e-06  6.58703256e+01  1.24419639e-01  -3.92512311e+01 6.31806183e-06  6.50853950e+01  8.61138942e-02  -4.69049399e+01
0.1500000000           8.20652909e-02  -5.52222183e+01 5.97978597e-06  6.75884841e+01  1.16581272e-01  -4.79116278e+01 6.39180444e-06  6.62441771e+01 
                       5.97978731e-06  6.75884696e+01  8.16665756e-02  -5.50012978e+01 6.63117316e-06  6.65416411e+01  1.16353348e-01  -4.78046530e+01
                       1.16579857e-01  -4.79120909e+01 6.63119813e-06  6.65416506e+01  8.19781097e-02  -5.50865080e+01 7.10063949e-06  6.52933788e+01 
                       6.39182941e-06  6.62441813e+01  1.16352061e-01  -4.78050120e+01 7.10063891e-06  6.52933940e+01  8.18270214e-02  -5.50382739e+01
0.1600000000           7.66407470e-02  -6.35259962e+01 6.79470004e-06  6.70978241e+01  1.06419174e-01  -5.63722851e+01 7.24345955e-06  6.56839386e+01 
                       6.79470123e-06  6.70978125e+01  7.60904512e-02  -6.32796954e+01 7.50436850e-06  6.59624813e+01  1.06093253e-01  -5.62438294e+01
                       1.06417929e-01  -5.63727121e+01 7.50439202e-06  6.59624615e+01  7.65094005e-02  -6.33789356e+01 8.01425478e-06  6.46404408e+01 
                       7.24348345e-06  6.56839126e+01  1.06092103e-01  -5.62441537e+01 8.01425405e-06  6.46404532e+01  7.62937366e-02  -6.33216709e+01
0.1700000000           6.99848548e-02  -7.20067599e+01 7.72166720e-06  6.55723782e+01  9.42297237e-02  -6.46510306e+01 8.21045162e-06  6.41278495e+01 
                       7.72166855e-06  6.55723672e+01  6.92731667e-02  -7.17288624e+01 8.49442489e-06  6.44164078e+01  9.38001337e-02  -6.44919633e+01
                       9.42286404e-02  -6.46514404e+01 8.49444721e-06  6.44163704e+01  6.98063796e-02  -7.18469036e+01 9.04789045e-06  6.30604715e+01 
                       8.21047363e-06  6.41278066e+01  9.37991226e-02  -6.44922703e+01 9.04789045e-06  6.30604816e+01  6.95208512e-02  -7.17769812e+01
0.1800000000           6.21278708e-02  -8.06906309e+01 8.73814558e-06  6.30380046e+01  8.02185503e-02  -7.26062316e+01 9.26970452e-06  6.15945604e+01 
                       8.73814637e-06  6.30379939e+01  6.12482484e-02  -8.03722169e+01 9.57828032e-06  6.19183063e+01  7.96829628e-02  -7.23993819e+01
                       8.02176067e-02  -7.26066276e+01 9.57829982e-06  6.19182570e+01  6.19001983e-02  -8.05160839e+01 1.01779774e-05  6.05617190e+01 
                       9.26972507e-06  6.15945049e+01  7.96820712e-02  -7.23996698e+01 1.01779782e-05  6.05617275e+01  6.15409703e-02  -8.04279019e+01
0.1900000000           5.31334601e-02  -8.96172823e+01 9.80998845e-06  5.95820022e+01  6.46500939e-02  -7.99351277e+01 1.03861687e-05  5.81635101e+01 
                       9.80998948e-06  5.95819922e+01  5.20833494e-02  -8.92450906e+01 1.07207936e-05  5.85426259e+01  6.40115137e-02  -7.96440937e+01
                       6.46492767e-02  -7.99355185e+01 1.07208117e-05  5.85425712e+01  5.28555562e-02  -8.94254508e+01 1.13684648e-05  5.72109649e+01 
                       1.03861862e-05  5.81634495e+01  6.40107337e-02  -7.96443654e+01 1.13684645e-05  5.72109723e+01  5.24207048e-02  -8.93101142e+01
0.2000000000           4.31045688e-02  -9.88681561e+01 1.08930044e-05  5.53328522e+01  4.78744957e-02  -8.58760858e+01 1.15144104e-05  5.39559558e+01 
                       1.08930056e-05  5.53328420e+01  4.18859142e-02  -9.84217756e+01 1.18763213e-05  5.44054736e+01  4.71462369e-02  -8.54073937e+01
                       4.78737870e-02  -8.58764386e+01 1.18763362e-05  5.44054150e+01  4.27765044e-02  -9.86555179e+01 1.25724319e-05  5.31170537e+01 
                       1.15144248e-05  5.39558912e+01  4.71455545e-02  -8.54076016e+01 1.25724315e-05  5.31170606e+01  4.22663693e-02  -9.84982365e+01
0.2100000000           3.21870124e-02  -1.08656526e+02 1.19361008e-05  5.04445475e+01  3.04474837e-02  -8.78754885e+01 1.26018513e-05  4.91198026e+01 
                       1.19361011e-05  5.04445379e+01  3.08062759e-02  -1.08105072e+02 1.29919392e-05  4.96500106e+01  2.96752546e-02  -8.68925266e+01
                       3.04468717e-02  -8.78758525e+01 1.29919518e-05  4.96499578e+01  3.18100076e-02  -1.08419215e+02 1.37354102e-05  4.84169517e+01 
                       1.26018626e-05  4.91197433e+01  2.96746684e-02  -8.68926831e+01 1.37354099e-05  4.84169574e+01  3.12271898e-02  -1.08193849e+02
0.2200000000           2.05751087e-02  -1.19734537e+02 1.28858757e-05  4.50856133e+01  1.41875434e-02  -7.12902148e+01 1.35934896e-05  4.38186628e+01 
                       1.28858760e-05  4.50856034e+01  1.90421024e-02  -1.19059524e+02 1.40121816e-05  4.44356910e+01  1.36671658e-02  -6.76691334e+01
                       1.41870409e-02  -7.12898604e+01 1.40121908e-05  4.44356423e+01  2.01514085e-02  -1.19480586e+02 1.48002633e-05  4.32650809e+01 
                       1.35934976e-05  4.38186075e+01  1.36667273e-02  -6.76683283e+01 1.48002629e-05  4.32650855e+01  1.94996924e-02  -1.19142968e+02
0.2300000000           8.57983199e-03  -1.37267297e+02 1.36921720e-05  3.94318454e+01  1.34281596e-02  6.29309556e+00  1.44376084e-05  3.82243628e+01 
                       1.36921722e-05  3.94318361e+01  6.91262374e-03  -1.37675781e+02 1.48847733e-05  3.89307030e+01  1.43260759e-02  8.93470248e+00 
                       1.34281976e-02  6.29481878e+00  1.48847802e-05  3.89306612e+01  8.11562149e-03  -1.37356070e+02 1.57131063e-05  3.78256105e+01 
                       1.44376140e-05  3.82243145e+01  1.43262041e-02  8.93615670e+00  1.57131060e-05  3.78256144e+01  7.39693118e-03  -1.37213198e+02
0.2400000000           4.66080517e-03  7.60232475e+01  1.43137129e-05  3.36617217e+01  2.95210100e-02  2.55946351e+01  1.50915935e-05  3.25120445e+01 
                       1.43137120e-05  3.36617125e+01  6.12682518e-03  6.55502517e+01  1.55664931e-05  3.33068855e+01  3.06710177e-02  2.59489415e+01 
                       2.95211804e-02  2.55951240e+01  1.55664964e-05  3.33068502e+01  5.06695626e-03  7.27464435e+01  1.64293529e-05  3.22670649e+01 
                       1.50915955e-05  3.25120029e+01  3.06712380e-02  2.59493120e+01  1.64293526e-05  3.22670681e+01  5.66546080e-03  6.76720581e+01 
0.2500000000           1.67238408e-02  4.67658051e+01  1.47229706e-05  2.79534029e+01  4.71427869e-02  2.40546162e+01  1.55269375e-05  2.68568116e+01 
                       1.47229695e-05  2.79533944e+01  1.84713227e-02  4.50529376e+01  1.60282348e-05  2.77361237e+01  4.83486575e-02  2.41242597e+01 
                       4.71429292e-02  2.40548089e+01  1.60282368e-05  2.77360970e+01  1.72297960e-02  4.64318104e+01  1.69189417e-05  2.67583881e+01 
                       1.55269382e-05  2.68567788e+01  4.83488406e-02  2.41243912e+01  1.69189423e-05  2.67583919e+01  1.79575839e-02  4.53966937e+01 
0.2600000000           2.89010068e-02  3.46022739e+01  1.49094454e-05  2.24829203e+01  6.42351398e-02  1.82838180e+01  1.57326330e-05  2.14315955e+01 
                       1.49094441e-05  2.24829129e+01  3.07132846e-02  3.38239888e+01  1.62584432e-05  2.23879462e+01  6.54623726e-02  1.82943250e+01 
                       6.42352326e-02  1.82838998e+01  1.62584434e-05  2.23879276e+01  2.94339484e-02  3.45383478e+01  1.71698862e-05  2.14662137e+01 
                       1.57326309e-05  2.14315702e+01  6.54625051e-02  1.82943710e+01  1.71698859e-05  2.14662155e+01  3.01878555e-02  3.39751736e+01 
0.2700000000           4.06616875e-02  2.43478795e+01  1.48809072e-05  1.74227434e+01  8.01985059e-02  1.10707276e+01  1.57164413e-05  1.64054105e+01 
                       1.48809059e-05  1.74227366e+01  4.24903113e-02  2.39109332e+01  1.62644297e-05  1.74275280e+01  8.14226763e-02  1.10707812e+01 
                       8.01985486e-02  1.10707558e+01  1.62644287e-05  1.74275175e+01  4.12080896e-02  2.43792124e+01  1.71896287e-05  1.65525590e+01 
                       1.57164379e-05  1.64053940e+01  8.14227553e-02  1.10707862e+01  1.71896284e-05  1.65525607e+01  4.19652677e-02  2.39939780e+01 
0.2800000000           5.17663551e-02  1.47020897e+01  1.46626935e-05  1.29401686e+01  9.46554613e-02  3.23306801e+00  1.55041756e-05  1.19415255e+01 
                       1.46626921e-05  1.29401629e+01  5.35732705e-02  1.44506305e+01  1.60716741e-05  1.30136540e+01  9.58536102e-02  3.23827546e+00 
                       9.46554557e-02  3.23306547e+00  1.60716724e-05  1.30136517e+01  5.23153358e-02  1.47848115e+01  1.70043217e-05  1.21725445e+01 
                       1.55041714e-05  1.19415179e+01  9.58536398e-02  3.23825781e+00  1.70043215e-05  1.21725463e+01  5.30591447e-02  1.44979335e+01 
0.2900000000           6.20171864e-02  5.33789612e+00  1.42953677e-05  9.19410160e+00  1.07320883e-01  -4.90336217e+00 1.51372902e-05  8.19415906e+00 
                       1.42953662e-05  9.19409699e+00  6.37671072e-02  5.21107161e+00  1.57214219e-05  9.29534060e+00  1.08470962e-01  -4.88638554e+00
                       1.07320825e-01  -4.90338733e+00 1.57214200e-05  9.29534785e+00  6.25581470e-02  5.45528362e+00  1.66563434e-05  8.47086253e+00 
                       1.51372867e-05  8.19416404e+00  1.08470937e-01  -4.88642057e+00 1.66563433e-05  8.47086418e+00  6.32742425e-02  5.23515219e+00 
0.3000000000           7.12443920e-02  -3.86897979e+00 1.38314239e-05  6.32868967e+00  1.17975404e-01  -1.31828163e+01 1.46694882e-05  5.30232670e+00 
                       1.38314224e-05  6.32868583e+00  7.29037076e-02  -3.89994108e+00 1.52672796e-05  6.40586681e+00  1.19056550e-01  -1.31505080e+01
                       1.17975317e-01  -1.31828500e+01 1.52672780e-05  6.40587985e+00  7.17666873e-02  -3.72466420e+00 1.62007892e-05  5.57587454e+00 
                       1.46694852e-05  5.30233867e+00  1.19056493e-01  -1.31505482e+01 1.62007891e-05  5.57587624e+00  7.24423429e-02  -3.89330368e+00
0.3100000000           7.93017835e-02  -1.29814363e+01 1.33315483e-05  4.46117694e+00  1.26455650e-01  -2.15216989e+01 1.41628980e-05  3.37838184e+00 
                       1.33315468e-05  4.46117344e+00  8.08384200e-02  -1.29316090e+01 1.47713849e-05  4.45202564e+00  1.27448377e-01  -2.14716679e+01
                       1.26455504e-01  -2.15217447e+01 1.47713846e-05  4.45204896e+00  7.97948034e-02  -1.28141026e+01 1.57015227e-05  3.58928997e+00 
                       1.41628955e-05  3.37840218e+00  1.27448259e-01  -2.14717174e+01 1.57015226e-05  3.58929187e+00  8.04185778e-02  -1.29395148e+01
0.3200000000           8.60626499e-02  -2.20401469e+01 1.28608758e-05  3.66205810e+00  1.32647157e-01  -2.98715201e+01 1.36842749e-05  2.48958834e+00 
